Time Stamp,ID,Extended,Dir,Bus,LEN,D1,D2,D3,D4,D5,D6,D7,D8
1354673,0000042C,false,Rx,1,8,42,60,00,00,64,00,00,00,
1354915,0000043C,false,Rx,1,8,42,60,00,00,64,00,00,00,
1355156,0000044C,false,Rx,1,8,42,60,00,00,64,00,00,00,
1375703,0000045C,false,Rx,1,8,90,86,17,0E,00,00,84,86,
1454444,0000042C,false,Rx,1,8,42,60,00,00,64,00,00,00,
1454685,0000043C,false,Rx,1,8,42,60,00,00,64,00,00,00,
1454926,0000044C,false,Rx,1,8,42,60,00,00,64,00,00,00,
1475693,0000045C,false,Rx,1,8,91,86,17,0E,00,00,9D,86,
1554422,0000042C,false,Rx,1,8,42,60,00,00,64,00,00,00,
1554661,0000043C,false,Rx,1,8,42,60,00,00,64,00,00,00,
1554909,0000044C,false,Rx,1,8,42,60,00,00,64,00,00,00,
1575696,0000045C,false,Rx,1,8,92,86,17,0E,00,00,9C,86,
1654424,0000042C,false,Rx,1,8,42,60,00,00,64,00,00,00,
1654913,0000043C,false,Rx,1,8,42,60,00,00,64,00,00,00,
1655163,0000044C,false,Rx,1,8,42,60,00,00,64,00,00,00,
1675696,0000045C,false,Rx,1,8,8F,86,17,0E,00,00,90,86,
1754455,0000042C,false,Rx,1,8,42,60,00,00,64,00,00,00,
1754694,0000043C,false,Rx,1,8,42,60,00,00,64,00,00,00,
1754937,0000044C,false,Rx,1,8,42,60,00,00,64,00,00,00,
1775694,0000045C,false,Rx,1,8,93,86,17,0E,00,00,9C,86,
1854422,0000042C,false,Rx,1,8,42,60,00,00,64,00,00,00,
1854662,0000043C,false,Rx,1,8,42,60,00,00,64,00,00,00,
1854904,0000044C,false,Rx,1,8,42,60,00,00,64,00,00,00,
1875695,0000045C,false,Rx,1,8,90,86,17,0E,00,00,97,86,
1954432,0000042C,false,Rx,1,8,42,60,00,00,64,00,00,00,
1954680,0000043C,false,Rx,1,8,42,60,00,00,64,00,00,00,
1954921,0000044C,false,Rx,1,8,42,60,00,00,64,00,00,00,
1975690,0000045C,false,Rx,1,8,8D,86,17,0E,00,00,81,86,
2054430,0000042C,false,Rx,1,8,42,60,00,00,64,00,00,00,
2054670,0000043C,false,Rx,1,8,42,60,00,00,64,00,00,00,
2054911,0000044C,false,Rx,1,8,42,60,00,00,64,00,00,00,
2075698,0000045C,false,Rx,1,8,8F,86,17,0E,00,00,8F,86,
2154418,0000042C,false,Rx,1,8,42,60,00,00,64,00,00,00,
2154658,0000043C,false,Rx,1,8,42,60,00,00,64,00,00,00,
2154907,0000044C,false,Rx,1,8,42,60,00,00,64,00,00,00,
2175839,0000045C,false,Rx,1,8,92,86,17,0E,00,00,90,86,
2254424,0000042C,false,Rx,1,8,42,60,00,00,64,00,00,00,
2254671,0000043C,false,Rx,1,8,42,60,00,00,64,00,00,00,
2254915,0000044C,false,Rx,1,8,42,60,00,00,64,00,00,00,
2275681,0000045C,false,Rx,1,8,90,86,17,0E,00,00,9D,86,
2354673,0000042C,false,Rx,1,8,42,60,00,00,64,00,00,00,
2354915,0000043C,false,Rx,1,8,42,60,00,00,64,00,00,00,
2355164,0000044C,false,Rx,1,8,42,60,00,00,64,00,00,00,
2375683,0000045C,false,Rx,1,8,8F,86,17,0E,00,00,90,86,
2454435,0000042C,false,Rx,1,8,42,60,00,00,64,00,00,00,
2454676,0000043C,false,Rx,1,8,42,60,00,00,64,00,00,00,
2454925,0000044C,false,Rx,1,8,42,60,00,00,64,00,00,00,
2475685,0000045C,false,Rx,1,8,8B,86,17,0E,00,00,83,86,
2554432,0000042C,false,Rx,1,8,42,60,00,00,64,00,00,00,
2554676,0000043C,false,Rx,1,8,42,60,00,00,64,00,00,00,
2555167,0000044C,false,Rx,1,8,42,60,00,00,64,00,00,00,
2575687,0000045C,false,Rx,1,8,90,86,17,0E,00,00,91,86,
2654681,0000042C,false,Rx,1,8,42,60,00,00,64,00,00,00,
2654930,0000043C,false,Rx,1,8,42,60,00,00,64,00,00,00,
2655171,0000044C,false,Rx,1,8,42,60,00,00,64,00,00,00,
2675683,0000045C,false,Rx,1,8,8D,86,17,0E,00,00,8F,86,
2754443,0000042C,false,Rx,1,8,42,60,00,00,64,00,00,00,
2754683,0000043C,false,Rx,1,8,42,60,00,00,64,00,00,00,
2754933,0000044C,false,Rx,1,8,42,60,00,00,64,00,00,00,
2775672,0000045C,false,Rx,1,8,8D,86,17,0E,00,00,90,86,
2854426,0000042C,false,Rx,1,8,42,60,00,00,64,00,00,00,
2854665,0000043C,false,Rx,1,8,42,60,00,00,64,00,00,00,
2854915,0000044C,false,Rx,1,8,42,60,00,00,64,00,00,00,
2875671,0000045C,false,Rx,1,8,8F,86,17,0E,00,00,90,86,
2954454,0000042C,false,Rx,1,8,42,60,00,00,64,00,00,00,
2954695,0000043C,false,Rx,1,8,42,60,00,00,64,00,00,00,
2954936,0000044C,false,Rx,1,8,42,60,00,00,64,00,00,00,
2975671,0000045C,false,Rx,1,8,8F,86,17,0E,00,00,92,86,
3054442,0000042C,false,Rx,1,8,42,60,00,00,64,00,00,00,
3054682,0000043C,false,Rx,1,8,42,60,00,00,64,00,00,00,
3054923,0000044C,false,Rx,1,8,42,60,00,00,64,00,00,00,
3075645,0000045C,false,Rx,1,8,90,86,17,0E,00,00,85,86,
3154430,0000042C,false,Rx,1,8,42,60,00,00,64,00,00,00,
3154670,0000043C,false,Rx,1,8,42,60,00,00,64,00,00,00,
3154918,0000044C,false,Rx,1,8,42,60,00,00,64,00,00,00,
3175797,0000045C,false,Rx,1,8,91,86,17,0E,00,00,AA,86,
3254386,0000042C,false,Rx,1,8,42,60,00,00,64,00,00,00,
3254626,0000043C,false,Rx,1,8,42,60,00,00,64,00,00,00,
3254868,0000044C,false,Rx,1,8,42,60,00,00,64,00,00,00,
3275657,0000045C,false,Rx,1,8,91,86,17,0E,00,00,92,86,
3354683,0000042C,false,Rx,1,8,42,60,00,00,64,00,00,00,
3354924,0000043C,false,Rx,1,8,42,60,00,00,64,00,00,00,
3355165,0000044C,false,Rx,1,8,42,60,00,00,64,00,00,00,
3375659,0000045C,false,Rx,1,8,91,86,17,0E,00,00,8F,86,
3454451,0000042C,false,Rx,1,8,42,60,00,00,64,00,00,00,
3454692,0000043C,false,Rx,1,8,42,60,00,00,64,00,00,00,
3454948,0000044C,false,Rx,1,8,42,60,00,00,64,00,00,00,
3475663,0000045C,false,Rx,1,8,92,86,17,0E,00,00,84,86,
3554451,0000042C,false,Rx,1,8,42,60,00,00,64,00,00,00,
3554940,0000043C,false,Rx,1,8,42,60,00,00,64,00,00,00,
3555188,0000044C,false,Rx,1,8,42,60,00,00,64,00,00,00,
3575652,0000045C,false,Rx,1,8,8D,86,17,0E,00,00,90,86,
3654684,0000042C,false,Rx,1,8,42,60,00,00,64,00,00,00,
3654925,0000043C,false,Rx,1,8,42,60,00,00,64,00,00,00,
3655168,0000044C,false,Rx,1,8,42,60,00,00,64,00,00,00,
3675658,0000045C,false,Rx,1,8,8E,86,17,0E,00,00,8F,86,
3754449,0000042C,false,Rx,1,8,42,60,00,00,64,00,00,00,
3754695,0000043C,false,Rx,1,8,42,60,00,00,64,00,00,00,
3754938,0000044C,false,Rx,1,8,42,60,00,00,64,00,00,00,
3775647,0000045C,false,Rx,1,8,8D,86,17,0E,00,00,A1,86,
3854447,0000042C,false,Rx,1,8,42,60,00,00,64,00,00,00,
3854688,0000043C,false,Rx,1,8,42,60,00,00,64,00,00,00,
3854929,0000044C,false,Rx,1,8,42,60,00,00,64,00,00,00,
3875643,0000045C,false,Rx,1,8,8D,86,17,0E,00,00,92,86,
3954454,0000042C,false,Rx,1,8,42,60,00,00,64,00,00,00,
3954695,0000043C,false,Rx,1,8,42,60,00,00,64,00,00,00,
3954943,0000044C,false,Rx,1,8,42,60,00,00,64,00,00,00,
3975644,0000045C,false,Rx,1,8,8A,86,17,0E,00,00,92,86,
4054439,0000042C,false,Rx,1,8,42,60,00,00,64,00,00,00,
4054679,0000043C,false,Rx,1,8,42,60,00,00,64,00,00,00,
4054921,0000044C,false,Rx,1,8,42,60,00,00,64,00,00,00,
4075640,0000045C,false,Rx,1,8,8D,86,17,0E,00,00,87,86,
4154442,0000042C,false,Rx,1,8,42,60,00,00,64,00,00,00,
4154689,0000043C,false,Rx,1,8,42,60,00,00,64,00,00,00,
4154931,0000044C,false,Rx,1,8,42,60,00,00,64,00,00,00,
4175789,0000045C,false,Rx,1,8,8F,86,17,0E,00,00,85,86,
4254471,0000042C,false,Rx,1,8,42,60,00,00,64,00,00,00,
4254711,0000043C,false,Rx,1,8,42,60,00,00,64,00,00,00,
4254960,0000044C,false,Rx,1,8,42,60,00,00,64,00,00,00,
4275642,0000045C,false,Rx,1,8,8C,86,17,0E,00,00,9E,86,
4354682,0000042C,false,Rx,1,8,42,60,00,00,64,00,00,00,
4354931,0000043C,false,Rx,1,8,42,60,00,00,64,00,00,00,
4355171,0000044C,false,Rx,1,8,42,60,00,00,64,00,00,00,
4375642,0000045C,false,Rx,1,8,8C,86,17,0E,00,00,86,86,
4454461,0000042C,false,Rx,1,8,42,60,00,00,64,00,00,00,
4454709,0000043C,false,Rx,1,8,42,60,00,00,64,00,00,00,
4454950,0000044C,false,Rx,1,8,42,60,00,00,64,00,00,00,
4475635,0000045C,false,Rx,1,8,91,86,17,0E,00,00,87,86,
4554697,0000042C,false,Rx,1,8,42,60,00,00,64,00,00,00,
4554938,0000043C,false,Rx,1,8,42,60,00,00,64,00,00,00,
4555186,0000044C,false,Rx,1,8,42,60,00,00,64,00,00,00,
4575637,0000045C,false,Rx,1,8,87,86,17,0E,00,00,93,86,
4654690,0000042C,false,Rx,1,8,42,60,00,00,64,00,00,00,
4654932,0000043C,false,Rx,1,8,42,60,00,00,64,00,00,00,
4655179,0000044C,false,Rx,1,8,42,60,00,00,64,00,00,00,
4675627,0000045C,false,Rx,1,8,8A,86,17,0E,00,00,93,86,
4754464,0000042C,false,Rx,1,8,42,60,00,00,64,00,00,00,
4754711,0000043C,false,Rx,1,8,42,60,00,00,64,00,00,00,
4754953,0000044C,false,Rx,1,8,42,60,00,00,64,00,00,00,
4775634,0000045C,false,Rx,1,8,8B,86,17,0E,00,00,86,86,
4854442,0000042C,false,Rx,1,8,42,60,00,00,68,00,00,00,
4854683,0000043C,false,Rx,1,8,42,60,00,00,68,00,00,00,
4854924,0000044C,false,Rx,1,8,42,60,00,00,68,00,00,00,
4875625,0000045C,false,Rx,1,8,8D,86,17,0E,00,00,92,86,
4954463,0000042C,false,Rx,1,8,42,60,00,00,6D,00,00,00,
4954710,0000043C,false,Rx,1,8,42,60,00,00,6D,00,00,00,
4954951,0000044C,false,Rx,1,8,42,60,00,00,6D,00,00,00,
4975610,0000045C,false,Rx,1,8,8E,86,17,0E,00,00,85,86,
5054345,0000042C,false,Rx,1,8,42,60,00,00,6D,00,00,00,
5054592,0000043C,false,Rx,1,8,42,60,00,00,6D,00,00,00,
5054832,0000044C,false,Rx,1,8,42,60,00,00,6D,00,00,00,
5075652,0000045C,false,Rx,1,8,88,86,17,0E,00,00,7D,86,
5154438,0000042C,false,Rx,1,8,42,C4,00,00,6D,00,00,00,
5154678,0000043C,false,Rx,1,8,42,C4,00,00,6D,00,00,00,
5154912,0000044C,false,Rx,1,8,42,C4,00,00,6D,00,00,00,
5175812,0000045C,false,Rx,1,8,8E,86,17,0E,00,00,93,86,
5254345,0000042C,false,Rx,1,8,42,C4,00,00,6D,00,00,00,
5254582,0000043C,false,Rx,1,8,42,C4,00,00,6D,00,00,00,
5254824,0000044C,false,Rx,1,8,42,C4,00,00,6D,00,00,00,
5275642,0000045C,false,Rx,1,8,63,86,17,0E,00,00,7A,86,
5354701,0000042C,false,Rx,1,8,42,C4,00,00,6D,00,00,00,
5354943,0000043C,false,Rx,1,8,42,C4,00,00,6D,00,00,00,
5355183,0000044C,false,Rx,1,8,42,C4,00,00,6D,00,00,00,
5375623,0000045C,false,Rx,1,8,9A,86,17,0E,00,00,A1,86,
5454471,0000042C,false,Rx,1,8,42,C4,00,00,6D,00,00,00,
5454716,0000043C,false,Rx,1,8,42,C4,00,00,6D,00,00,00,
5454949,0000044C,false,Rx,1,8,42,C4,00,00,6D,00,00,00,
5475617,0000045C,false,Rx,1,8,9E,86,17,0E,00,00,A0,86,
5554693,0000042C,false,Rx,1,8,42,C4,00,00,6D,00,00,00,
5554934,0000043C,false,Rx,1,8,42,C4,00,00,6D,00,00,00,
5555177,0000044C,false,Rx,1,8,42,C4,00,00,6D,00,00,00,
5575610,0000045C,false,Rx,1,8,9E,86,17,0E,00,00,94,86,
5654469,0000042C,false,Rx,1,8,42,C4,00,00,6D,00,00,00,
5654708,0000043C,false,Rx,1,8,42,C4,00,00,6D,00,00,00,
5654945,0000044C,false,Rx,1,8,42,C4,00,00,6D,00,00,00,
5675647,0000045C,false,Rx,1,8,A2,86,15,0E,00,00,93,86,
5754456,0000042C,false,Rx,1,8,42,C4,00,00,6D,00,00,00,
5754697,0000043C,false,Rx,1,8,42,C4,00,00,6D,00,00,00,
5754938,0000044C,false,Rx,1,8,42,C4,00,00,6D,00,00,00,
5775611,0000045C,false,Rx,1,8,A1,86,15,0E,00,00,AC,86,
5854360,0000042C,false,Rx,1,8,42,C4,00,00,6C,00,00,00,
5854613,0000043C,false,Rx,1,8,42,C4,00,00,6C,00,00,00,
5854839,0000044C,false,Rx,1,8,42,C4,00,00,6C,00,00,00,
5876119,0000045C,false,Rx,1,8,A4,86,15,0E,00,00,A0,86,
5954467,0000042C,false,Rx,1,8,42,C4,00,00,6C,00,00,00,
5954711,0000043C,false,Rx,1,8,42,C4,00,00,6C,00,00,00,
5954945,0000044C,false,Rx,1,8,42,C4,00,00,6C,00,00,00,
5959669,0000042C,false,Rx,1,8,42,C4,00,00,6C,00,00,00,
5960844,0000042C,false,Rx,1,8,42,C4,00,00,6C,00,00,00,
5961324,0000043C,false,Rx,1,8,42,C4,00,00,6C,00,00,00,
5961789,0000044C,false,Rx,1,8,42,C4,00,00,6C,00,00,00,
5975613,0000045C,false,Rx,1,8,A3,86,15,2E,00,00,8F,86,
6060649,0000042C,false,Rx,1,8,42,C4,00,00,6C,00,00,00,
6060890,0000043C,false,Rx,1,8,42,C4,00,00,6C,00,00,00,
6061131,0000044C,false,Rx,1,8,42,C4,00,00,6C,00,00,00,
6075660,0000045C,false,Rx,1,8,A3,86,15,2E,00,00,A9,86,
6159665,0000042C,false,Rx,1,8,42,C4,00,00,6C,00,00,00,
6160123,0000043C,false,Rx,1,8,42,C4,00,00,6C,00,00,00,
6160597,0000044C,false,Rx,1,8,42,C4,00,00,6C,00,00,00,
6175698,0000045C,false,Rx,1,8,88,8A,14,2E,00,00,9D,86,
6259635,0000042C,false,Rx,1,8,42,C4,00,00,FC,00,00,00,
6260041,0000043C,false,Rx,1,8,42,C4,00,00,FC,00,00,00,
6260415,0000044C,false,Rx,1,8,42,C4,00,00,FC,00,00,00,
6275617,0000045C,false,Rx,1,8,83,8A,14,2E,00,00,85,86,
6359657,0000042C,false,Rx,1,8,42,C4,00,00,FC,00,00,00,
6360117,0000043C,false,Rx,1,8,42,C4,00,00,FC,00,00,00,
6360596,0000044C,false,Rx,1,8,42,C4,00,00,FC,00,00,00,
6375610,0000045C,false,Rx,1,8,8A,8A,14,2E,00,00,9E,86,
6459618,0000042C,false,Rx,1,8,42,C4,00,00,FC,00,00,00,
6460025,0000043C,false,Rx,1,8,42,C4,00,00,FC,00,00,00,
6460406,0000044C,false,Rx,1,8,42,C4,00,00,FC,00,00,00,
6475585,0000045C,false,Rx,1,8,86,8A,14,2E,00,00,93,86,
6559621,0000042C,false,Rx,1,8,42,C4,00,00,FC,00,00,00,
6560026,0000043C,false,Rx,1,8,42,C4,00,00,FC,00,00,00,
6560409,0000044C,false,Rx,1,8,42,C4,00,00,FC,00,00,00,
6575591,0000045C,false,Rx,1,8,84,8A,14,2E,00,00,96,86,
6659615,0000042C,false,Rx,1,8,42,C4,00,00,FC,00,00,00,
6660410,0000043C,false,Rx,1,8,42,C4,00,00,FC,00,00,00,
6660884,0000044C,false,Rx,1,8,42,C4,00,00,FC,00,00,00,
6675570,0000045C,false,Rx,1,8,83,8A,14,2E,00,00,A1,86,
6759645,0000042C,false,Rx,1,8,42,C4,00,00,FC,00,00,00,
6760104,0000043C,false,Rx,1,8,42,C4,00,00,FC,00,00,00,
6760584,0000044C,false,Rx,1,8,42,C4,00,00,FC,00,00,00,
6775590,0000045C,false,Rx,1,8,80,8A,14,2E,00,00,94,86,
6859638,0000042C,false,Rx,1,8,42,C4,00,00,FC,00,00,00,
6860105,0000043C,false,Rx,1,8,42,C4,00,00,FC,00,00,00,
6860586,0000044C,false,Rx,1,8,42,C4,00,00,FC,00,00,00,
6876032,0000045C,false,Rx,1,8,80,8A,14,2E,00,00,AC,86,
6959662,0000042C,false,Rx,1,8,42,C4,00,00,FC,00,00,00,
6960135,0000043C,false,Rx,1,8,42,C4,00,00,FC,00,00,00,
6960609,0000044C,false,Rx,1,8,42,C4,00,00,FC,00,00,00,
6975570,0000045C,false,Rx,1,8,7D,8A,14,2E,00,00,93,86,
7059660,0000042C,false,Rx,1,8,42,C4,00,00,FC,00,00,00,
7060126,0000043C,false,Rx,1,8,42,C4,00,00,FC,00,00,00,
7060607,0000044C,false,Rx,1,8,42,C4,00,00,FC,00,00,00,
7075657,0000045C,false,Rx,1,8,7E,8A,14,2E,00,00,A0,86,
7158672,0000042C,false,Rx,1,8,42,C4,00,00,FC,00,00,00,
7159137,0000043C,false,Rx,1,8,42,C4,00,00,FC,00,00,00,
7159618,0000044C,false,Rx,1,8,42,C4,00,00,FC,00,00,00,
7175794,0000045C,false,Rx,1,8,82,8A,14,2E,00,00,A0,86,
7258570,0000042C,false,Rx,1,8,42,C4,00,00,FC,00,00,00,
7259058,0000043C,false,Rx,1,8,42,C4,00,00,FC,00,00,00,
7259523,0000044C,false,Rx,1,8,42,C4,00,00,FC,00,00,00,
7275583,0000045C,false,Rx,1,8,80,8A,14,2E,00,00,87,86,
7358324,0000042C,false,Rx,1,8,42,C4,00,00,FC,00,00,00,
7358572,0000043C,false,Rx,1,8,42,C4,00,00,FC,00,00,00,
7358813,0000044C,false,Rx,1,8,42,C4,00,00,FC,00,00,00,
7375581,0000045C,false,Rx,1,8,7D,8A,14,2E,00,00,94,86,
7458525,0000042C,false,Rx,1,8,42,C4,00,00,FC,00,00,00,
7458772,0000043C,false,Rx,1,8,42,C4,00,00,FC,00,00,00,
7459015,0000044C,false,Rx,1,8,42,C4,00,00,FC,00,00,00,
7475559,0000045C,false,Rx,1,8,7A,8A,14,2E,00,00,85,86,
7558402,0000042C,false,Rx,1,8,42,C4,00,00,FC,00,00,00,
7558649,0000043C,false,Rx,1,8,42,C4,00,00,FC,00,00,00,
7558892,0000044C,false,Rx,1,8,42,C4,00,00,FC,00,00,00,
7575553,0000045C,false,Rx,1,8,78,8A,14,2E,00,00,92,86,
7658700,0000042C,false,Rx,1,8,42,C4,00,00,FC,00,00,00,
7659188,0000043C,false,Rx,1,8,42,C4,00,00,FC,00,00,00,
7659903,0000044C,false,Rx,1,8,42,C4,00,00,FC,00,00,00,
7675580,0000045C,false,Rx,1,8,79,8A,14,2E,00,00,A3,86,
7758564,0000042C,false,Rx,1,8,42,C4,00,00,FC,00,00,00,
7759045,0000043C,false,Rx,1,8,42,C4,00,00,FC,00,00,00,
7759518,0000044C,false,Rx,1,8,42,C4,00,00,FC,00,00,00,
7775570,0000045C,false,Rx,1,8,78,8A,14,2E,00,00,A1,86,
7858543,0000042C,false,Rx,1,8,42,C4,00,00,FC,00,00,00,
7858783,0000043C,false,Rx,1,8,42,C4,00,00,FC,00,00,00,
7859025,0000044C,false,Rx,1,8,42,C4,00,00,FC,00,00,00,
7875541,0000045C,false,Rx,1,8,79,8A,14,2E,00,00,93,86,
7958633,0000042C,false,Rx,1,8,42,C4,00,00,FC,00,00,00,
7959121,0000043C,false,Rx,1,8,42,C4,00,00,FC,00,00,00,
7959587,0000044C,false,Rx,1,8,42,C4,00,00,FC,00,00,00,
7976048,0000042C,false,Rx,1,8,42,C4,00,00,FC,00,00,00,
7976296,0000043C,false,Rx,1,8,42,C4,00,00,FC,00,00,00,
7976537,0000044C,false,Rx,1,8,42,C4,00,00,FC,00,00,00,
7976769,0000045C,false,Rx,1,8,7D,8A,14,2E,00,00,93,86,
8076059,0000042C,false,Rx,1,8,42,C4,00,00,FC,00,00,00,
8076306,0000043C,false,Rx,1,8,42,C4,00,00,FC,00,00,00,
8076548,0000044C,false,Rx,1,8,42,C4,00,00,FC,00,00,00,
8076780,0000045C,false,Rx,1,8,78,8A,14,2E,00,00,88,86,
8176560,0000042C,false,Rx,1,8,42,C4,00,00,FC,00,00,00,
8176808,0000043C,false,Rx,1,8,42,C4,00,00,FC,00,00,00,
8177050,0000044C,false,Rx,1,8,42,C4,00,00,FC,00,00,00,
8177282,0000045C,false,Rx,1,8,7D,8A,14,2E,00,00,95,86,
8276039,0000042C,false,Rx,1,8,42,C4,00,00,FC,00,00,00,
8276287,0000043C,false,Rx,1,8,42,C4,00,00,FC,00,00,00,
8276527,0000044C,false,Rx,1,8,42,C4,00,00,FC,00,00,00,
8276759,0000045C,false,Rx,1,8,7B,8A,14,2E,00,00,92,86,
8376052,0000042C,false,Rx,1,8,42,C4,00,00,FC,00,00,00,
8376292,0000043C,false,Rx,1,8,42,C4,00,00,FC,00,00,00,
8376539,0000044C,false,Rx,1,8,42,C4,00,00,FC,00,00,00,
8376773,0000045C,false,Rx,1,8,7B,8A,14,2E,00,00,A0,86,
8473270,0000042C,false,Rx,1,8,42,C4,00,00,FC,00,00,00,
8473518,0000043C,false,Rx,1,8,42,C4,00,00,FC,00,00,00,
8473758,0000044C,false,Rx,1,8,42,C4,00,00,FC,00,00,00,
8476250,0000042C,false,Rx,1,8,42,C4,00,00,FC,00,00,00,
8476498,0000043C,false,Rx,1,8,42,C4,00,00,FC,00,00,00,
8476738,0000044C,false,Rx,1,8,42,C4,00,00,FC,00,00,00,
8476972,0000045C,false,Rx,1,8,78,8A,14,2E,00,00,87,86,
8576044,0000042C,false,Rx,1,8,42,C4,00,00,FC,00,00,00,
8576292,0000043C,false,Rx,1,8,42,C4,00,00,FC,00,00,00,
8576532,0000044C,false,Rx,1,8,42,C4,00,00,FC,00,00,00,
8576757,0000045C,false,Rx,1,8,7B,8A,14,2E,00,00,87,86,
8676518,0000042C,false,Rx,1,8,42,C4,00,00,FE,00,00,00,
8676758,0000043C,false,Rx,1,8,42,C4,00,00,FC,00,00,00,
8677000,0000044C,false,Rx,1,8,42,C4,00,00,FC,00,00,00,
8677480,0000045C,false,Rx,1,8,79,8A,14,2E,00,00,A0,86,
8776056,0000042C,false,Rx,1,8,42,C4,00,00,FE,00,00,00,
8776303,0000043C,false,Rx,1,8,42,C4,00,00,FC,00,00,00,
8776543,0000044C,false,Rx,1,8,42,C4,00,00,FC,00,00,00,
8776777,0000045C,false,Rx,1,8,7C,8A,14,2E,00,00,88,86,
8876040,0000042C,false,Rx,1,8,42,C4,00,00,FE,00,00,00,
8876287,0000043C,false,Rx,1,8,42,C4,00,00,FC,00,00,00,
8876528,0000044C,false,Rx,1,8,42,C4,00,00,FC,00,00,00,
8876761,0000045C,false,Rx,1,8,79,8A,14,2E,00,00,93,86,
8976022,0000042C,false,Rx,1,8,42,C4,00,00,FE,00,00,00,
8976270,0000043C,false,Rx,1,8,42,C4,00,00,FC,00,00,00,
8976511,0000044C,false,Rx,1,8,42,C4,00,00,FC,00,00,00,
8976744,0000045C,false,Rx,1,8,7A,8A,14,2E,00,00,94,86,
9076033,0000042C,false,Rx,1,8,42,C4,00,00,FE,00,00,00,
9076274,0000043C,false,Rx,1,8,42,C4,00,00,FC,00,00,00,
9076522,0000044C,false,Rx,1,8,42,C4,00,00,FC,00,00,00,
9076747,0000045C,false,Rx,1,8,7A,8A,14,2E,00,00,8A,86,
9176530,0000042C,false,Rx,1,8,42,C4,00,00,FE,00,00,00,
9176777,0000043C,false,Rx,1,8,42,C4,00,00,FC,00,00,00,
9177019,0000044C,false,Rx,1,8,42,C4,00,00,FC,00,00,00,
9177252,0000045C,false,Rx,1,8,7A,8A,14,2E,00,00,85,86,
9276041,0000042C,false,Rx,1,8,42,C4,00,00,FE,00,00,00,
9276288,0000043C,false,Rx,1,8,42,C4,00,00,FC,00,00,00,
9276536,0000044C,false,Rx,1,8,42,C4,00,00,FC,00,00,00,
9276762,0000045C,false,Rx,1,8,79,8A,14,2E,00,00,87,86,
9376023,0000042C,false,Rx,1,8,42,C4,00,00,FE,00,00,00,
9376270,0000043C,false,Rx,1,8,42,C4,00,00,FC,00,00,00,
9376510,0000044C,false,Rx,1,8,42,C4,00,00,FC,00,00,00,
9376736,0000045C,false,Rx,1,8,75,8A,14,2E,00,00,88,86,
9476012,0000042C,false,Rx,1,8,42,C4,00,00,FE,00,00,00,
9476260,0000043C,false,Rx,1,8,42,C4,00,00,FC,00,00,00,
9476501,0000044C,false,Rx,1,8,42,C4,00,00,FC,00,00,00,
9476734,0000045C,false,Rx,1,8,75,8A,14,2E,00,00,88,86,
9575781,0000042C,false,Rx,1,8,42,C4,00,00,FE,00,00,00,
9576023,0000043C,false,Rx,1,8,42,C4,00,00,FC,00,00,00,
9576271,0000044C,false,Rx,1,8,42,C4,00,00,FC,00,00,00,
9576497,0000045C,false,Rx,1,8,78,8A,14,2E,00,00,8A,86,
9676012,0000042C,false,Rx,1,8,42,C4,00,00,FE,00,00,00,
9676261,0000043C,false,Rx,1,8,42,C4,00,00,FC,00,00,00,
9676501,0000044C,false,Rx,1,8,42,C4,00,00,FC,00,00,00,
9676733,0000045C,false,Rx,1,8,7A,8A,14,2E,00,00,88,86,
9775796,0000042C,false,Rx,1,8,42,C4,00,00,FE,00,00,00,
9776046,0000043C,false,Rx,1,8,42,C4,00,00,FC,00,00,00,
9776286,0000044C,false,Rx,1,8,42,C4,00,00,FC,00,00,00,
9776518,0000045C,false,Rx,1,8,75,8A,14,2E,00,00,87,86,
9876015,0000042C,false,Rx,1,8,42,C4,00,00,FE,00,00,00,
9876262,0000043C,false,Rx,1,8,42,C4,00,00,FC,00,00,00,
9876511,0000044C,false,Rx,1,8,42,C4,00,00,FC,00,00,00,
9876736,0000045C,false,Rx,1,8,75,8A,14,2E,00,00,88,86,
9975807,0000042C,false,Rx,1,8,42,C4,00,00,FE,00,00,00,
9976055,0000043C,false,Rx,1,8,42,C4,00,00,FC,00,00,00,
9976303,0000044C,false,Rx,1,8,42,C4,00,00,FC,00,00,00,
9976529,0000045C,false,Rx,1,8,71,8A,14,2E,00,00,87,86,
10075805,0000042C,false,Rx,1,8,42,C4,00,00,FE,00,00,00,
10076053,0000043C,false,Rx,1,8,42,C4,00,00,FC,00,00,00,
10076303,0000044C,false,Rx,1,8,42,C4,00,00,FC,00,00,00,
10076528,0000045C,false,Rx,1,8,75,8A,14,2E,00,00,87,86,
10176153,0000042C,false,Rx,1,8,42,C4,00,00,FE,00,00,00,
10176648,0000043C,false,Rx,1,8,42,C4,00,00,FC,00,00,00,
10176890,0000044C,false,Rx,1,8,42,C4,00,00,FC,00,00,00,
10177123,0000045C,false,Rx,1,8,74,8A,14,2E,00,00,95,86,
10275814,0000042C,false,Rx,1,8,42,C4,00,00,FE,00,00,00,
10276055,0000043C,false,Rx,1,8,42,C4,00,00,FC,00,00,00,
10276303,0000044C,false,Rx,1,8,42,C4,00,00,FC,00,00,00,
10276535,0000045C,false,Rx,1,8,74,8A,14,2E,00,00,7D,86,
10375997,0000042C,false,Rx,1,8,42,C4,00,00,FE,00,00,00,
10376271,0000043C,false,Rx,1,8,42,C4,00,00,FC,00,00,00,
10376490,0000044C,false,Rx,1,8,42,C4,00,00,FC,00,00,00,
10376722,0000045C,false,Rx,1,8,75,8A,14,2E,00,00,95,86,
10475806,0000042C,false,Rx,1,8,42,C4,00,00,FE,00,00,00,
10476047,0000043C,false,Rx,1,8,42,C4,00,00,FC,00,00,00,
10476294,0000044C,false,Rx,1,8,42,C4,00,00,FC,00,00,00,
10476521,0000045C,false,Rx,1,8,73,8A,14,2E,00,00,93,86,
10575994,0000042C,false,Rx,1,8,42,C4,00,00,FE,00,00,00,
10576243,0000043C,false,Rx,1,8,42,C4,00,00,FC,00,00,00,
10576483,0000044C,false,Rx,1,8,42,C4,00,00,FC,00,00,00,
10576715,0000045C,false,Rx,1,8,76,8A,14,2E,00,00,87,86,
10675777,0000042C,false,Rx,1,8,42,C4,00,00,FE,00,00,00,
10676020,0000043C,false,Rx,1,8,42,C4,00,00,FC,00,00,00,
10676286,0000044C,false,Rx,1,8,42,C4,00,00,FC,00,00,00,
10676496,0000045C,false,Rx,1,8,75,8A,14,2E,00,00,85,86,
10776011,0000042C,false,Rx,1,8,42,C4,00,00,FE,00,00,00,
10776266,0000043C,false,Rx,1,8,42,C4,00,00,FC,00,00,00,
10776498,0000044C,false,Rx,1,8,42,C4,00,00,FC,00,00,00,
10776732,0000045C,false,Rx,1,8,76,8A,14,2E,00,00,88,86,
10876078,0000042C,false,Rx,1,8,42,C4,00,00,FE,00,00,00,
10876325,0000043C,false,Rx,1,8,42,C4,00,00,FC,00,00,00,
10876566,0000044C,false,Rx,1,8,42,C4,00,00,FC,00,00,00,
10876799,0000045C,false,Rx,1,8,76,8A,14,2E,00,00,89,86,
10975988,0000042C,false,Rx,1,8,42,C4,00,00,FE,00,00,00,
10976235,0000043C,false,Rx,1,8,42,C4,00,00,FC,00,00,00,
10976477,0000044C,false,Rx,1,8,42,C4,00,00,FC,00,00,00,
10976709,0000045C,false,Rx,1,8,73,8A,14,2E,00,00,88,86,
11075973,0000042C,false,Rx,1,8,42,C4,00,00,FE,00,00,00,
11076222,0000043C,false,Rx,1,8,42,C4,00,00,FC,00,00,00,
11076462,0000044C,false,Rx,1,8,42,C4,00,00,FC,00,00,00,
11076694,0000045C,false,Rx,1,8,72,8A,14,2E,00,00,87,86,
11176028,0000042C,false,Rx,1,8,42,C4,00,00,FE,00,00,00,
11176530,0000043C,false,Rx,1,8,42,C4,00,00,FC,00,00,00,
11176771,0000044C,false,Rx,1,8,42,C4,00,00,FC,00,00,00,
11177005,0000045C,false,Rx,1,8,72,8A,14,2E,00,00,89,86,
11275985,0000042C,false,Rx,1,8,42,C4,00,00,FE,00,00,00,
11276233,0000043C,false,Rx,1,8,42,C4,00,00,FC,00,00,00,
11276473,0000044C,false,Rx,1,8,42,C4,00,00,FC,00,00,00,
11276707,0000045C,false,Rx,1,8,71,8A,14,2E,00,00,88,86,
11375981,0000042C,false,Rx,1,8,42,C4,00,00,FE,00,00,00,
11376228,0000043C,false,Rx,1,8,42,C4,00,00,FC,00,00,00,
11376469,0000044C,false,Rx,1,8,42,C4,00,00,FC,00,00,00,
11376701,0000045C,false,Rx,1,8,75,8A,14,2E,00,00,86,86,
11475978,0000042C,false,Rx,1,8,42,C4,00,00,FE,00,00,00,
11476225,0000043C,false,Rx,1,8,42,C4,00,00,FC,00,00,00,
11476467,0000044C,false,Rx,1,8,42,C4,00,00,FC,00,00,00,
11476699,0000045C,false,Rx,1,8,71,8A,14,2E,00,00,93,86,
11575746,0000042C,false,Rx,1,8,42,C4,00,00,FE,00,00,00,
11575995,0000043C,false,Rx,1,8,42,C4,00,00,FC,00,00,00,
11576259,0000044C,false,Rx,1,8,42,C4,00,00,FC,00,00,00,
11576469,0000045C,false,Rx,1,8,72,8A,14,2E,00,00,7C,86,
11675993,0000042C,false,Rx,1,8,42,C4,00,00,FE,00,00,00,
11676241,0000043C,false,Rx,1,8,42,C4,00,00,FC,00,00,00,
11676480,0000044C,false,Rx,1,8,42,C4,00,00,FC,00,00,00,
11676714,0000045C,false,Rx,1,8,6F,8A,14,2E,00,00,88,86,
11775784,0000042C,false,Rx,1,8,42,C4,00,00,FE,00,00,00,
11776032,0000043C,false,Rx,1,8,42,C4,00,00,FC,00,00,00,
11776273,0000044C,false,Rx,1,8,42,C4,00,00,FC,00,00,00,
11776505,0000045C,false,Rx,1,8,6F,8A,14,2E,00,00,86,86,
11875965,0000042C,false,Rx,1,8,42,C4,00,00,FE,00,00,00,
11876212,0000043C,false,Rx,1,8,42,C4,00,00,FC,00,00,00,
11876454,0000044C,false,Rx,1,8,42,C4,00,00,FC,00,00,00,
11876686,0000045C,false,Rx,1,8,74,8A,14,2E,00,00,88,86,
11975769,0000042C,false,Rx,1,8,42,C4,00,00,FE,00,00,00,
11976018,0000043C,false,Rx,1,8,42,C4,00,00,FC,00,00,00,
11976259,0000044C,false,Rx,1,8,42,C4,00,00,FC,00,00,00,
11976492,0000045C,false,Rx,1,8,6F,8A,14,2E,00,00,88,86,
12075964,0000042C,false,Rx,1,8,42,C4,00,00,FE,00,00,00,
12076235,0000043C,false,Rx,1,8,42,C4,00,00,FC,00,00,00,
12076453,0000044C,false,Rx,1,8,42,C4,00,00,FC,00,00,00,
12076685,0000045C,false,Rx,1,8,77,8A,14,2E,00,00,93,86,
12176035,0000042C,false,Rx,1,8,42,C4,00,00,FE,00,00,00,
12176537,0000043C,false,Rx,1,8,42,C4,00,00,FC,00,00,00,
12176778,0000044C,false,Rx,1,8,42,C4,00,00,FC,00,00,00,
12177004,0000045C,false,Rx,1,8,70,8A,14,2E,00,00,86,86,
12275956,0000042C,false,Rx,1,8,42,C4,00,00,FE,00,00,00,
12276221,0000043C,false,Rx,1,8,42,C4,00,00,FC,00,00,00,
12276446,0000044C,false,Rx,1,8,42,C4,00,00,FC,00,00,00,
12276679,0000045C,false,Rx,1,8,73,8A,14,2E,00,00,94,86,
12375958,0000042C,false,Rx,1,8,42,C4,00,00,FE,00,00,00,
12376205,0000043C,false,Rx,1,8,42,C4,00,00,FC,00,00,00,
12376447,0000044C,false,Rx,1,8,42,C4,00,00,FC,00,00,00,
12376672,0000045C,false,Rx,1,8,75,8A,14,2E,00,00,88,86,
12475954,0000042C,false,Rx,1,8,42,C4,00,00,FE,00,00,00,
12476202,0000043C,false,Rx,1,8,42,C4,00,00,FC,00,00,00,
12476442,0000044C,false,Rx,1,8,42,C4,00,00,FC,00,00,00,
12476674,0000045C,false,Rx,1,8,73,8A,14,2E,00,00,87,86,
12575951,0000042C,false,Rx,1,8,42,C4,00,00,FE,00,00,00,
12576218,0000043C,false,Rx,1,8,42,C4,00,00,FC,00,00,00,
12576435,0000044C,false,Rx,1,8,42,C4,00,00,FC,00,00,00,
12576668,0000045C,false,Rx,1,8,73,8A,14,2E,00,00,87,86,
12675975,0000042C,false,Rx,1,8,42,C4,00,00,FE,00,00,00,
12676223,0000043C,false,Rx,1,8,42,C4,00,00,FC,00,00,00,
12676463,0000044C,false,Rx,1,8,42,C4,00,00,FC,00,00,00,
12676696,0000045C,false,Rx,1,8,72,8A,14,2E,00,00,85,86,
12775948,0000042C,false,Rx,1,8,42,C4,00,00,FE,00,00,00,
12776203,0000043C,false,Rx,1,8,42,C4,00,00,FC,00,00,00,
12776435,0000044C,false,Rx,1,8,42,C4,00,00,FC,00,00,00,
12776669,0000045C,false,Rx,1,8,6E,8A,14,2E,00,00,93,86,
12875939,0000042C,false,Rx,1,8,42,C4,00,00,FE,00,00,00,
12876186,0000043C,false,Rx,1,8,42,C4,00,00,FC,00,00,00,
12876427,0000044C,false,Rx,1,8,42,C4,00,00,FC,00,00,00,
12876660,0000045C,false,Rx,1,8,70,8A,14,2E,00,00,87,86,
12975938,0000042C,false,Rx,1,8,42,C4,00,00,FE,00,00,00,
12976196,0000043C,false,Rx,1,8,42,C4,00,00,FC,00,00,00,
12976428,0000044C,false,Rx,1,8,42,C4,00,00,FC,00,00,00,
12976660,0000045C,false,Rx,1,8,6E,8A,14,2E,00,00,8A,86,
13076436,0000042C,false,Rx,1,8,42,C4,00,00,FE,00,00,00,
13076676,0000043C,false,Rx,1,8,42,C4,00,00,FE,00,00,00,
13077158,0000044C,false,Rx,1,8,42,C4,00,00,FC,00,00,00,
13077390,0000045C,false,Rx,1,8,6B,8A,14,2E,00,00,A0,86,
13176462,0000042C,false,Rx,1,8,42,C4,00,00,FE,00,00,00,
13176703,0000043C,false,Rx,1,8,42,C4,00,00,FE,00,00,00,
13176944,0000044C,false,Rx,1,8,42,C4,00,00,FC,00,00,00,
13177184,0000045C,false,Rx,1,8,6F,8A,14,2E,00,00,93,86,
13275945,0000042C,false,Rx,1,8,42,C4,00,00,FE,00,00,00,
13276185,0000043C,false,Rx,1,8,42,C4,00,00,FE,00,00,00,
13276425,0000044C,false,Rx,1,8,42,C4,00,00,FC,00,00,00,
13276658,0000045C,false,Rx,1,8,6F,8A,14,2E,00,00,92,86,
13375935,0000042C,false,Rx,1,8,42,C4,00,00,FE,00,00,00,
13376175,0000043C,false,Rx,1,8,42,C4,00,00,FE,00,00,00,
13376417,0000044C,false,Rx,1,8,42,C4,00,00,FC,00,00,00,
13376656,0000045C,false,Rx,1,8,6D,8A,14,2E,00,00,92,86,
13475931,0000042C,false,Rx,1,8,42,C4,00,00,FE,00,00,00,
13476172,0000043C,false,Rx,1,8,42,C4,00,00,FE,00,00,00,
13476420,0000044C,false,Rx,1,8,42,C4,00,00,FC,00,00,00,
13476645,0000045C,false,Rx,1,8,6D,8A,14,2E,00,00,87,86,
13575933,0000042C,false,Rx,1,8,42,C4,00,00,FE,00,00,00,
13576174,0000043C,false,Rx,1,8,42,C4,00,00,FE,00,00,00,
13576414,0000044C,false,Rx,1,8,42,C4,00,00,FC,00,00,00,
13576647,0000045C,false,Rx,1,8,71,8A,14,2E,00,00,85,86,
13675960,0000042C,false,Rx,1,8,42,C4,00,00,FE,00,00,00,
13676200,0000043C,false,Rx,1,8,42,C4,00,00,FE,00,00,00,
13676440,0000044C,false,Rx,1,8,42,C4,00,00,FC,00,00,00,
13676673,0000045C,false,Rx,1,8,75,8A,14,2E,00,00,87,86,
13775933,0000042C,false,Rx,1,8,42,C4,00,00,FE,00,00,00,
13776174,0000043C,false,Rx,1,8,42,C4,00,00,FE,00,00,00,
13776414,0000044C,false,Rx,1,8,42,C4,00,00,FC,00,00,00,
13776647,0000045C,false,Rx,1,8,70,8A,14,2E,00,00,92,86,
13875929,0000042C,false,Rx,1,8,42,C4,00,00,FE,00,00,00,
13876169,0000043C,false,Rx,1,8,42,C4,00,00,FE,00,00,00,
13876417,0000044C,false,Rx,1,8,42,C4,00,00,FC,00,00,00,
13876642,0000045C,false,Rx,1,8,6E,8A,14,2E,00,00,A0,86,
13975926,0000042C,false,Rx,1,8,42,C4,00,00,FE,00,00,00,
13976168,0000043C,false,Rx,1,8,42,C4,00,00,FE,00,00,00,
13976408,0000044C,false,Rx,1,8,42,C4,00,00,FC,00,00,00,
13976640,0000045C,false,Rx,1,8,73,8A,14,2E,00,00,9E,86,
14075950,0000042C,false,Rx,1,8,42,C4,00,00,FE,00,00,00,
14076190,0000043C,false,Rx,1,8,42,C4,00,00,FE,00,00,00,
14076437,0000044C,false,Rx,1,8,42,C4,00,00,FC,00,00,00,
14076662,0000045C,false,Rx,1,8,73,8A,14,2E,00,00,84,86,
14176442,0000042C,false,Rx,1,8,42,C4,00,00,FE,00,00,00,
14176684,0000043C,false,Rx,1,8,42,C4,00,00,FE,00,00,00,
14176926,0000044C,false,Rx,1,8,42,C4,00,00,FC,00,00,00,
14177151,0000045C,false,Rx,1,8,72,8A,14,2E,00,00,77,86,
14275918,0000042C,false,Rx,1,8,42,C4,00,00,FE,00,00,00,
14276158,0000043C,false,Rx,1,8,42,C4,00,00,FE,00,00,00,
14276406,0000044C,false,Rx,1,8,42,C4,00,00,FC,00,00,00,
14276639,0000045C,false,Rx,1,8,6C,8A,14,2E,00,00,84,86,
14375914,0000042C,false,Rx,1,8,42,C4,00,00,FE,00,00,00,
14376154,0000043C,false,Rx,1,8,42,C4,00,00,FE,00,00,00,
14376403,0000044C,false,Rx,1,8,42,C4,00,00,FC,00,00,00,
14376635,0000045C,false,Rx,1,8,6F,8A,14,2E,00,00,90,86,
14475916,0000042C,false,Rx,1,8,42,C4,00,00,FE,00,00,00,
14476158,0000043C,false,Rx,1,8,42,C4,00,00,FE,00,00,00,
14476405,0000044C,false,Rx,1,8,42,C4,00,00,FC,00,00,00,
14476637,0000045C,false,Rx,1,8,71,8A,14,2E,00,00,85,86,
14575933,0000042C,false,Rx,1,8,42,C4,00,00,FE,00,00,00,
14576173,0000043C,false,Rx,1,8,42,C4,00,00,FE,00,00,00,
14576413,0000044C,false,Rx,1,8,42,C4,00,00,FC,00,00,00,
14576645,0000045C,false,Rx,1,8,6F,8A,14,2E,00,00,95,86,
14675928,0000042C,false,Rx,1,8,42,C4,00,00,FE,00,00,00,
14676168,0000043C,false,Rx,1,8,42,C4,00,00,FE,00,00,00,
14676408,0000044C,false,Rx,1,8,42,C4,00,00,FC,00,00,00,
14676649,0000045C,false,Rx,1,8,6F,8A,14,2E,00,00,93,86,
14775707,0000042C,false,Rx,1,8,42,C4,00,00,FE,00,00,00,
14775948,0000043C,false,Rx,1,8,42,C4,00,00,FE,00,00,00,
14776188,0000044C,false,Rx,1,8,42,C4,00,00,FC,00,00,00,
14776421,0000045C,false,Rx,1,8,6F,8A,14,2E,00,00,87,86,
14875901,0000042C,false,Rx,1,8,42,C4,00,00,FE,00,00,00,
14876141,0000043C,false,Rx,1,8,42,C4,00,00,FE,00,00,00,
14876390,0000044C,false,Rx,1,8,42,C4,00,00,FC,00,00,00,
14876622,0000045C,false,Rx,1,8,71,8A,14,2E,00,00,93,86,
14975908,0000042C,false,Rx,1,8,42,C4,00,00,FE,00,00,00,
14976150,0000043C,false,Rx,1,8,42,C4,00,00,FE,00,00,00,
14976390,0000044C,false,Rx,1,8,42,C4,00,00,FC,00,00,00,
14976622,0000045C,false,Rx,1,8,6E,8A,14,2E,00,00,92,86,
15075925,0000042C,false,Rx,1,8,42,C4,00,00,FE,00,00,00,
15076172,0000043C,false,Rx,1,8,42,C4,00,00,FE,00,00,00,
15076412,0000044C,false,Rx,1,8,42,C4,00,00,FC,00,00,00,
15076646,0000045C,false,Rx,1,8,70,8A,14,2E,00,00,79,86,
15176405,0000042C,false,Rx,1,8,42,C4,00,00,FE,00,00,00,
15176646,0000043C,false,Rx,1,8,42,C4,00,00,FE,00,00,00,
15176888,0000044C,false,Rx,1,8,42,C4,00,00,FC,00,00,00,
15177121,0000045C,false,Rx,1,8,6C,8A,14,2E,00,00,87,86,
15275896,0000042C,false,Rx,1,8,42,C4,00,00,FE,00,00,00,
15276136,0000043C,false,Rx,1,8,42,C4,00,00,FE,00,00,00,
15276377,0000044C,false,Rx,1,8,42,C4,00,00,FC,00,00,00,
15276609,0000045C,false,Rx,1,8,70,8A,14,2E,00,00,90,86,
15375888,0000042C,false,Rx,1,8,42,C4,00,00,FE,00,00,00,
15376136,0000043C,false,Rx,1,8,42,C4,00,00,FE,00,00,00,
15376377,0000044C,false,Rx,1,8,42,C4,00,00,FC,00,00,00,
15376609,0000045C,false,Rx,1,8,6F,8A,14,2E,00,00,76,86,
15475888,0000042C,false,Rx,1,8,42,C4,00,00,FE,00,00,00,
15476137,0000043C,false,Rx,1,8,42,C4,00,00,FE,00,00,00,
15476376,0000044C,false,Rx,1,8,42,C4,00,00,FC,00,00,00,
15476609,0000045C,false,Rx,1,8,6B,8A,14,2E,00,00,92,86,
15575905,0000042C,false,Rx,1,8,42,C4,00,00,FE,00,00,00,
15576152,0000043C,false,Rx,1,8,42,C4,00,00,FE,00,00,00,
15576392,0000044C,false,Rx,1,8,42,C4,00,00,FC,00,00,00,
15576626,0000045C,false,Rx,1,8,6E,8A,14,2E,00,00,87,86,
15675893,0000042C,false,Rx,1,8,42,C4,00,00,FE,00,00,00,
15676134,0000043C,false,Rx,1,8,42,C4,00,00,FE,00,00,00,
15676381,0000044C,false,Rx,1,8,42,C4,00,00,FC,00,00,00,
15676607,0000045C,false,Rx,1,8,6F,8A,14,2E,00,00,7A,86,
15775881,0000042C,false,Rx,1,8,42,C4,00,00,FE,00,00,00,
15776129,0000043C,false,Rx,1,8,42,C4,00,00,FE,00,00,00,
15776370,0000044C,false,Rx,1,8,42,C4,00,00,FC,00,00,00,
15776602,0000045C,false,Rx,1,8,71,8A,14,2E,00,00,93,86,
15875885,0000042C,false,Rx,1,8,42,C4,00,00,FE,00,00,00,
15876126,0000043C,false,Rx,1,8,42,C4,00,00,FE,00,00,00,
15876366,0000044C,false,Rx,1,8,42,C4,00,00,FC,00,00,00,
15876599,0000045C,false,Rx,1,8,71,8A,14,2E,00,00,87,86,
15975890,0000042C,false,Rx,1,8,42,C4,00,00,FE,00,00,00,
15976132,0000043C,false,Rx,1,8,42,C4,00,00,FE,00,00,00,
15976379,0000044C,false,Rx,1,8,42,C4,00,00,FC,00,00,00,
15976612,0000045C,false,Rx,1,8,72,8A,14,2E,00,00,93,86,
16075903,0000042C,false,Rx,1,8,42,C4,00,00,FE,00,00,00,
16076143,0000043C,false,Rx,1,8,42,C4,00,00,FE,00,00,00,
16076383,0000044C,false,Rx,1,8,42,C4,00,00,FC,00,00,00,
16076616,0000045C,false,Rx,1,8,71,8A,14,2E,00,00,9E,86,
16176384,0000042C,false,Rx,1,8,42,C4,00,00,FE,00,00,00,
16176625,0000043C,false,Rx,1,8,42,C4,00,00,FE,00,00,00,
16176874,0000044C,false,Rx,1,8,42,C4,00,00,FC,00,00,00,
16177099,0000045C,false,Rx,1,8,6E,8A,14,2E,00,00,94,86,
16275891,0000042C,false,Rx,1,8,42,C4,00,00,FE,00,00,00,
16276131,0000043C,false,Rx,1,8,42,C4,00,00,FE,00,00,00,
16276372,0000044C,false,Rx,1,8,42,C4,00,00,FC,00,00,00,
16276605,0000045C,false,Rx,1,8,70,8A,14,2E,00,00,7C,86,
16375876,0000042C,false,Rx,1,8,42,C4,08,07,FE,00,00,00,
16376117,0000043C,false,Rx,1,8,42,C4,00,00,FE,00,00,00,
16376359,0000044C,false,Rx,1,8,42,C4,00,00,FC,00,00,00,
16376592,0000045C,false,Rx,1,8,72,8A,14,2E,00,00,86,86,
16475873,0000042C,false,Rx,1,8,42,C4,60,09,FE,00,00,00,
16476114,0000043C,false,Rx,1,8,42,C4,00,00,FE,00,00,00,
16476361,0000044C,false,Rx,1,8,42,C4,00,00,FC,00,00,00,
16476594,0000045C,false,Rx,1,8,70,8A,14,2E,00,00,87,86,
16575688,0000042C,false,Rx,1,8,42,C4,B8,0B,FE,00,00,00,
16575930,0000043C,false,Rx,1,8,42,C4,00,00,FE,00,00,00,
16576170,0000044C,false,Rx,1,8,42,C4,00,00,FC,00,00,00,
16576402,0000045C,false,Rx,1,8,74,8A,14,2E,00,00,85,86,
16675866,0000042C,false,Rx,1,8,42,C4,10,0E,FE,00,00,00,
16676113,0000043C,false,Rx,1,8,42,C4,00,00,FE,00,00,00,
16676353,0000044C,false,Rx,1,8,42,C4,00,00,FC,00,00,00,
16676587,0000045C,false,Rx,1,8,76,8A,14,2E,00,00,9E,86,
16775869,0000042C,false,Rx,1,8,42,C4,68,10,FE,00,00,00,
16776109,0000043C,false,Rx,1,8,42,C4,00,00,FE,00,00,00,
16776350,0000044C,false,Rx,1,8,42,C4,00,00,FC,00,00,00,
16776582,0000045C,false,Rx,1,8,78,8A,14,2E,00,00,94,86,
16875859,0000042C,false,Rx,1,8,42,C4,C0,12,FE,00,00,00,
16876100,0000043C,false,Rx,1,8,42,C4,00,00,FE,00,00,00,
16876348,0000044C,false,Rx,1,8,42,C4,00,00,FC,00,00,00,
16876573,0000045C,false,Rx,1,8,7C,8A,14,2E,00,00,A1,86,
16975878,0000042C,false,Rx,1,8,42,C4,18,15,FE,00,00,00,
16976119,0000043C,false,Rx,1,8,42,C4,00,00,FE,00,00,00,
16976359,0000044C,false,Rx,1,8,42,C4,00,00,FC,00,00,00,
16976592,0000045C,false,Rx,1,8,7D,8A,14,2E,00,00,86,86,
17075870,0000042C,false,Rx,1,8,42,C4,70,17,FE,00,00,00,
17076110,0000043C,false,Rx,1,8,42,C4,00,00,FE,00,00,00,
17076350,0000044C,false,Rx,1,8,42,C4,00,00,FC,00,00,00,
17076591,0000045C,false,Rx,1,8,7D,8A,14,2E,00,00,8F,86,
17175973,0000042C,false,Rx,1,8,42,C4,C8,19,FE,00,00,00,
17176469,0000043C,false,Rx,1,8,42,C4,00,00,FE,00,00,00,
17176709,0000044C,false,Rx,1,8,42,C4,00,00,FC,00,00,00,
17176943,0000045C,false,Rx,1,8,7F,8A,14,2E,00,00,9D,86,
17275841,0000042C,false,Rx,1,8,42,C4,20,1C,FE,00,00,00,
17276089,0000043C,false,Rx,1,8,42,C4,00,00,FE,00,00,00,
17276330,0000044C,false,Rx,1,8,42,C4,00,00,FC,00,00,00,
17276562,0000045C,false,Rx,1,8,84,8A,14,2E,00,00,AB,86,
17375658,0000042C,false,Rx,1,8,42,C4,78,1E,FE,00,00,00,
17375899,0000043C,false,Rx,1,8,42,C4,00,00,FE,00,00,00,
17376140,0000044C,false,Rx,1,8,42,C4,00,00,FC,00,00,00,
17376372,0000045C,false,Rx,1,8,8A,8A,14,2E,00,00,9D,86,
17475846,0000042C,false,Rx,1,8,42,C4,D0,20,FE,00,00,00,
17476088,0000043C,false,Rx,1,8,42,C4,00,00,FE,00,00,00,
17476335,0000044C,false,Rx,1,8,42,C4,00,00,FC,00,00,00,
17476567,0000045C,false,Rx,1,8,88,8A,14,2E,00,00,A8,86,
17575890,0000042C,false,Rx,1,8,42,C4,28,23,FE,00,00,00,
17576138,0000043C,false,Rx,1,8,42,C4,00,00,FE,00,00,00,
17576611,0000044C,false,Rx,1,8,42,C4,00,00,FE,00,00,00,
17576838,0000045C,false,Rx,1,8,8D,8A,14,2E,00,00,9B,86,
17675845,0000042C,false,Rx,1,8,42,C4,80,25,FE,00,00,00,
17676086,0000043C,false,Rx,1,8,42,C4,00,00,FE,00,00,00,
17676334,0000044C,false,Rx,1,8,42,C4,00,00,FE,00,00,00,
17676559,0000045C,false,Rx,1,8,90,8A,14,2E,00,00,A8,86,
17775838,0000042C,false,Rx,1,8,42,C4,D8,27,FE,00,00,00,
17776079,0000043C,false,Rx,1,8,42,C4,00,00,FE,00,00,00,
17776327,0000044C,false,Rx,1,8,42,C4,00,00,FE,00,00,00,
17776560,0000045C,false,Rx,1,8,94,8A,14,2E,00,00,A8,86,
17875836,0000042C,false,Rx,1,8,42,C4,30,2A,FE,00,00,00,
17876077,0000043C,false,Rx,1,8,42,C4,00,00,FE,00,00,00,
17876324,0000044C,false,Rx,1,8,42,C4,00,00,FE,00,00,00,
17876557,0000045C,false,Rx,1,8,8F,8A,14,2E,00,00,B5,86,
17975728,0000042C,false,Rx,1,8,42,C4,88,2C,FE,00,00,00,
17975972,0000043C,false,Rx,1,8,42,C4,00,00,FE,00,00,00,
17976212,0000044C,false,Rx,1,8,42,C4,00,00,FE,00,00,00,
17976445,0000045C,false,Rx,1,8,94,8A,14,2E,00,00,A6,86,
18075827,0000042C,false,Rx,1,8,42,C4,E0,2E,FE,00,00,00,
18076067,0000043C,false,Rx,1,8,42,C4,00,00,FE,00,00,00,
18076314,0000044C,false,Rx,1,8,42,C4,00,00,FE,00,00,00,
18076548,0000045C,false,Rx,1,8,94,8A,14,2E,00,00,A8,86,
18176273,0000042C,false,Rx,1,8,42,C4,38,31,FE,00,00,00,
18176514,0000043C,false,Rx,1,8,42,C4,00,00,FE,00,00,00,
18176761,0000044C,false,Rx,1,8,42,C4,00,00,FE,00,00,00,
18176988,0000045C,false,Rx,1,8,97,8A,14,2E,00,00,B7,86,
18275819,0000042C,false,Rx,1,8,42,C4,90,33,FE,00,00,00,
18276067,0000043C,false,Rx,1,8,42,C4,00,00,FE,00,00,00,
18276308,0000044C,false,Rx,1,8,42,C4,00,00,FE,00,00,00,
18276533,0000045C,false,Rx,1,8,9E,8A,14,2E,00,00,C4,86,
18375814,0000042C,false,Rx,1,8,42,C4,E8,35,FE,00,00,00,
18376055,0000043C,false,Rx,1,8,42,C4,00,00,FE,00,00,00,
18376302,0000044C,false,Rx,1,8,42,C4,00,00,FE,00,00,00,
18376535,0000045C,false,Rx,1,8,9F,8A,14,2E,00,00,C4,86,
18475835,0000042C,false,Rx,1,8,42,C4,40,38,FE,00,00,00,
18476076,0000043C,false,Rx,1,8,42,C4,00,00,FE,00,00,00,
18476315,0000044C,false,Rx,1,8,42,C4,00,00,FE,00,00,00,
18476548,0000045C,false,Rx,1,8,AA,8A,14,2E,00,00,B6,86,
18575825,0000042C,false,Rx,1,8,42,C4,98,3A,FE,00,00,00,
18576066,0000043C,false,Rx,1,8,42,C4,00,00,FE,00,00,00,
18576305,0000044C,false,Rx,1,8,42,C4,00,00,FE,00,00,00,
18576539,0000045C,false,Rx,1,8,A5,8A,14,2E,00,00,B7,86,
18675807,0000042C,false,Rx,1,8,42,C4,F0,3C,FE,00,00,00,
18676048,0000043C,false,Rx,1,8,42,C4,00,00,FE,00,00,00,
18676289,0000044C,false,Rx,1,8,42,C4,00,00,FE,00,00,00,
18676522,0000045C,false,Rx,1,8,A7,8A,14,2E,00,00,C1,86,
18775817,0000042C,false,Rx,1,8,42,C4,48,3F,FE,00,00,00,
18776057,0000043C,false,Rx,1,8,42,C4,58,02,FE,00,00,00,
18776298,0000044C,false,Rx,1,8,42,C4,00,00,FE,00,00,00,
18776531,0000045C,false,Rx,1,8,A8,8A,14,2E,00,00,B6,86,
18875815,0000042C,false,Rx,1,8,42,C4,A0,41,FE,00,00,00,
18876056,0000043C,false,Rx,1,8,42,C4,00,00,FE,00,00,00,
18876295,0000044C,false,Rx,1,8,42,C4,00,00,FE,00,00,00,
18876528,0000045C,false,Rx,1,8,AA,8A,14,2E,00,00,DC,86,
18975839,0000042C,false,Rx,1,8,42,C4,F8,43,FE,00,00,00,
18976079,0000043C,false,Rx,1,8,42,C4,00,00,FE,00,00,00,
18976319,0000044C,false,Rx,1,8,42,C4,00,00,FE,00,00,00,
18976552,0000045C,false,Rx,1,8,AC,8A,14,2E,00,00,D1,86,
19075799,0000042C,false,Rx,1,8,42,C4,50,46,FE,00,00,00,
19076040,0000043C,false,Rx,1,8,42,C4,00,00,FE,00,00,00,
19076287,0000044C,false,Rx,1,8,42,C4,00,00,FE,00,00,00,
19076513,0000045C,false,Rx,1,8,B0,8A,14,2E,00,00,D1,86,
19176303,0000042C,false,Rx,1,8,42,C4,A8,48,FE,00,00,00,
19176543,0000043C,false,Rx,1,8,42,C4,00,00,FE,00,00,00,
19176783,0000044C,false,Rx,1,8,42,C4,00,00,FE,00,00,00,
19177019,0000045C,false,Rx,1,8,B6,8A,14,2E,00,00,D2,86,
19275807,0000042C,false,Rx,1,8,42,C4,00,4B,FE,00,00,00,
19276048,0000043C,false,Rx,1,8,42,C4,00,00,FE,00,00,00,
19276289,0000044C,false,Rx,1,8,42,C4,00,00,FE,00,00,00,
19276522,0000045C,false,Rx,1,8,BA,8A,14,2E,00,00,CF,86,
19375788,0000042C,false,Rx,1,8,42,C4,58,4D,FE,00,00,00,
19376032,0000043C,false,Rx,1,8,42,C4,00,00,FE,00,00,00,
19376279,0000044C,false,Rx,1,8,42,C4,00,00,FE,00,00,00,
19376504,0000045C,false,Rx,1,8,BD,8A,14,2E,00,00,CB,86,
19475823,0000042C,false,Rx,1,8,42,C4,B0,4F,FE,00,00,00,
19476063,0000043C,false,Rx,1,8,42,C4,00,00,FE,00,00,00,
19476311,0000044C,false,Rx,1,8,42,C4,00,00,FE,00,00,00,
19476537,0000045C,false,Rx,1,8,BA,8A,14,2E,00,00,DB,86,
19575804,0000042C,false,Rx,1,8,42,C4,08,52,FE,00,00,00,
19576045,0000043C,false,Rx,1,8,42,C4,00,00,FE,00,00,00,
19576307,0000044C,false,Rx,1,8,42,C4,00,00,FE,00,00,00,
19576519,0000045C,false,Rx,1,8,BC,8A,14,2E,00,00,CC,86,
19675786,0000042C,false,Rx,1,8,42,C4,60,54,FE,00,00,00,
19676027,0000043C,false,Rx,1,8,42,C4,00,00,FE,00,00,00,
19676269,0000044C,false,Rx,1,8,42,C4,00,00,FE,00,00,00,
19676501,0000045C,false,Rx,1,8,C0,8A,14,2E,00,00,E8,86,
19775784,0000042C,false,Rx,1,8,42,C4,B8,56,FE,00,00,00,
19776034,0000043C,false,Rx,1,8,42,C4,00,00,FE,00,00,00,
19776274,0000044C,false,Rx,1,8,42,C4,00,00,FE,00,00,00,
19776499,0000045C,false,Rx,1,8,C4,8A,14,2E,00,00,D0,86,
19876021,0000042C,false,Rx,1,8,42,C4,10,59,FE,00,00,00,
19876261,0000043C,false,Rx,1,8,42,C4,00,00,FE,00,00,00,
19876509,0000044C,false,Rx,1,8,42,C4,00,00,FE,00,00,00,
19876735,0000045C,false,Rx,1,8,C9,8A,14,2E,00,00,DB,86,
19976018,0000042C,false,Rx,1,8,42,C4,68,5B,FE,00,00,00,
19976258,0000043C,false,Rx,1,8,42,C4,00,00,FE,00,00,00,
19976499,0000044C,false,Rx,1,8,42,C4,00,00,FE,00,00,00,
19976732,0000045C,false,Rx,1,8,C9,8A,14,2E,00,00,E9,86,
20075999,0000042C,false,Rx,1,8,42,C4,F7,5C,FE,00,00,00,
20076238,0000043C,false,Rx,1,8,42,C4,00,00,FE,00,00,00,
20076479,0000044C,false,Rx,1,8,42,C4,00,00,FE,00,00,00,
20076712,0000045C,false,Rx,1,8,CC,8A,14,2E,00,00,E9,86,
20176506,0000042C,false,Rx,1,8,42,C4,F7,5C,FE,00,00,00,
20176746,0000043C,false,Rx,1,8,42,C4,00,00,FE,00,00,00,
20176989,0000044C,false,Rx,1,8,42,C4,00,00,FE,00,00,00,
20177221,0000045C,false,Rx,1,8,CF,8A,14,2E,00,00,DB,86,
20276000,0000042C,false,Rx,1,8,42,C4,F7,5C,FE,00,00,00,
20276247,0000043C,false,Rx,1,8,42,C4,00,00,FE,00,00,00,
20276487,0000044C,false,Rx,1,8,42,C4,00,00,FE,00,00,00,
20276719,0000045C,false,Rx,1,8,D1,8A,14,2E,00,00,DB,86,
20375777,0000042C,false,Rx,1,8,42,C4,F7,5C,FE,00,00,00,
20376020,0000043C,false,Rx,1,8,42,C4,00,00,FE,00,00,00,
20376484,0000044C,false,Rx,1,8,42,C4,00,00,FE,00,00,00,
20376710,0000045C,false,Rx,1,8,CE,8A,14,2E,00,00,E9,86,
20475787,0000042C,false,Rx,1,8,42,C4,F7,5C,FE,00,00,00,
20476036,0000043C,false,Rx,1,8,42,C4,00,00,FE,00,00,00,
20476494,0000044C,false,Rx,1,8,42,C4,00,00,FE,00,00,00,
20476727,0000045C,false,Rx,1,8,D0,8A,14,2E,00,00,F6,86,
20575780,0000042C,false,Rx,1,8,42,C4,9F,5A,FE,00,00,00,
20576014,0000043C,false,Rx,1,8,42,C4,58,02,FE,00,00,00,
20576254,0000044C,false,Rx,1,8,42,C4,00,00,FE,00,00,00,
20576487,0000045C,false,Rx,1,8,D1,8A,14,2E,00,00,E9,86,
20675769,0000042C,false,Rx,1,8,42,C4,E4,57,FE,00,00,00,
20676010,0000043C,false,Rx,1,8,42,C4,B0,04,FE,00,00,00,
20676252,0000044C,false,Rx,1,8,42,C4,00,00,FE,00,00,00,
20676484,0000045C,false,Rx,1,8,CF,8A,14,2E,00,00,E9,86,
20775772,0000042C,false,Rx,1,8,42,C4,BE,5D,FE,00,00,00,
20776015,0000043C,false,Rx,1,8,42,C4,08,07,FE,00,00,00,
20776255,0000044C,false,Rx,1,8,42,C4,00,00,FE,00,00,00,
20776487,0000045C,false,Rx,1,8,CF,8A,14,2E,00,00,E9,86,
20875783,0000042C,false,Rx,1,8,42,C4,BE,5D,FE,00,00,00,
20876017,0000043C,false,Rx,1,8,42,C4,60,09,FE,00,00,00,
20876265,0000044C,false,Rx,1,8,42,C4,00,00,FE,00,00,00,
20876497,0000045C,false,Rx,1,8,CF,8A,14,2E,00,00,F6,86,
20975779,0000042C,false,Rx,1,8,42,C4,BE,5D,FE,00,00,00,
20976019,0000043C,false,Rx,1,8,42,C4,B8,0B,FE,00,00,00,
20976260,0000044C,false,Rx,1,8,42,C4,00,00,FE,00,00,00,
20976493,0000045C,false,Rx,1,8,D5,8A,14,2E,00,00,F6,86,
21075770,0000042C,false,Rx,1,8,42,C4,BE,5D,FE,00,00,00,
21076019,0000043C,false,Rx,1,8,42,C4,10,0E,FE,00,00,00,
21076260,0000044C,false,Rx,1,8,42,C4,00,00,FE,00,00,00,
21076492,0000045C,false,Rx,1,8,DC,8A,15,2E,00,00,02,87,
21176270,0000042C,false,Rx,1,8,42,C4,BE,5D,FE,00,00,00,
21176510,0000043C,false,Rx,1,8,42,C4,68,10,FE,00,00,00,
21176750,0000044C,false,Rx,1,8,42,C4,00,00,FE,00,00,00,
21176985,0000045C,false,Rx,1,8,DD,8A,15,2E,00,00,F6,86,
21275764,0000042C,false,Rx,1,8,42,C4,BE,5D,FE,00,00,00,
21276006,0000043C,false,Rx,1,8,42,C4,C0,12,FE,00,00,00,
21276246,0000044C,false,Rx,1,8,42,C4,00,00,FE,00,00,00,
21276478,0000045C,false,Rx,1,8,DE,8A,15,2E,00,00,02,87,
21375783,0000042C,false,Rx,1,8,42,C4,BE,5D,FE,00,00,00,
21376024,0000043C,false,Rx,1,8,42,C4,18,15,FE,00,00,00,
21376264,0000044C,false,Rx,1,8,42,C4,00,00,FE,00,00,00,
21376503,0000045C,false,Rx,1,8,E1,8A,15,2E,00,00,0F,87,
21475772,0000042C,false,Rx,1,8,42,C4,BE,5D,FE,00,00,00,
21476013,0000043C,false,Rx,1,8,42,C4,70,17,FE,00,00,00,
21476253,0000044C,false,Rx,1,8,42,C4,00,00,FE,00,00,00,
21476486,0000045C,false,Rx,1,8,E3,8A,15,2E,00,00,10,87,
21575756,0000042C,false,Rx,1,8,42,C4,BE,5D,FE,00,00,00,
21575990,0000043C,false,Rx,1,8,42,C4,C8,19,FE,00,00,00,
21576239,0000044C,false,Rx,1,8,42,C4,00,00,FE,00,00,00,
21576471,0000045C,false,Rx,1,8,E8,8A,15,2E,00,00,F6,86,
21675755,0000042C,false,Rx,1,8,42,C4,BE,5D,FE,00,00,00,
21675996,0000043C,false,Rx,1,8,42,C4,20,1C,FE,00,00,00,
21676237,0000044C,false,Rx,1,8,42,C4,00,00,FE,00,00,00,
21676469,0000045C,false,Rx,1,8,EC,8A,15,2E,00,00,F6,86,
21775748,0000042C,false,Rx,1,8,42,C4,BE,5D,FE,00,00,00,
21775982,0000043C,false,Rx,1,8,42,C4,78,1E,FE,00,00,00,
21776230,0000044C,false,Rx,1,8,42,C4,00,00,FE,00,00,00,
21776462,0000045C,false,Rx,1,8,EB,8A,15,2E,00,00,01,87,
21875776,0000042C,false,Rx,1,8,42,C4,BE,5D,FE,00,00,00,
21876018,0000043C,false,Rx,1,8,42,C4,D0,20,FE,00,00,00,
21876265,0000044C,false,Rx,1,8,42,C4,00,00,FE,00,00,00,
21876498,0000045C,false,Rx,1,8,EF,8A,15,2E,00,00,19,87,
21975744,0000042C,false,Rx,1,8,42,C4,BE,5D,FE,00,00,00,
21975985,0000043C,false,Rx,1,8,42,C4,28,23,FE,00,00,00,
21976233,0000044C,false,Rx,1,8,42,C4,00,00,FE,00,00,00,
21976466,0000045C,false,Rx,1,8,F2,8A,15,2E,00,00,0D,87,
22075741,0000042C,false,Rx,1,8,42,C4,BE,5D,FE,00,00,00,
22075982,0000043C,false,Rx,1,8,42,C4,80,25,FE,00,00,00,
22076224,0000044C,false,Rx,1,8,42,C4,00,00,FE,00,00,00,
22076456,0000045C,false,Rx,1,8,F5,8A,15,2E,00,00,18,87,
22176240,0000042C,false,Rx,1,8,42,C4,BE,5D,FE,00,00,00,
22176480,0000043C,false,Rx,1,8,42,C4,D8,27,FE,00,00,00,
22176720,0000044C,false,Rx,1,8,42,C4,00,00,FE,00,00,00,
22176955,0000045C,false,Rx,1,8,F5,8A,15,2E,00,00,0C,87,
22275738,0000042C,false,Rx,1,8,42,C4,BE,5D,FE,00,00,00,
22275980,0000043C,false,Rx,1,8,42,C4,30,2A,FE,00,00,00,
22276220,0000044C,false,Rx,1,8,42,C4,00,00,FE,00,00,00,
22276460,0000045C,false,Rx,1,8,F8,8A,15,2E,00,00,00,87,
22375753,0000042C,false,Rx,1,8,42,C4,BE,5D,FE,00,00,00,
22375994,0000043C,false,Rx,1,8,42,C4,88,2C,FE,00,00,00,
22376233,0000044C,false,Rx,1,8,42,C4,58,02,FE,00,00,00,
22376466,0000045C,false,Rx,1,8,FC,8A,15,2E,00,00,0B,87,
22475738,0000042C,false,Rx,1,8,42,C4,BE,5D,FE,00,00,00,
22475972,0000043C,false,Rx,1,8,42,C4,E0,2E,FE,00,00,00,
22476211,0000044C,false,Rx,1,8,42,C4,00,00,FE,00,00,00,
22476460,0000045C,false,Rx,1,8,01,8B,15,2E,00,00,0F,87,
22575732,0000042C,false,Rx,1,8,42,C4,BE,5D,FE,00,00,00,
22575966,0000043C,false,Rx,1,8,42,C4,38,31,FE,00,00,00,
22576207,0000044C,false,Rx,1,8,42,C4,00,00,FE,00,00,00,
22576447,0000045C,false,Rx,1,8,FF,8A,15,2E,00,00,0E,87,
22675725,0000042C,false,Rx,1,8,42,C4,BE,5D,FE,00,00,00,
22675959,0000043C,false,Rx,1,8,42,C4,90,33,FE,00,00,00,
22676207,0000044C,false,Rx,1,8,42,C4,00,00,FE,00,00,00,
22676440,0000045C,false,Rx,1,8,04,8B,15,2E,00,00,1D,87,
22775720,0000042C,false,Rx,1,8,42,C4,BE,5D,FE,00,00,00,
22775962,0000043C,false,Rx,1,8,42,C4,E8,35,FE,00,00,00,
22776202,0000044C,false,Rx,1,8,42,C4,00,00,FE,00,00,00,
22776435,0000045C,false,Rx,1,8,08,8B,15,2E,00,00,27,87,
22875747,0000042C,false,Rx,1,8,42,C4,BE,5D,FE,00,00,00,
22875980,0000043C,false,Rx,1,8,42,C4,40,38,FE,00,00,00,
22876220,0000044C,false,Rx,1,8,42,C4,00,00,FE,00,00,00,
22876461,0000045C,false,Rx,1,8,0B,8B,15,2E,00,00,19,87,
22975709,0000042C,false,Rx,1,8,42,C4,BE,5D,FE,00,00,00,
22975950,0000043C,false,Rx,1,8,42,C4,98,3A,FE,00,00,00,
22976191,0000044C,false,Rx,1,8,42,C4,00,00,FE,00,00,00,
22976424,0000045C,false,Rx,1,8,0C,8B,15,2E,00,00,24,87,
23075713,0000042C,false,Rx,1,8,42,C4,BE,5D,FE,00,00,00,
23075955,0000043C,false,Rx,1,8,42,C4,F0,3C,FE,00,00,00,
23076196,0000044C,false,Rx,1,8,42,C4,00,00,FE,00,00,00,
23076429,0000045C,false,Rx,1,8,0E,8B,15,2E,00,00,26,87,
23176220,0000042C,false,Rx,1,8,42,C4,BE,5D,FE,00,00,00,
23176460,0000043C,false,Rx,1,8,42,C4,48,3F,FE,00,00,00,
23176707,0000044C,false,Rx,1,8,42,C4,00,00,FE,00,00,00,
23176936,0000045C,false,Rx,1,8,11,8B,15,2E,00,00,26,87,
23275712,0000042C,false,Rx,1,8,42,C4,BE,5D,FE,00,00,00,
23275955,0000043C,false,Rx,1,8,42,C4,A0,41,FE,00,00,00,
23276195,0000044C,false,Rx,1,8,42,C4,00,00,FE,00,00,00,
23276428,0000045C,false,Rx,1,8,12,8B,15,2E,00,00,27,87,
23375726,0000042C,false,Rx,1,8,42,C4,BE,5D,FE,00,00,00,
23375966,0000043C,false,Rx,1,8,42,C4,F8,43,FE,00,00,00,
23376206,0000044C,false,Rx,1,8,42,C4,00,00,FE,00,00,00,
23376447,0000045C,false,Rx,1,8,16,8B,15,2E,00,00,26,87,
23475708,0000042C,false,Rx,1,8,42,C4,BE,5D,FE,00,00,00,
23475949,0000043C,false,Rx,1,8,42,C4,50,46,FE,00,00,00,
23476189,0000044C,false,Rx,1,8,42,C4,00,00,FE,00,00,00,
23476423,0000045C,false,Rx,1,8,18,8B,15,2E,00,00,34,87,
23575705,0000042C,false,Rx,1,8,42,C4,BE,5D,FE,00,00,00,
23575939,0000043C,false,Rx,1,8,42,C4,A8,48,FE,00,00,00,
23576180,0000044C,false,Rx,1,8,42,C4,00,00,FE,00,00,00,
23576413,0000045C,false,Rx,1,8,1E,8B,15,2E,00,00,32,87,
23675702,0000042C,false,Rx,1,8,42,C4,BE,5D,FE,00,00,00,
23675944,0000043C,false,Rx,1,8,42,C4,00,4B,FE,00,00,00,
23676184,0000044C,false,Rx,1,8,42,C4,00,00,FE,00,00,00,
23676417,0000045C,false,Rx,1,8,1C,8B,15,2E,00,00,31,87,
23775712,0000042C,false,Rx,1,8,42,C4,BE,5D,FE,00,00,00,
23775948,0000043C,false,Rx,1,8,42,C4,58,4D,FE,00,00,00,
23776196,0000044C,false,Rx,1,8,42,C4,00,00,FE,00,00,00,
23776428,0000045C,false,Rx,1,8,20,8B,15,2E,00,00,3C,87,
23875714,0000042C,false,Rx,1,8,42,C4,BE,5D,FE,00,00,00,
23875955,0000043C,false,Rx,1,8,42,C4,B0,4F,FE,00,00,00,
23876195,0000044C,false,Rx,1,8,42,C4,00,00,FE,00,00,00,
23876436,0000045C,false,Rx,1,8,1F,8B,15,2E,00,00,2F,87,
23975694,0000042C,false,Rx,1,8,42,C4,BE,5D,FE,00,00,00,
23975935,0000043C,false,Rx,1,8,42,C4,08,52,FE,00,00,00,
23976176,0000044C,false,Rx,1,8,42,C4,00,00,FE,00,00,00,
23976409,0000045C,false,Rx,1,8,24,8B,15,2E,00,00,3D,87,
24075691,0000042C,false,Rx,1,8,42,C4,BE,5D,FE,00,00,00,
24075933,0000043C,false,Rx,1,8,42,C4,60,54,FE,00,00,00,
24076174,0000044C,false,Rx,1,8,42,C4,00,00,FE,00,00,00,
24076406,0000045C,false,Rx,1,8,24,8B,15,2E,00,00,3F,87,
24176199,0000042C,false,Rx,1,8,42,C4,BE,5D,FE,00,00,00,
24176439,0000043C,false,Rx,1,8,42,C4,B8,56,FE,00,00,00,
24176680,0000044C,false,Rx,1,8,42,C4,00,00,FE,00,00,00,
24176914,0000045C,false,Rx,1,8,23,8B,15,2E,00,00,40,87,
24275720,0000042C,false,Rx,1,8,42,C4,BE,5D,FE,00,00,00,
24275963,0000043C,false,Rx,1,8,42,C4,10,59,FE,00,00,00,
24276203,0000044C,false,Rx,1,8,42,C4,00,00,FE,00,00,00,
24276435,0000045C,false,Rx,1,8,28,8B,15,2E,00,00,27,87,
24375714,0000042C,false,Rx,1,8,42,C4,BE,5D,FE,00,00,00,
24375948,0000043C,false,Rx,1,8,42,C4,68,5B,FE,00,00,00,
24376195,0000044C,false,Rx,1,8,42,C4,00,00,FE,00,00,00,
24376421,0000045C,false,Rx,1,8,2A,8B,15,2E,00,00,3D,87,
24475689,0000042C,false,Rx,1,8,42,C4,BE,5D,FE,00,00,00,
24475937,0000043C,false,Rx,1,8,42,C4,BE,5D,FE,00,00,00,
24476177,0000044C,false,Rx,1,8,42,C4,00,00,FE,00,00,00,
24476411,0000045C,false,Rx,1,8,26,8B,15,2E,00,00,40,87,
24575689,0000042C,false,Rx,1,8,42,C4,BE,5D,FE,00,00,00,
24575930,0000043C,false,Rx,1,8,42,C4,BE,5D,FE,00,00,00,
24576171,0000044C,false,Rx,1,8,42,C4,00,00,FE,00,00,00,
24576404,0000045C,false,Rx,1,8,29,8B,15,2E,00,00,40,87,
24675686,0000042C,false,Rx,1,8,42,C4,BE,5D,FE,00,00,00,
24675928,0000043C,false,Rx,1,8,42,C4,BE,5D,FE,00,00,00,
24676168,0000044C,false,Rx,1,8,42,C4,00,00,FE,00,00,00,
24676408,0000045C,false,Rx,1,8,2D,8B,15,2E,00,00,3F,87,
24775711,0000042C,false,Rx,1,8,42,C4,BE,5D,FE,00,00,00,
24775952,0000043C,false,Rx,1,8,42,C4,BE,5D,FE,00,00,00,
24776193,0000044C,false,Rx,1,8,42,C4,00,00,FE,00,00,00,
24776433,0000045C,false,Rx,1,8,2A,8B,15,2E,00,00,40,87,
24875688,0000042C,false,Rx,1,8,42,C4,BE,5D,FE,00,00,00,
24875929,0000043C,false,Rx,1,8,42,C4,BE,5D,FE,00,00,00,
24876169,0000044C,false,Rx,1,8,42,C4,00,00,FE,00,00,00,
24876410,0000045C,false,Rx,1,8,28,8B,15,2E,00,00,40,87,
24975682,0000042C,false,Rx,1,8,42,C4,BE,5D,FE,00,00,00,
24975923,0000043C,false,Rx,1,8,42,C4,BE,5D,FE,00,00,00,
24976165,0000044C,false,Rx,1,8,42,C4,00,00,FE,00,00,00,
24976397,0000045C,false,Rx,1,8,2B,8B,15,2E,00,00,40,87,
25075682,0000042C,false,Rx,1,8,42,C4,BE,5D,FE,00,00,00,
25075923,0000043C,false,Rx,1,8,42,C4,BE,5D,FE,00,00,00,
25076164,0000044C,false,Rx,1,8,42,C4,58,02,FE,00,00,00,
25076396,0000045C,false,Rx,1,8,2D,8B,15,2E,00,00,41,87,
25176180,0000042C,false,Rx,1,8,42,C4,C0,5C,FE,00,00,00,
25176420,0000043C,false,Rx,1,8,42,C4,C0,5C,FE,00,00,00,
25176661,0000044C,false,Rx,1,8,42,C4,B0,04,FE,00,00,00,
25176888,0000045C,false,Rx,1,8,2E,8B,15,2E,00,00,4C,87,
25275691,0000042C,false,Rx,1,8,42,C4,BE,5D,FE,00,00,00,
25275933,0000043C,false,Rx,1,8,42,C4,BE,5D,FE,00,00,00,
25276181,0000044C,false,Rx,1,8,42,C4,08,07,FE,00,00,00,
25276413,0000045C,false,Rx,1,8,30,8B,15,2E,00,00,40,87,
25375677,0000042C,false,Rx,1,8,42,C4,BE,5D,FE,00,00,00,
25375925,0000043C,false,Rx,1,8,42,C4,BE,5D,FE,00,00,00,
25376165,0000044C,false,Rx,1,8,42,C4,60,09,FE,00,00,00,
25376399,0000045C,false,Rx,1,8,34,8B,15,2E,00,00,4F,87,
25475679,0000042C,false,Rx,1,8,42,C4,BE,5D,FE,00,00,00,
25475921,0000043C,false,Rx,1,8,42,C4,BE,5D,FE,00,00,00,
25476154,0000044C,false,Rx,1,8,42,C4,B8,0B,FE,00,00,00,
25476394,0000045C,false,Rx,1,8,33,8B,15,2E,00,00,4D,87,
25575675,0000042C,false,Rx,1,8,42,C4,BE,5D,FE,00,00,00,
25575916,0000043C,false,Rx,1,8,42,C4,BE,5D,FE,00,00,00,
25576157,0000044C,false,Rx,1,8,42,C4,10,0E,FE,00,00,00,
25576390,0000045C,false,Rx,1,8,35,8B,15,2E,00,00,59,87,
25675675,0000042C,false,Rx,1,8,42,C4,BE,5D,FE,00,00,00,
25675911,0000043C,false,Rx,1,8,42,C4,BE,5D,FE,00,00,00,
25676158,0000044C,false,Rx,1,8,42,C4,68,10,FE,00,00,00,
25676391,0000045C,false,Rx,1,8,37,8B,15,2E,00,00,58,87,
25775691,0000042C,false,Rx,1,8,42,C4,BE,5D,FE,00,00,00,
25775933,0000043C,false,Rx,1,8,42,C4,BE,5D,FE,00,00,00,
25776173,0000044C,false,Rx,1,8,42,C4,C0,12,FE,00,00,00,
25776406,0000045C,false,Rx,1,8,3A,8B,15,2E,00,00,59,87,
25875664,0000042C,false,Rx,1,8,42,C4,BE,5D,FE,00,00,00,
25875906,0000043C,false,Rx,1,8,42,C4,BE,5D,FE,00,00,00,
25876146,0000044C,false,Rx,1,8,42,C4,18,15,FE,00,00,00,
25876379,0000045C,false,Rx,1,8,3A,8B,15,2E,00,00,5D,87,
25975671,0000042C,false,Rx,1,8,42,C4,BE,5D,FE,00,00,00,
25975912,0000043C,false,Rx,1,8,42,C4,BE,5D,FE,00,00,00,
25976153,0000044C,false,Rx,1,8,42,C4,70,17,FE,00,00,00,
25976385,0000045C,false,Rx,1,8,42,8B,15,2E,00,00,73,87,
26075663,0000042C,false,Rx,1,8,42,C4,BE,5D,FE,00,00,00,
26075911,0000043C,false,Rx,1,8,42,C4,BE,5D,FE,00,00,00,
26076145,0000044C,false,Rx,1,8,42,C4,C8,19,FE,00,00,00,
26076385,0000045C,false,Rx,1,8,3F,8B,15,2E,00,00,68,87,
26176158,0000042C,false,Rx,1,8,42,C4,BE,5D,FE,00,00,00,
26176398,0000043C,false,Rx,1,8,42,C4,BE,5D,FE,00,00,00,
26176640,0000044C,false,Rx,1,8,42,C4,20,1C,FE,00,00,00,
26176865,0000045C,false,Rx,1,8,46,8B,15,2E,00,00,68,87,
26275680,0000042C,false,Rx,1,8,42,C4,BE,5D,FE,00,00,00,
26275921,0000043C,false,Rx,1,8,42,C4,BE,5D,FE,00,00,00,
26276161,0000044C,false,Rx,1,8,42,C4,78,1E,FE,00,00,00,
26276394,0000045C,false,Rx,1,8,4A,8B,15,2E,00,00,68,87,
26375650,0000042C,false,Rx,1,8,42,C4,BE,5D,FE,00,00,00,
26375898,0000043C,false,Rx,1,8,42,C4,BE,5D,FE,00,00,00,
26376138,0000044C,false,Rx,1,8,42,C4,D0,20,FE,00,00,00,
26376364,0000045C,false,Rx,1,8,4C,8B,15,2E,00,00,67,87,
26475652,0000042C,false,Rx,1,8,42,C4,BE,5D,FE,00,00,00,
26475893,0000043C,false,Rx,1,8,42,C4,BE,5D,FE,00,00,00,
26476134,0000044C,false,Rx,1,8,42,C4,28,23,FE,00,00,00,
26476367,0000045C,false,Rx,1,8,4F,8B,15,2E,00,00,67,87,
26575644,0000042C,false,Rx,1,8,42,C4,BE,5D,FE,00,00,00,
26575893,0000043C,false,Rx,1,8,42,C4,BE,5D,FE,00,00,00,
26576126,0000044C,false,Rx,1,8,42,C4,80,25,FE,00,00,00,
26576359,0000045C,false,Rx,1,8,52,8B,15,2E,00,00,75,87,
26675666,0000042C,false,Rx,1,8,42,C4,BE,5D,FE,00,00,00,
26675908,0000043C,false,Rx,1,8,42,C4,BE,5D,FE,00,00,00,
26676148,0000044C,false,Rx,1,8,42,C4,D8,27,FE,00,00,00,
26676380,0000045C,false,Rx,1,8,52,8B,15,2E,00,00,74,87,
26775665,0000042C,false,Rx,1,8,42,C4,BE,5D,FE,00,00,00,
26775906,0000043C,false,Rx,1,8,42,C4,BE,5D,FE,00,00,00,
26776146,0000044C,false,Rx,1,8,42,C4,30,2A,FE,00,00,00,
26776372,0000045C,false,Rx,1,8,57,8B,15,2E,00,00,73,87,
26875635,0000042C,false,Rx,1,8,42,C4,BE,5D,FE,00,00,00,
26875884,0000043C,false,Rx,1,8,42,C4,BE,5D,FE,00,00,00,
26876116,0000044C,false,Rx,1,8,42,C4,88,2C,FE,00,00,00,
26876350,0000045C,false,Rx,1,8,5D,8B,15,2E,00,00,73,87,
26975650,0000042C,false,Rx,1,8,42,C4,BE,5D,FE,00,00,00,
26975891,0000043C,false,Rx,1,8,42,C4,BE,5D,FE,00,00,00,
26976125,0000044C,false,Rx,1,8,42,C4,E0,2E,FE,00,00,00,
26976365,0000045C,false,Rx,1,8,5A,8B,15,2E,00,00,80,87,
27075642,0000042C,false,Rx,1,8,42,C4,BE,5D,FE,00,00,00,
27075887,0000043C,false,Rx,1,8,42,C4,BE,5D,FE,00,00,00,
27076127,0000044C,false,Rx,1,8,42,C4,38,31,FE,00,00,00,
27076359,0000045C,false,Rx,1,8,60,8B,15,2E,00,00,7E,87,
27176138,0000042C,false,Rx,1,8,42,C4,BE,5D,FE,00,00,00,
27176385,0000043C,false,Rx,1,8,42,C4,BE,5D,FE,00,00,00,
27176627,0000044C,false,Rx,1,8,42,C4,90,33,FE,00,00,00,
27176861,0000045C,false,Rx,1,8,64,8B,15,2E,00,00,7F,87,
27275654,0000042C,false,Rx,1,8,42,C4,BE,5D,FE,00,00,00,
27275896,0000043C,false,Rx,1,8,42,C4,BE,5D,FE,00,00,00,
27276136,0000044C,false,Rx,1,8,42,C4,E8,35,FE,00,00,00,
27276369,0000045C,false,Rx,1,8,65,8B,15,2E,00,00,72,87,
27375639,0000042C,false,Rx,1,8,42,C4,BE,5D,FE,00,00,00,
27375880,0000043C,false,Rx,1,8,42,C4,BE,5D,FE,00,00,00,
27376120,0000044C,false,Rx,1,8,42,C4,40,38,FE,00,00,00,
27376354,0000045C,false,Rx,1,8,67,8B,15,2E,00,00,7E,87,
27475628,0000042C,false,Rx,1,8,42,C4,BE,5D,FE,00,00,00,
27475872,0000043C,false,Rx,1,8,42,C4,BE,5D,FE,00,00,00,
27476113,0000044C,false,Rx,1,8,42,C4,98,3A,FE,00,00,00,
27476345,0000045C,false,Rx,1,8,6B,8B,15,2E,00,00,7C,87,
27575622,0000042C,false,Rx,1,8,42,C4,BE,5D,FE,00,00,00,
27575864,0000043C,false,Rx,1,8,42,C4,BE,5D,FE,00,00,00,
27576104,0000044C,false,Rx,1,8,42,C4,F0,3C,FE,00,00,00,
27576336,0000045C,false,Rx,1,8,6E,8B,15,2E,00,00,96,87,
27675646,0000042C,false,Rx,1,8,42,C4,BE,5D,FE,00,00,00,
27675888,0000043C,false,Rx,1,8,42,C4,BE,5D,FE,00,00,00,
27676128,0000044C,false,Rx,1,8,42,C4,48,3F,FE,00,00,00,
27676360,0000045C,false,Rx,1,8,74,8B,15,2E,00,00,8B,87,
27775623,0000042C,false,Rx,1,8,42,C4,BE,5D,FE,00,00,00,
27775871,0000043C,false,Rx,1,8,42,C4,BE,5D,FE,00,00,00,
27776111,0000044C,false,Rx,1,8,42,C4,A0,41,FE,00,00,00,
27776337,0000045C,false,Rx,1,8,75,8B,15,2E,00,00,88,87,
27875626,0000042C,false,Rx,1,8,42,C4,BE,5D,FE,00,00,00,
27875868,0000043C,false,Rx,1,8,42,C4,BE,5D,FE,00,00,00,
27876108,0000044C,false,Rx,1,8,42,C4,F8,43,FE,00,00,00,
27876342,0000045C,false,Rx,1,8,78,8B,15,2E,00,00,88,87,
27975615,0000042C,false,Rx,1,8,42,C4,BE,5D,FE,00,00,00,
27975856,0000043C,false,Rx,1,8,42,C4,BE,5D,FE,00,00,00,
27976098,0000044C,false,Rx,1,8,42,C4,50,46,FE,00,00,00,
27976330,0000045C,false,Rx,1,8,77,8B,15,2E,00,00,88,87,
28075612,0000042C,false,Rx,1,8,42,C4,BE,5D,FE,00,00,00,
28075854,0000043C,false,Rx,1,8,42,C4,BE,5D,FE,00,00,00,
28076094,0000044C,false,Rx,1,8,42,C4,A8,48,FE,00,00,00,
28076326,0000045C,false,Rx,1,8,78,8B,15,2E,00,00,96,87,
28176139,0000042C,false,Rx,1,8,42,C4,BE,5D,FE,00,00,00,
28176386,0000043C,false,Rx,1,8,42,C4,BE,5D,FE,00,00,00,
28176620,0000044C,false,Rx,1,8,42,C4,00,4B,FE,00,00,00,
28176854,0000045C,false,Rx,1,8,7B,8B,15,2E,00,00,96,87,
28275624,0000042C,false,Rx,1,8,42,C4,BE,5D,FE,00,00,00,
28275865,0000043C,false,Rx,1,8,42,C4,BE,5D,FE,00,00,00,
28276105,0000044C,false,Rx,1,8,42,C4,58,4D,FE,00,00,00,
28276339,0000045C,false,Rx,1,8,79,8B,15,2E,00,00,8A,87,
28375604,0000042C,false,Rx,1,8,42,C4,BE,5D,FE,00,00,00,
28375846,0000043C,false,Rx,1,8,42,C4,BE,5D,FE,00,00,00,
28376094,0000044C,false,Rx,1,8,42,C4,B0,4F,FE,00,00,00,
28376319,0000045C,false,Rx,1,8,7A,8B,15,2E,00,00,88,87,
28475607,0000042C,false,Rx,1,8,42,C4,BE,5D,FE,00,00,00,
28475848,0000043C,false,Rx,1,8,42,C4,BE,5D,FE,00,00,00,
28476089,0000044C,false,Rx,1,8,42,C4,08,52,FE,00,00,00,
28476321,0000045C,false,Rx,1,8,7D,8B,15,2E,00,00,98,87,
28575610,0000042C,false,Rx,1,8,42,C4,BE,5D,FE,00,00,00,
28575852,0000043C,false,Rx,1,8,42,C4,BE,5D,FE,00,00,00,
28576092,0000044C,false,Rx,1,8,42,C4,60,54,FE,00,00,00,
28576325,0000045C,false,Rx,1,8,80,8B,15,2E,00,00,8A,87,
28675627,0000042C,false,Rx,1,8,42,C4,BE,5D,FE,00,00,00,
28675868,0000043C,false,Rx,1,8,42,C4,BE,5D,FE,00,00,00,
28676108,0000044C,false,Rx,1,8,42,C4,B8,56,FE,00,00,00,
28676341,0000045C,false,Rx,1,8,7D,8B,15,2E,00,00,8A,87,
28775600,0000042C,false,Rx,1,8,42,C4,BE,5D,FE,00,00,00,
28775841,0000043C,false,Rx,1,8,42,C4,BE,5D,FE,00,00,00,
28776081,0000044C,false,Rx,1,8,42,C4,10,59,FE,00,00,00,
28776315,0000045C,false,Rx,1,8,80,8B,15,2E,00,00,95,87,
28875600,0000042C,false,Rx,1,8,42,C4,BE,5D,FE,00,00,00,
28875841,0000043C,false,Rx,1,8,42,C4,BE,5D,FE,00,00,00,
28876074,0000044C,false,Rx,1,8,42,C4,68,5B,FE,00,00,00,
28876307,0000045C,false,Rx,1,8,7E,8B,15,2E,00,00,A3,87,
28975590,0000042C,false,Rx,1,8,42,C4,7B,5D,FE,00,00,00,
28975824,0000043C,false,Rx,1,8,42,C4,7B,5D,FE,00,00,00,
28976065,0000044C,false,Rx,1,8,42,C4,7B,5D,FE,00,00,00,
28976297,0000045C,false,Rx,1,8,7E,8B,15,2E,00,00,95,87,
29075602,0000042C,false,Rx,1,8,42,C4,7B,5D,FE,00,00,00,
29075837,0000043C,false,Rx,1,8,42,C4,7B,5D,FE,00,00,00,
29076077,0000044C,false,Rx,1,8,42,C4,7B,5D,FE,00,00,00,
29076309,0000045C,false,Rx,1,8,81,8B,15,2E,00,00,A3,87,
29176123,0000042C,false,Rx,1,8,42,C4,7B,5D,FE,00,00,00,
29176356,0000043C,false,Rx,1,8,42,C4,7B,5D,FE,00,00,00,
29176597,0000044C,false,Rx,1,8,42,C4,7B,5D,FE,00,00,00,
29176831,0000045C,false,Rx,1,8,85,8B,15,2E,00,00,AF,87,
29275595,0000042C,false,Rx,1,8,42,C4,7B,5D,FE,00,00,00,
29275836,0000043C,false,Rx,1,8,42,C4,7B,5D,FE,00,00,00,
29276076,0000044C,false,Rx,1,8,42,C4,7B,5D,FE,00,00,00,
29276302,0000045C,false,Rx,1,8,89,8B,15,2E,00,00,B1,87,
29375590,0000042C,false,Rx,1,8,42,C4,7B,5D,FE,00,00,00,
29375823,0000043C,false,Rx,1,8,42,C4,7B,5D,FE,00,00,00,
29376064,0000044C,false,Rx,1,8,42,C4,7B,5D,FE,00,00,00,
29376297,0000045C,false,Rx,1,8,85,8B,15,2E,00,00,A1,87,
29475589,0000042C,false,Rx,1,8,42,C4,7B,5D,FE,00,00,00,
29475823,0000043C,false,Rx,1,8,42,C4,7B,5D,FE,00,00,00,
29476064,0000044C,false,Rx,1,8,42,C4,7B,5D,FE,00,00,00,
29476297,0000045C,false,Rx,1,8,89,8B,15,2E,00,00,A1,87,
29575596,0000042C,false,Rx,1,8,42,C4,7B,5D,FE,00,00,00,
29575831,0000043C,false,Rx,1,8,42,C4,7B,5D,FE,00,00,00,
29576071,0000044C,false,Rx,1,8,42,C4,7B,5D,FE,00,00,00,
29576311,0000045C,false,Rx,1,8,83,8B,15,2E,00,00,AF,87,
29675608,0000042C,false,Rx,1,8,42,C4,7B,5D,FE,00,00,00,
29675849,0000043C,false,Rx,1,8,42,C4,7B,5D,FE,00,00,00,
29676089,0000044C,false,Rx,1,8,42,C4,7B,5D,FE,00,00,00,
29676314,0000045C,false,Rx,1,8,88,8B,15,2E,00,00,A4,87,
29775585,0000042C,false,Rx,1,8,42,C4,7B,5D,FE,00,00,00,
29775826,0000043C,false,Rx,1,8,42,C4,7B,5D,FE,00,00,00,
29776066,0000044C,false,Rx,1,8,42,C4,7B,5D,FE,00,00,00,
29776292,0000045C,false,Rx,1,8,89,8B,15,2E,00,00,A3,87,
29875583,0000042C,false,Rx,1,8,42,C4,7B,5D,FE,00,00,00,
29875824,0000043C,false,Rx,1,8,42,C4,7B,5D,FE,00,00,00,
29876057,0000044C,false,Rx,1,8,42,C4,7B,5D,FE,00,00,00,
29876290,0000045C,false,Rx,1,8,8C,8B,15,2E,00,00,A4,87,
29975587,0000042C,false,Rx,1,8,42,C4,7B,5D,FE,00,00,00,
29975828,0000043C,false,Rx,1,8,42,C4,7B,5D,FE,00,00,00,
29976062,0000044C,false,Rx,1,8,42,C4,7B,5D,FE,00,00,00,
29976295,0000045C,false,Rx,1,8,8A,8B,15,2E,00,00,A3,87,
30075581,0000042C,false,Rx,1,8,42,C4,7B,5D,FE,00,00,00,
30075823,0000043C,false,Rx,1,8,42,C4,7B,5D,FE,00,00,00,
30076055,0000044C,false,Rx,1,8,42,C4,7B,5D,FE,00,00,00,
30076288,0000045C,false,Rx,1,8,8D,8B,15,2E,00,00,A3,87,
30176107,0000042C,false,Rx,1,8,42,C4,7B,5D,FE,00,00,00,
30176340,0000043C,false,Rx,1,8,42,C4,7B,5D,FE,00,00,00,
30176580,0000044C,false,Rx,1,8,42,C4,7B,5D,FE,00,00,00,
30176814,0000045C,false,Rx,1,8,8D,8B,15,2E,00,00,AF,87,
30275574,0000042C,false,Rx,1,8,42,C4,7B,5D,FE,00,00,00,
30275815,0000043C,false,Rx,1,8,42,C4,7B,5D,FE,00,00,00,
30276047,0000044C,false,Rx,1,8,42,C4,7B,5D,FE,00,00,00,
30276281,0000045C,false,Rx,1,8,8F,8B,15,2E,00,00,AE,87,
30375578,0000042C,false,Rx,1,8,42,C4,7B,5D,FE,00,00,00,
30375811,0000043C,false,Rx,1,8,42,C4,7B,5D,FE,00,00,00,
30376052,0000044C,false,Rx,1,8,42,C4,7B,5D,FE,00,00,00,
30376285,0000045C,false,Rx,1,8,8E,8B,15,2E,00,00,A1,87,
30475581,0000042C,false,Rx,1,8,42,C4,7B,5D,FE,00,00,00,
30475815,0000043C,false,Rx,1,8,42,C4,7B,5D,FE,00,00,00,
30476055,0000044C,false,Rx,1,8,42,C4,7B,5D,FE,00,00,00,
30476280,0000045C,false,Rx,1,8,90,8B,15,2E,00,00,B0,87,
30575597,0000042C,false,Rx,1,8,42,C4,BE,5D,FE,00,00,00,
30575839,0000043C,false,Rx,1,8,42,C4,BE,5D,FE,00,00,00,
30576079,0000044C,false,Rx,1,8,42,C4,BE,5D,FE,00,00,00,
30576311,0000045C,false,Rx,1,8,93,8B,15,2E,00,00,B1,87,
30675583,0000042C,false,Rx,1,8,42,C4,BE,5D,FE,00,00,00,
30675824,0000043C,false,Rx,1,8,42,C4,BE,5D,FE,00,00,00,
30676064,0000044C,false,Rx,1,8,42,C4,BE,5D,FE,00,00,00,
30676298,0000045C,false,Rx,1,8,93,8B,15,2E,00,00,B1,87,
30775567,0000042C,false,Rx,1,8,42,C4,BE,5D,FE,00,00,00,
30775807,0000043C,false,Rx,1,8,42,C4,BE,5D,FE,00,00,00,
30776048,0000044C,false,Rx,1,8,42,C4,BE,5D,FE,00,00,00,
30776282,0000045C,false,Rx,1,8,8F,8B,15,2E,00,00,BC,87,
30875565,0000042C,false,Rx,1,8,42,C4,BE,5D,FE,00,00,00,
30875814,0000043C,false,Rx,1,8,42,C4,BE,5D,FE,00,00,00,
30876048,0000044C,false,Rx,1,8,42,C4,BE,5D,FE,00,00,00,
30876287,0000045C,false,Rx,1,8,93,8B,15,2E,00,00,BA,87,
30975556,0000042C,false,Rx,1,8,42,C4,7B,5D,FE,00,00,00,
30975797,0000043C,false,Rx,1,8,42,C4,7B,5D,FE,00,00,00,
30976031,0000044C,false,Rx,1,8,42,C4,7B,5D,FE,00,00,00,
30976263,0000045C,false,Rx,1,8,94,8B,15,2E,00,00,AE,87,
31075590,0000042C,false,Rx,1,8,42,C4,7B,5D,FE,00,00,00,
31075824,0000043C,false,Rx,1,8,42,C4,7B,5D,FE,00,00,00,
31076064,0000044C,false,Rx,1,8,42,C4,7B,5D,FE,00,00,00,
31076297,0000045C,false,Rx,1,8,90,8B,15,2E,00,00,AF,87,
31176079,0000042C,false,Rx,1,8,42,C4,7B,5D,FE,00,00,00,
31176321,0000043C,false,Rx,1,8,42,C4,7B,5D,FE,00,00,00,
31176553,0000044C,false,Rx,1,8,42,C4,7B,5D,FE,00,00,00,
31176793,0000045C,false,Rx,1,8,96,8B,15,2E,00,00,AF,87,
31275548,0000042C,false,Rx,1,8,42,C4,7B,5D,FE,00,00,00,
31275787,0000043C,false,Rx,1,8,42,C4,7B,5D,FE,00,00,00,
31276029,0000044C,false,Rx,1,8,42,C4,7B,5D,FE,00,00,00,
31276255,0000045C,false,Rx,1,8,91,8B,15,2E,00,00,A1,87,
31375550,0000042C,false,Rx,1,8,42,C4,BE,5D,FE,00,00,00,
31375790,0000043C,false,Rx,1,8,42,C4,BE,5D,FE,00,00,00,
31376032,0000044C,false,Rx,1,8,42,C4,BE,5D,FE,00,00,00,
31376264,0000045C,false,Rx,1,8,95,8B,15,2E,00,00,B9,87,
31475545,0000042C,false,Rx,1,8,42,C4,7B,5D,FE,00,00,00,
31475786,0000043C,false,Rx,1,8,42,C4,7B,5D,FE,00,00,00,
31476020,0000044C,false,Rx,1,8,42,C4,7B,5D,FE,00,00,00,
31476260,0000045C,false,Rx,1,8,95,8B,15,2E,00,00,C7,87,
31575566,0000042C,false,Rx,1,8,42,C4,BE,5D,FE,00,00,00,
31575807,0000043C,false,Rx,1,8,42,C4,BE,5D,FE,00,00,00,
31576048,0000044C,false,Rx,1,8,42,C4,BE,5D,FE,00,00,00,
31576281,0000045C,false,Rx,1,8,94,8B,15,2E,00,00,A2,87,
31675538,0000042C,false,Rx,1,8,42,C4,BE,5D,FE,00,00,00,
31675785,0000043C,false,Rx,1,8,42,C4,BE,5D,FE,00,00,00,
31676019,0000044C,false,Rx,1,8,42,C4,BE,5D,FE,00,00,00,
31676252,0000045C,false,Rx,1,8,99,8B,15,2E,00,00,A3,87,
31775547,0000042C,false,Rx,1,8,42,C4,BE,5D,FE,00,00,00,
31775787,0000043C,false,Rx,1,8,42,C4,BE,5D,FE,00,00,00,
31776029,0000044C,false,Rx,1,8,42,C4,BE,5D,FE,00,00,00,
31776255,0000045C,false,Rx,1,8,96,8B,15,2E,00,00,A3,87,
31875541,0000042C,false,Rx,1,8,42,C4,BE,5D,FE,00,00,00,
31875781,0000043C,false,Rx,1,8,42,C4,BE,5D,FE,00,00,00,
31876024,0000044C,false,Rx,1,8,42,C4,BE,5D,FE,00,00,00,
31876257,0000045C,false,Rx,1,8,98,8B,15,2E,00,00,BC,87,
31975535,0000042C,false,Rx,1,8,42,C4,BE,5D,FE,00,00,00,
31975777,0000043C,false,Rx,1,8,42,C4,BE,5D,FE,00,00,00,
31976017,0000044C,false,Rx,1,8,42,C4,BE,5D,FE,00,00,00,
31976250,0000045C,false,Rx,1,8,9B,8B,15,2E,00,00,BD,87,
32075562,0000042C,false,Rx,1,8,42,C4,BE,5D,FE,00,00,00,
32075802,0000043C,false,Rx,1,8,42,C4,BE,5D,FE,00,00,00,
32076043,0000044C,false,Rx,1,8,42,C4,BE,5D,FE,00,00,00,
32076275,0000045C,false,Rx,1,8,9B,8B,15,2E,00,00,B1,87,
32176036,0000042C,false,Rx,1,8,42,C4,BE,5D,FE,00,00,00,
32176277,0000043C,false,Rx,1,8,42,C4,BE,5D,FE,00,00,00,
32176517,0000044C,false,Rx,1,8,42,C4,BE,5D,FE,00,00,00,
32176749,0000045C,false,Rx,1,8,9C,8B,15,2E,00,00,B2,87,
32275529,0000042C,false,Rx,1,8,42,C4,BE,5D,FE,00,00,00,
32275769,0000043C,false,Rx,1,8,42,C4,BE,5D,FE,00,00,00,
32276011,0000044C,false,Rx,1,8,42,C4,BE,5D,FE,00,00,00,
32276236,0000045C,false,Rx,1,8,9D,8B,15,2E,00,00,A6,87,
32375531,0000042C,false,Rx,1,8,42,C4,BE,5D,FE,00,00,00,
32375770,0000043C,false,Rx,1,8,42,C4,BE,5D,FE,00,00,00,
32376013,0000044C,false,Rx,1,8,42,C4,BE,5D,FE,00,00,00,
32376245,0000045C,false,Rx,1,8,9E,8B,15,2E,00,00,BD,87,
32475523,0000042C,false,Rx,1,8,42,C4,BE,5D,FE,00,00,00,
32475764,0000043C,false,Rx,1,8,42,C4,BE,5D,FE,00,00,00,
32476005,0000044C,false,Rx,1,8,42,C4,BE,5D,FE,00,00,00,
32476238,0000045C,false,Rx,1,8,9D,8B,15,2E,00,00,BD,87,
32575547,0000042C,false,Rx,1,8,42,C4,BE,5D,FE,00,00,00,
32575787,0000043C,false,Rx,1,8,42,C4,BE,5D,FE,00,00,00,
32576028,0000044C,false,Rx,1,8,42,C4,BE,5D,FE,00,00,00,
32576261,0000045C,false,Rx,1,8,9F,8B,15,2E,00,00,BC,87,
32675523,0000042C,false,Rx,1,8,42,C4,BE,5D,FE,00,00,00,
32675771,0000043C,false,Rx,1,8,42,C4,BE,5D,FE,00,00,00,
32676012,0000044C,false,Rx,1,8,42,C4,BE,5D,FE,00,00,00,
32676246,0000045C,false,Rx,1,8,A1,8B,15,2E,00,00,BD,87,
32775517,0000042C,false,Rx,1,8,42,C4,7B,5D,FE,00,00,00,
32775750,0000043C,false,Rx,1,8,42,C4,7B,5D,FE,00,00,00,
32775992,0000044C,false,Rx,1,8,42,C4,7B,5D,FE,00,00,00,
32776225,0000045C,false,Rx,1,8,A0,8B,15,2E,00,00,BB,87,
32875518,0000042C,false,Rx,1,8,42,C4,BE,5D,FE,00,00,00,
32875758,0000043C,false,Rx,1,8,42,C4,BE,5D,FE,00,00,00,
32876000,0000044C,false,Rx,1,8,42,C4,BE,5D,FE,00,00,00,
32876233,0000045C,false,Rx,1,8,A0,8B,15,2E,00,00,BC,87,
32975510,0000042C,false,Rx,1,8,42,C4,BE,5D,FE,00,00,00,
32975758,0000043C,false,Rx,1,8,42,C4,BE,5D,FE,00,00,00,
32975993,0000044C,false,Rx,1,8,42,C4,BE,5D,FE,00,00,00,
32976226,0000045C,false,Rx,1,8,A1,8B,15,2E,00,00,C8,87,
33075533,0000042C,false,Rx,1,8,42,C4,7B,5D,FE,00,00,00,
33075773,0000043C,false,Rx,1,8,42,C4,7B,5D,FE,00,00,00,
33076006,0000044C,false,Rx,1,8,42,C4,7B,5D,FE,00,00,00,
33076247,0000045C,false,Rx,1,8,A4,8B,15,2E,00,00,BB,87,
33176021,0000042C,false,Rx,1,8,42,C4,BE,5D,FE,00,00,00,
33176262,0000043C,false,Rx,1,8,42,C4,BE,5D,FE,00,00,00,
33176502,0000044C,false,Rx,1,8,42,C4,BE,5D,FE,00,00,00,
33176735,0000045C,false,Rx,1,8,A4,8B,15,2E,00,00,BA,87,
33275508,0000042C,false,Rx,1,8,42,C4,7B,5D,FE,00,00,00,
33275748,0000043C,false,Rx,1,8,42,C4,7B,5D,FE,00,00,00,
33275982,0000044C,false,Rx,1,8,42,C4,7B,5D,FE,00,00,00,
33276215,0000045C,false,Rx,1,8,A6,8B,15,2E,00,00,BD,87,
33375505,0000042C,false,Rx,1,8,42,C4,BE,5D,FE,00,00,00,
33375745,0000043C,false,Rx,1,8,42,C4,BE,5D,FE,00,00,00,
33375988,0000044C,false,Rx,1,8,42,C4,BE,5D,FE,00,00,00,
33376220,0000045C,false,Rx,1,8,A2,8B,15,2E,00,00,BF,87,
33475526,0000042C,false,Rx,1,8,42,C4,BE,5D,FE,00,00,00,
33475767,0000043C,false,Rx,1,8,42,C4,BE,5D,FE,00,00,00,
33476008,0000044C,false,Rx,1,8,42,C4,BE,5D,FE,00,00,00,
33476240,0000045C,false,Rx,1,8,A5,8B,15,2E,00,00,C8,87,
33575526,0000042C,false,Rx,1,8,42,C4,7B,5D,FE,00,00,00,
33575758,0000043C,false,Rx,1,8,42,C4,7B,5D,FE,00,00,00,
33576000,0000044C,false,Rx,1,8,42,C4,7B,5D,FE,00,00,00,
33576233,0000045C,false,Rx,1,8,A5,8B,15,2E,00,00,CA,87,
33675503,0000042C,false,Rx,1,8,42,C4,BE,5D,FE,00,00,00,
33675742,0000043C,false,Rx,1,8,42,C4,BE,5D,FE,00,00,00,
33675983,0000044C,false,Rx,1,8,42,C4,BE,5D,FE,00,00,00,
33676217,0000045C,false,Rx,1,8,A4,8B,15,2E,00,00,BB,87,
33775712,0000042C,false,Rx,1,8,42,C4,BE,5D,FE,00,00,00,
33775954,0000043C,false,Rx,1,8,42,C4,BE,5D,FE,00,00,00,
33776202,0000044C,false,Rx,1,8,42,C4,BE,5D,FE,00,00,00,
33776427,0000045C,false,Rx,1,8,A5,8B,15,2E,00,00,C9,87,
33875716,0000042C,false,Rx,1,8,42,C4,BE,5D,FE,00,00,00,
33875958,0000043C,false,Rx,1,8,42,C4,BE,5D,FE,00,00,00,
33876198,0000044C,false,Rx,1,8,42,C4,BE,5D,FE,00,00,00,
33876430,0000045C,false,Rx,1,8,AA,8B,15,2E,00,00,BB,87,
33975722,0000042C,false,Rx,1,8,42,C4,BE,5D,FE,00,00,00,
33975963,0000043C,false,Rx,1,8,42,C4,BE,5D,FE,00,00,00,
33976203,0000044C,false,Rx,1,8,42,C4,BE,5D,FE,00,00,00,
33976429,0000045C,false,Rx,1,8,AA,8B,15,2E,00,00,C7,87,
34075513,0000042C,false,Rx,1,8,42,C4,BE,5D,FE,00,00,00,
34075753,0000043C,false,Rx,1,8,42,C4,BE,5D,FE,00,00,00,
34076212,0000044C,false,Rx,1,8,42,C4,BE,5D,FE,00,00,00,
34076445,0000045C,false,Rx,1,8,A8,8B,15,2E,00,00,C7,87,
34175991,0000042C,false,Rx,1,8,42,C4,BE,5D,FE,00,00,00,
34176232,0000043C,false,Rx,1,8,42,C4,BE,5D,FE,00,00,00,
34176472,0000044C,false,Rx,1,8,42,C4,BE,5D,FE,00,00,00,
34176704,0000045C,false,Rx,1,8,AA,8B,15,2E,00,00,BC,87,
34275487,0000042C,false,Rx,1,8,42,C4,BE,5D,FE,00,00,00,
34275727,0000043C,false,Rx,1,8,42,C4,BE,5D,FE,00,00,00,
34275969,0000044C,false,Rx,1,8,42,C4,BE,5D,FE,00,00,00,
34276201,0000045C,false,Rx,1,8,A8,8B,15,2E,00,00,CA,87,
34375488,0000042C,false,Rx,1,8,42,C4,BE,5D,FE,00,00,00,
34375729,0000043C,false,Rx,1,8,42,C4,BE,5D,FE,00,00,00,
34375970,0000044C,false,Rx,1,8,42,C4,BE,5D,FE,00,00,00,
34376195,0000045C,false,Rx,1,8,A9,8B,15,2E,00,00,CA,87,
34475508,0000042C,false,Rx,1,8,42,C4,BE,5D,FE,00,00,00,
34475749,0000043C,false,Rx,1,8,42,C4,BE,5D,FE,00,00,00,
34475990,0000044C,false,Rx,1,8,42,C4,BE,5D,FE,00,00,00,
34476222,0000045C,false,Rx,1,8,A8,8B,15,2E,00,00,CA,87,
34575483,0000042C,false,Rx,1,8,42,C4,BE,5D,FE,00,00,00,
34575723,0000043C,false,Rx,1,8,42,C4,BE,5D,FE,00,00,00,
34575964,0000044C,false,Rx,1,8,42,C4,BE,5D,FE,00,00,00,
34576190,0000045C,false,Rx,1,8,AC,8B,15,2E,00,00,B0,87,
34675482,0000042C,false,Rx,1,8,42,C4,BE,5D,FE,00,00,00,
34675722,0000043C,false,Rx,1,8,42,C4,BE,5D,FE,00,00,00,
34675963,0000044C,false,Rx,1,8,42,C4,BE,5D,FE,00,00,00,
34676189,0000045C,false,Rx,1,8,AC,8B,15,2E,00,00,C9,87,
34775476,0000042C,false,Rx,1,8,42,C4,7B,5D,FE,00,00,00,
34775708,0000043C,false,Rx,1,8,42,C4,7B,5D,FE,00,00,00,
34775950,0000044C,false,Rx,1,8,42,C4,7B,5D,FE,00,00,00,
34776175,0000045C,false,Rx,1,8,AC,8B,15,2E,00,00,C7,87,
34875473,0000042C,false,Rx,1,8,42,C4,BE,5D,FE,00,00,00,
34875714,0000043C,false,Rx,1,8,42,C4,BE,5D,FE,00,00,00,
34875956,0000044C,false,Rx,1,8,42,C4,BE,5D,FE,00,00,00,
34876188,0000045C,false,Rx,1,8,AA,8B,15,2E,00,00,D7,87,
34975494,0000042C,false,Rx,1,8,42,C4,BE,5D,FE,00,00,00,
34975735,0000043C,false,Rx,1,8,42,C4,BE,5D,FE,00,00,00,
34975976,0000044C,false,Rx,1,8,42,C4,BE,5D,FE,00,00,00,
34976201,0000045C,false,Rx,1,8,AD,8B,15,2E,00,00,CC,87,
35075474,0000042C,false,Rx,1,8,42,C4,7B,5D,FE,00,00,00,
35075714,0000043C,false,Rx,1,8,42,C4,7B,5D,FE,00,00,00,
35075948,0000044C,false,Rx,1,8,42,C4,7B,5D,FE,00,00,00,
35076181,0000045C,false,Rx,1,8,AD,8B,15,2E,00,00,CA,87,
35175974,0000042C,false,Rx,1,8,42,C4,BE,5D,FE,00,00,00,
35176214,0000043C,false,Rx,1,8,42,C4,BE,5D,FE,00,00,00,
35176454,0000044C,false,Rx,1,8,42,C4,BE,5D,FE,00,00,00,
35176687,0000045C,false,Rx,1,8,B0,8B,15,2E,00,00,C8,87,
35275474,0000042C,false,Rx,1,8,42,C4,BE,5D,FE,00,00,00,
35275714,0000043C,false,Rx,1,8,42,C4,BE,5D,FE,00,00,00,
35275956,0000044C,false,Rx,1,8,42,C4,BE,5D,FE,00,00,00,
35276189,0000045C,false,Rx,1,8,B2,8B,15,2E,00,00,D2,87,
35375469,0000042C,false,Rx,1,8,42,C4,BE,5D,FE,00,00,00,
35375710,0000043C,false,Rx,1,8,42,C4,BE,5D,FE,00,00,00,
35375951,0000044C,false,Rx,1,8,42,C4,BE,5D,FE,00,00,00,
35376183,0000045C,false,Rx,1,8,AD,8B,15,2E,00,00,C6,87,
35475483,0000042C,false,Rx,1,8,42,C4,BE,5D,FE,00,00,00,
35475724,0000043C,false,Rx,1,8,42,C4,BE,5D,FE,00,00,00,
35475965,0000044C,false,Rx,1,8,42,C4,BE,5D,FE,00,00,00,
35476198,0000045C,false,Rx,1,8,B5,8B,15,2E,00,00,D3,87,
35575466,0000042C,false,Rx,1,8,42,C4,BE,5D,FE,00,00,00,
35575706,0000043C,false,Rx,1,8,42,C4,BE,5D,FE,00,00,00,
35575948,0000044C,false,Rx,1,8,42,C4,BE,5D,FE,00,00,00,
35576181,0000045C,false,Rx,1,8,B1,8B,15,2E,00,00,D5,87,
35675459,0000042C,false,Rx,1,8,42,C4,BE,5D,FE,00,00,00,
35675699,0000043C,false,Rx,1,8,42,C4,BE,5D,FE,00,00,00,
35675942,0000044C,false,Rx,1,8,42,C4,BE,5D,FE,00,00,00,
35676174,0000045C,false,Rx,1,8,B3,8B,15,2E,00,00,CA,87,
35775456,0000042C,false,Rx,1,8,42,C4,BE,5D,FE,00,00,00,
35775696,0000043C,false,Rx,1,8,42,C4,BE,5D,FE,00,00,00,
35775938,0000044C,false,Rx,1,8,42,C4,BE,5D,FE,00,00,00,
35776171,0000045C,false,Rx,1,8,B3,8B,15,2E,00,00,D6,87,
35875449,0000042C,false,Rx,1,8,42,C4,BE,5D,FE,00,00,00,
35875690,0000043C,false,Rx,1,8,42,C4,BE,5D,FE,00,00,00,
35875930,0000044C,false,Rx,1,8,42,C4,BE,5D,FE,00,00,00,
35876163,0000045C,false,Rx,1,8,B7,8B,15,2E,00,00,D5,87,
35975472,0000042C,false,Rx,1,8,42,C4,BE,5D,FE,00,00,00,
35975712,0000043C,false,Rx,1,8,42,C4,BE,5D,FE,00,00,00,
35975953,0000044C,false,Rx,1,8,42,C4,BE,5D,FE,00,00,00,
35976185,0000045C,false,Rx,1,8,B4,8B,15,2E,00,00,CA,87,
36075449,0000042C,false,Rx,1,8,42,C4,BE,5D,FE,00,00,00,
36075689,0000043C,false,Rx,1,8,42,C4,BE,5D,FE,00,00,00,
36075930,0000044C,false,Rx,1,8,42,C4,BE,5D,FE,00,00,00,
36076163,0000045C,false,Rx,1,8,B3,8B,15,2E,00,00,C8,87,
36175950,0000042C,false,Rx,1,8,42,C4,BE,5D,FE,00,00,00,
36176190,0000043C,false,Rx,1,8,42,C4,BE,5D,FE,00,00,00,
36176430,0000044C,false,Rx,1,8,42,C4,BE,5D,FE,00,00,00,
36176684,0000045C,false,Rx,1,8,B9,8B,15,2E,00,00,C8,87,
36275445,0000042C,false,Rx,1,8,42,C4,BE,5D,FE,00,00,00,
36275685,0000043C,false,Rx,1,8,42,C4,BE,5D,FE,00,00,00,
36275928,0000044C,false,Rx,1,8,42,C4,BE,5D,FE,00,00,00,
36276160,0000045C,false,Rx,1,8,B6,8B,15,2E,00,00,D6,87,
36375456,0000042C,false,Rx,1,8,42,C4,BE,5D,FE,00,00,00,
36375697,0000043C,false,Rx,1,8,42,C4,BE,5D,FE,00,00,00,
36375938,0000044C,false,Rx,1,8,42,C4,BE,5D,FE,00,00,00,
36376171,0000045C,false,Rx,1,8,B6,8B,15,2E,00,00,C7,87,
36475459,0000042C,false,Rx,1,8,42,C4,BE,5D,FE,00,00,00,
36475699,0000043C,false,Rx,1,8,42,C4,BE,5D,FE,00,00,00,
36475940,0000044C,false,Rx,1,8,42,C4,BE,5D,FE,00,00,00,
36476172,0000045C,false,Rx,1,8,BA,8B,15,2E,00,00,D5,87,
36575439,0000042C,false,Rx,1,8,42,C4,BE,5D,FE,00,00,00,
36575679,0000043C,false,Rx,1,8,42,C4,BE,5D,FE,00,00,00,
36575921,0000044C,false,Rx,1,8,42,C4,BE,5D,FE,00,00,00,
36576147,0000045C,false,Rx,1,8,BA,8B,15,2E,00,00,C8,87,
36675445,0000042C,false,Rx,1,8,42,C4,BE,5D,FE,00,00,00,
36675685,0000043C,false,Rx,1,8,42,C4,BE,5D,FE,00,00,00,
36675927,0000044C,false,Rx,1,8,42,C4,BE,5D,FE,00,00,00,
36676160,0000045C,false,Rx,1,8,B7,8B,15,2E,00,00,D6,87,
36775432,0000042C,false,Rx,1,8,42,C4,BE,5D,FE,00,00,00,
36775680,0000043C,false,Rx,1,8,42,C4,BE,5D,FE,00,00,00,
36775922,0000044C,false,Rx,1,8,42,C4,BE,5D,FE,00,00,00,
36776147,0000045C,false,Rx,1,8,BB,8B,15,2E,00,00,E3,87,
36875430,0000042C,false,Rx,1,8,42,C4,BE,5D,FE,00,00,00,
36875671,0000043C,false,Rx,1,8,42,C4,BE,5D,FE,00,00,00,
36875912,0000044C,false,Rx,1,8,42,C4,BE,5D,FE,00,00,00,
36876144,0000045C,false,Rx,1,8,B6,8B,15,2E,00,00,C8,87,
36975449,0000042C,false,Rx,1,8,42,C4,BE,5D,FE,00,00,00,
36975696,0000043C,false,Rx,1,8,42,C4,BE,5D,FE,00,00,00,
36975937,0000044C,false,Rx,1,8,42,C4,BE,5D,FE,00,00,00,
36976170,0000045C,false,Rx,1,8,BD,8B,15,2E,00,00,D3,87,
37075425,0000042C,false,Rx,1,8,42,C4,BE,5D,FE,00,00,00,
37075665,0000043C,false,Rx,1,8,42,C4,BE,5D,FE,00,00,00,
37075906,0000044C,false,Rx,1,8,42,C4,BE,5D,FE,00,00,00,
37076139,0000045C,false,Rx,1,8,BC,8B,15,2E,00,00,C7,87,
37175937,0000042C,false,Rx,1,8,42,C4,BE,5D,FE,00,00,00,
37176177,0000043C,false,Rx,1,8,42,C4,BE,5D,FE,00,00,00,
37176417,0000044C,false,Rx,1,8,42,C4,BE,5D,FE,00,00,00,
37176650,0000045C,false,Rx,1,8,BB,8B,15,2E,00,00,D4,87,
37275432,0000042C,false,Rx,1,8,42,C4,BE,5D,FE,00,00,00,
37275672,0000043C,false,Rx,1,8,42,C4,BE,5D,FE,00,00,00,
37275914,0000044C,false,Rx,1,8,42,C4,BE,5D,FE,00,00,00,
37276154,0000045C,false,Rx,1,8,BB,8B,15,2E,00,00,E0,87,
37375456,0000042C,false,Rx,1,8,42,C4,BE,5D,FE,00,00,00,
37375698,0000043C,false,Rx,1,8,42,C4,BE,5D,FE,00,00,00,
37375939,0000044C,false,Rx,1,8,42,C4,BE,5D,FE,00,00,00,
37376163,0000045C,false,Rx,1,8,BD,8B,15,2E,00,00,E1,87,
37475439,0000042C,false,Rx,1,8,42,C4,BE,5D,FE,00,00,00,
37475679,0000043C,false,Rx,1,8,42,C4,BE,5D,FE,00,00,00,
37475921,0000044C,false,Rx,1,8,42,C4,BE,5D,FE,00,00,00,
37476155,0000045C,false,Rx,1,8,BF,8B,15,2E,00,00,D4,87,
37575424,0000042C,false,Rx,1,8,42,C4,BE,5D,FE,00,00,00,
37575664,0000043C,false,Rx,1,8,42,C4,BE,5D,FE,00,00,00,
37575906,0000044C,false,Rx,1,8,42,C4,BE,5D,FE,00,00,00,
37576139,0000045C,false,Rx,1,8,C2,8B,15,2E,00,00,D3,87,
37675424,0000042C,false,Rx,1,8,42,C4,7B,5D,FE,00,00,00,
37675664,0000043C,false,Rx,1,8,42,C4,7B,5D,FE,00,00,00,
37675899,0000044C,false,Rx,1,8,42,C4,7B,5D,FE,00,00,00,
37676131,0000045C,false,Rx,1,8,BC,8B,15,2E,00,00,E1,87,
37775430,0000042C,false,Rx,1,8,42,C4,BE,5D,FE,00,00,00,
37775671,0000043C,false,Rx,1,8,42,C4,BE,5D,FE,00,00,00,
37775913,0000044C,false,Rx,1,8,42,C4,BE,5D,FE,00,00,00,
37776146,0000045C,false,Rx,1,8,B8,8B,15,2E,00,00,D5,87,
37875437,0000042C,false,Rx,1,8,42,C4,7B,5D,FE,00,00,00,
37875671,0000043C,false,Rx,1,8,42,C4,7B,5D,FE,00,00,00,
37875912,0000044C,false,Rx,1,8,42,C4,7B,5D,FE,00,00,00,
37876144,0000045C,false,Rx,1,8,BD,8B,15,2E,00,00,C7,87,
37975431,0000042C,false,Rx,1,8,42,C4,7B,5D,FE,00,00,00,
37975664,0000043C,false,Rx,1,8,42,C4,7B,5D,FE,00,00,00,
37975906,0000044C,false,Rx,1,8,42,C4,7B,5D,FE,00,00,00,
37976139,0000045C,false,Rx,1,8,BF,8B,15,2E,00,00,EE,87,
38075418,0000042C,false,Rx,1,8,42,C4,BE,5D,FE,00,00,00,
38075658,0000043C,false,Rx,1,8,42,C4,BE,5D,FE,00,00,00,
38075899,0000044C,false,Rx,1,8,42,C4,BE,5D,FE,00,00,00,
38076132,0000045C,false,Rx,1,8,BE,8B,15,2E,00,00,D6,87,
38175919,0000042C,false,Rx,1,8,42,C4,7B,5D,FE,00,00,00,
38176151,0000043C,false,Rx,1,8,42,C4,7B,5D,FE,00,00,00,
38176391,0000044C,false,Rx,1,8,42,C4,7B,5D,FE,00,00,00,
38177347,0000045C,false,Rx,1,8,BA,8B,15,2E,00,00,D6,87,
38275409,0000042C,false,Rx,1,8,42,C4,7B,5D,FE,00,00,00,
38275650,0000043C,false,Rx,1,8,42,C4,7B,5D,FE,00,00,00,
38275884,0000044C,false,Rx,1,8,42,C4,7B,5D,FE,00,00,00,
38276116,0000045C,false,Rx,1,8,BC,8B,15,2E,00,00,D6,87,
38375441,0000042C,false,Rx,1,8,42,C4,7B,5D,FE,00,00,00,
38375675,0000043C,false,Rx,1,8,42,C4,7B,5D,FE,00,00,00,
38375916,0000044C,false,Rx,1,8,42,C4,7B,5D,FE,00,00,00,
38376148,0000045C,false,Rx,1,8,BF,8B,15,2E,00,00,D6,87,
38475406,0000042C,false,Rx,1,8,42,C4,7B,5D,FE,00,00,00,
38475639,0000043C,false,Rx,1,8,42,C4,7B,5D,FE,00,00,00,
38475881,0000044C,false,Rx,1,8,42,C4,7B,5D,FE,00,00,00,
38476107,0000045C,false,Rx,1,8,C2,8B,15,2E,00,00,D2,87,
38575403,0000042C,false,Rx,1,8,42,C4,BE,5D,FE,00,00,00,
38575650,0000043C,false,Rx,1,8,42,C4,BE,5D,FE,00,00,00,
38575891,0000044C,false,Rx,1,8,42,C4,BE,5D,FE,00,00,00,
38576124,0000045C,false,Rx,1,8,BE,8B,15,2E,00,00,E1,87,
38675885,0000042C,false,Rx,1,8,42,C4,BE,5D,FE,00,00,00,
38676125,0000043C,false,Rx,1,8,42,C4,BE,5D,FE,00,00,00,
38676365,0000044C,false,Rx,1,8,42,C4,BE,5D,FE,00,00,00,
38677328,0000045C,false,Rx,1,8,C1,8B,15,2E,00,00,D4,87,
38775636,0000042C,false,Rx,1,8,42,C4,BE,5D,FE,00,00,00,
38775878,0000043C,false,Rx,1,8,42,C4,BE,5D,FE,00,00,00,
38776118,0000044C,false,Rx,1,8,42,C4,BE,5D,FE,00,00,00,
38776351,0000045C,false,Rx,1,8,BD,8B,15,2E,00,00,EC,87,
38875653,0000042C,false,Rx,1,8,42,C4,BE,5D,FE,00,00,00,
38875896,0000043C,false,Rx,1,8,42,C4,BE,5D,FE,00,00,00,
38876136,0000044C,false,Rx,1,8,42,C4,BE,5D,FE,00,00,00,
38876369,0000045C,false,Rx,1,8,C1,8B,15,2E,00,00,DE,87,
38975629,0000042C,false,Rx,1,8,42,C4,BE,5D,FE,00,00,00,
38975878,0000043C,false,Rx,1,8,42,C4,BE,5D,FE,00,00,00,
38976111,0000044C,false,Rx,1,8,42,C4,BE,5D,FE,00,00,00,
38976344,0000045C,false,Rx,1,8,C2,8B,15,2E,00,00,D1,87,
39075630,0000042C,false,Rx,1,8,42,C4,BE,5D,FE,00,00,00,
39075872,0000043C,false,Rx,1,8,42,C4,BE,5D,FE,00,00,00,
39076112,0000044C,false,Rx,1,8,42,C4,BE,5D,FE,00,00,00,
39076345,0000045C,false,Rx,1,8,BF,8B,15,2E,00,00,DE,87,
39176137,0000042C,false,Rx,1,8,42,C4,BE,5D,FE,00,00,00,
39176377,0000043C,false,Rx,1,8,42,C4,BE,5D,FE,00,00,00,
39177338,0000044C,false,Rx,1,8,42,C4,BE,5D,FE,00,00,00,
39178045,0000045C,false,Rx,1,8,BE,8B,15,2E,00,00,DD,87,
39275632,0000042C,false,Rx,1,8,42,C4,BE,5D,FE,00,00,00,
39275873,0000043C,false,Rx,1,8,42,C4,BE,5D,FE,00,00,00,
39276113,0000044C,false,Rx,1,8,42,C4,BE,5D,FE,00,00,00,
39276346,0000045C,false,Rx,1,8,BF,8B,15,2E,00,00,E0,87,
39375769,0000042C,false,Rx,1,8,42,C4,BE,5D,FE,00,00,00,
39376018,0000043C,false,Rx,1,8,42,C4,BE,5D,FE,00,00,00,
39376274,0000044C,false,Rx,1,8,42,C4,BE,5D,FE,00,00,00,
39376484,0000045C,false,Rx,1,8,C1,8B,15,2E,00,00,D3,87,
39475625,0000042C,false,Rx,1,8,42,C4,BE,5D,FE,00,00,00,
39475866,0000043C,false,Rx,1,8,42,C4,BE,5D,FE,00,00,00,
39476107,0000044C,false,Rx,1,8,42,C4,BE,5D,FE,00,00,00,
39476340,0000045C,false,Rx,1,8,BC,8B,15,2E,00,00,EA,87,
39575622,0000042C,false,Rx,1,8,42,C4,BE,5D,FE,00,00,00,
39575864,0000043C,false,Rx,1,8,42,C4,BE,5D,FE,00,00,00,
39576104,0000044C,false,Rx,1,8,42,C4,BE,5D,FE,00,00,00,
39576337,0000045C,false,Rx,1,8,C2,8B,15,2E,00,00,E0,87,
39675626,0000042C,false,Rx,1,8,42,C4,BE,5D,FE,00,00,00,
39675868,0000043C,false,Rx,1,8,42,C4,BE,5D,FE,00,00,00,
39676108,0000044C,false,Rx,1,8,42,C4,BE,5D,FE,00,00,00,
39676333,0000045C,false,Rx,1,8,BD,8B,15,2E,00,00,D5,87,
39775616,0000042C,false,Rx,1,8,42,C4,BE,5D,FE,00,00,00,
39775858,0000043C,false,Rx,1,8,42,C4,BE,5D,FE,00,00,00,
39776098,0000044C,false,Rx,1,8,42,C4,BE,5D,FE,00,00,00,
39776332,0000045C,false,Rx,1,8,C2,8B,15,2E,00,00,E0,87,
39875633,0000042C,false,Rx,1,8,42,C4,BE,5D,FE,00,00,00,
39875874,0000043C,false,Rx,1,8,42,C4,BE,5D,FE,00,00,00,
39876114,0000044C,false,Rx,1,8,42,C4,BE,5D,FE,00,00,00,
39876347,0000045C,false,Rx,1,8,C1,8B,15,2E,00,00,D5,87,
39975619,0000042C,false,Rx,1,8,42,C4,BE,5D,FE,00,00,00,
39975861,0000043C,false,Rx,1,8,42,C4,BE,5D,FE,00,00,00,
39976102,0000044C,false,Rx,1,8,42,C4,BE,5D,FE,00,00,00,
39976334,0000045C,false,Rx,1,8,BE,8B,15,2E,00,00,D3,87,
40075611,0000042C,false,Rx,1,8,42,C4,BE,5D,FE,00,00,00,
40075853,0000043C,false,Rx,1,8,42,C4,BE,5D,FE,00,00,00,
40076093,0000044C,false,Rx,1,8,42,C4,BE,5D,FE,00,00,00,
40076333,0000045C,false,Rx,1,8,C0,8B,15,2E,00,00,C7,87,
40176112,0000042C,false,Rx,1,8,42,C4,BE,5D,FE,00,00,00,
40176352,0000043C,false,Rx,1,8,42,C4,BE,5D,FE,00,00,00,
40177315,0000044C,false,Rx,1,8,42,C4,BE,5D,FE,00,00,00,
40177540,0000045C,false,Rx,1,8,C3,8B,15,2E,00,00,C5,87,
40275626,0000042C,false,Rx,1,8,42,C4,BE,5D,FE,00,00,00,
40275869,0000043C,false,Rx,1,8,42,C4,BE,5D,FE,00,00,00,
40276108,0000044C,false,Rx,1,8,42,C4,BE,5D,FE,00,00,00,
40276342,0000045C,false,Rx,1,8,C1,8B,15,2E,00,00,EA,87,
40375739,0000042C,false,Rx,1,8,42,C4,BE,5D,FE,00,00,00,
40375981,0000043C,false,Rx,1,8,42,C4,BE,5D,FE,00,00,00,
40376222,0000044C,false,Rx,1,8,42,C4,BE,5D,FE,00,00,00,
40376454,0000045C,false,Rx,1,8,C2,8B,15,2E,00,00,D5,87,
40475604,0000042C,false,Rx,1,8,42,C4,BE,5D,FE,00,00,00,
40475845,0000043C,false,Rx,1,8,42,C4,BE,5D,FE,00,00,00,
40476086,0000044C,false,Rx,1,8,42,C4,BE,5D,FE,00,00,00,
40476318,0000045C,false,Rx,1,8,BC,8B,15,2E,00,00,D3,87,
40575601,0000042C,false,Rx,1,8,42,C4,BE,5D,FE,00,00,00,
40575843,0000043C,false,Rx,1,8,42,C4,BE,5D,FE,00,00,00,
40576083,0000044C,false,Rx,1,8,42,C4,BE,5D,FE,00,00,00,
40576315,0000045C,false,Rx,1,8,C0,8B,15,2E,00,00,C8,87,
40675600,0000042C,false,Rx,1,8,42,C4,BE,5D,FE,00,00,00,
40675844,0000043C,false,Rx,1,8,42,C4,BE,5D,FE,00,00,00,
40676083,0000044C,false,Rx,1,8,42,C4,BE,5D,FE,00,00,00,
40676316,0000045C,false,Rx,1,8,C3,8B,15,2E,00,00,E1,87,
40775619,0000042C,false,Rx,1,8,42,C4,BE,5D,FE,00,00,00,
40775861,0000043C,false,Rx,1,8,42,C4,BE,5D,FE,00,00,00,
40776100,0000044C,false,Rx,1,8,42,C4,BE,5D,FE,00,00,00,
40776327,0000045C,false,Rx,1,8,C4,8B,15,2E,00,00,DE,87,
40875613,0000042C,false,Rx,1,8,42,C4,BE,5D,FE,00,00,00,
40875855,0000043C,false,Rx,1,8,42,C4,BE,5D,FE,00,00,00,
40876096,0000044C,false,Rx,1,8,42,C4,BE,5D,FE,00,00,00,
40876328,0000045C,false,Rx,1,8,C3,8B,15,2E,00,00,D3,87,
40975585,0000042C,false,Rx,1,8,42,C4,BE,5D,FE,00,00,00,
40975826,0000043C,false,Rx,1,8,42,C4,BE,5D,FE,00,00,00,
40976067,0000044C,false,Rx,1,8,42,C4,BE,5D,FE,00,00,00,
40976300,0000045C,false,Rx,1,8,C1,8B,15,2E,00,00,DC,87,
41075582,0000042C,false,Rx,1,8,42,C4,BE,5D,FE,00,00,00,
41075824,0000043C,false,Rx,1,8,42,C4,BE,5D,FE,00,00,00,
41076064,0000044C,false,Rx,1,8,42,C4,BE,5D,FE,00,00,00,
41076297,0000045C,false,Rx,1,8,C2,8B,15,2E,00,00,D2,87,
41176089,0000042C,false,Rx,1,8,42,C4,BE,5D,FE,00,00,00,
41176329,0000043C,false,Rx,1,8,42,C4,BE,5D,FE,00,00,00,
41177292,0000044C,false,Rx,1,8,42,C4,BE,5D,FE,00,00,00,
41177517,0000045C,false,Rx,1,8,C3,8B,15,2E,00,00,D2,87,
41275603,0000042C,false,Rx,1,8,42,C4,BE,5D,FE,00,00,00,
41275845,0000043C,false,Rx,1,8,42,C4,BE,5D,FE,00,00,00,
41276084,0000044C,false,Rx,1,8,42,C4,BE,5D,FE,00,00,00,
41276326,0000045C,false,Rx,1,8,C1,8B,15,2E,00,00,E0,87,
41375822,0000042C,false,Rx,1,8,42,C4,BE,5D,FE,00,00,00,
41376063,0000043C,false,Rx,1,8,42,C4,BE,5D,FE,00,00,00,
41376303,0000044C,false,Rx,1,8,42,C4,BE,5D,FE,00,00,00,
41377010,0000045C,false,Rx,1,8,C1,8B,15,2E,00,00,D5,87,
41475581,0000042C,false,Rx,1,8,42,C4,BE,5D,FE,00,00,00,
41475821,0000043C,false,Rx,1,8,42,C4,BE,5D,FE,00,00,00,
41476062,0000044C,false,Rx,1,8,42,C4,BE,5D,FE,00,00,00,
41476295,0000045C,false,Rx,1,8,C0,8B,15,2E,00,00,D6,87,
41575576,0000042C,false,Rx,1,8,42,C4,BE,5D,FE,00,00,00,
41575818,0000043C,false,Rx,1,8,42,C4,BE,5D,FE,00,00,00,
41576058,0000044C,false,Rx,1,8,42,C4,BE,5D,FE,00,00,00,
41576291,0000045C,false,Rx,1,8,C5,8B,15,2E,00,00,D6,87,
41675573,0000042C,false,Rx,1,8,42,C4,63,5D,FE,00,00,00,
41675814,0000043C,false,Rx,1,8,42,C4,63,5D,FE,00,00,00,
41676054,0000044C,false,Rx,1,8,42,C4,63,5D,FE,00,00,00,
41676279,0000045C,false,Rx,1,8,C4,8B,15,2E,00,00,E3,87,
41775592,0000042C,false,Rx,1,8,42,C4,ED,5C,FE,00,00,00,
41775826,0000043C,false,Rx,1,8,42,C4,ED,5C,FE,00,00,00,
41776066,0000044C,false,Rx,1,8,42,C4,ED,5C,FE,00,00,00,
41776300,0000045C,false,Rx,1,8,C3,8B,15,2E,00,00,E3,87,
41875575,0000042C,false,Rx,1,8,42,C4,ED,5C,FE,00,00,00,
41875816,0000043C,false,Rx,1,8,42,C4,ED,5C,FE,00,00,00,
41876050,0000044C,false,Rx,1,8,42,C4,ED,5C,FE,00,00,00,
41876290,0000045C,false,Rx,1,8,C4,8B,15,2E,00,00,E2,87,
41975573,0000042C,false,Rx,1,8,42,C4,63,5D,FE,00,00,00,
41975814,0000043C,false,Rx,1,8,42,C4,63,5D,FE,00,00,00,
41976048,0000044C,false,Rx,1,8,42,C4,63,5D,FE,00,00,00,
41976280,0000045C,false,Rx,1,8,C7,8B,15,2E,00,00,E0,87,
42075561,0000042C,false,Rx,1,8,42,C4,ED,5C,FE,00,00,00,
42075803,0000043C,false,Rx,1,8,42,C4,ED,5C,FE,00,00,00,
42076036,0000044C,false,Rx,1,8,42,C4,ED,5C,FE,00,00,00,
42076268,0000045C,false,Rx,1,8,C8,8B,15,2E,00,00,D4,87,
42176075,0000042C,false,Rx,1,8,42,C4,FE,5C,FE,00,00,00,
42176316,0000043C,false,Rx,1,8,42,C4,FE,5C,FE,00,00,00,
42177279,0000044C,false,Rx,1,8,42,C4,FE,5C,FE,00,00,00,
42177504,0000045C,false,Rx,1,8,CB,8B,15,2E,00,00,E1,87,
42275587,0000042C,false,Rx,1,8,42,C4,63,5D,FE,00,00,00,
42275821,0000043C,false,Rx,1,8,42,C4,63,5D,FE,00,00,00,
42276061,0000044C,false,Rx,1,8,42,C4,63,5D,FE,00,00,00,
42276287,0000045C,false,Rx,1,8,C8,8B,15,2E,00,00,EE,87,
42375804,0000042C,false,Rx,1,8,42,C4,ED,5C,FE,00,00,00,
42376039,0000043C,false,Rx,1,8,42,C4,ED,5C,FE,00,00,00,
42376279,0000044C,false,Rx,1,8,42,C4,ED,5C,FE,00,00,00,
42377226,0000045C,false,Rx,1,8,CA,8B,15,2E,00,00,F9,87,
42475565,0000042C,false,Rx,1,8,42,C4,63,5D,FE,00,00,00,
42475806,0000043C,false,Rx,1,8,42,C4,63,5D,FE,00,00,00,
42476039,0000044C,false,Rx,1,8,42,C4,63,5D,FE,00,00,00,
42476272,0000045C,false,Rx,1,8,D4,8B,15,2E,00,00,ED,87,
42575553,0000042C,false,Rx,1,8,42,C4,BD,5C,FE,00,00,00,
42575794,0000043C,false,Rx,1,8,42,C4,BD,5C,FE,00,00,00,
42576028,0000044C,false,Rx,1,8,42,C4,BD,5C,FE,00,00,00,
42576267,0000045C,false,Rx,1,8,D5,8B,15,2E,00,00,EE,87,
42675566,0000042C,false,Rx,1,8,42,C4,ED,5C,FE,00,00,00,
42675798,0000043C,false,Rx,1,8,42,C4,ED,5C,FE,00,00,00,
42676040,0000044C,false,Rx,1,8,42,C4,ED,5C,FE,00,00,00,
42676274,0000045C,false,Rx,1,8,D7,8B,15,2E,00,00,E0,87,
42775570,0000042C,false,Rx,1,8,42,C4,52,5D,FE,00,00,00,
42775811,0000043C,false,Rx,1,8,42,C4,52,5D,FE,00,00,00,
42776043,0000044C,false,Rx,1,8,42,C4,52,5D,FE,00,00,00,
42776269,0000045C,false,Rx,1,8,D9,8B,15,2E,00,00,F0,87,
42875552,0000042C,false,Rx,1,8,42,C4,BD,5C,FE,00,00,00,
42875792,0000043C,false,Rx,1,8,42,C4,BD,5C,FE,00,00,00,
42876027,0000044C,false,Rx,1,8,42,C4,BD,5C,FE,00,00,00,
42876267,0000045C,false,Rx,1,8,D6,8B,15,2E,00,00,06,88,
42975558,0000042C,false,Rx,1,8,42,C4,ED,5C,FE,00,00,00,
42975792,0000043C,false,Rx,1,8,42,C4,ED,5C,FE,00,00,00,
42976032,0000044C,false,Rx,1,8,42,C4,ED,5C,FE,00,00,00,
42976265,0000045C,false,Rx,1,8,DD,8B,15,2E,00,00,F1,87,
43075548,0000042C,false,Rx,1,8,42,C4,ED,5C,FE,00,00,00,
43075781,0000043C,false,Rx,1,8,42,C4,ED,5C,FE,00,00,00,
43076022,0000044C,false,Rx,1,8,42,C4,ED,5C,FE,00,00,00,
43076255,0000045C,false,Rx,1,8,DF,8B,15,2E,00,00,E4,87,
43176069,0000042C,false,Rx,1,8,42,C4,BD,5C,FE,00,00,00,
43176303,0000043C,false,Rx,1,8,42,C4,BD,5C,FE,00,00,00,
43177265,0000044C,false,Rx,1,8,42,C4,BD,5C,FE,00,00,00,
43177497,0000045C,false,Rx,1,8,E0,8B,15,2E,00,00,FE,87,
43275560,0000042C,false,Rx,1,8,42,C4,ED,5C,FE,00,00,00,
43275800,0000043C,false,Rx,1,8,42,C4,ED,5C,FE,00,00,00,
43276041,0000044C,false,Rx,1,8,42,C4,ED,5C,FE,00,00,00,
43276274,0000045C,false,Rx,1,8,E7,8B,15,2E,00,00,09,88,
43375783,0000042C,false,Rx,1,8,42,C4,BD,5C,FE,00,00,00,
43376025,0000043C,false,Rx,1,8,42,C4,BD,5C,FE,00,00,00,
43376257,0000044C,false,Rx,1,8,42,C4,BD,5C,FE,00,00,00,
43376973,0000045C,false,Rx,1,8,E5,8B,15,2E,00,00,EE,87,
43475536,0000042C,false,Rx,1,8,42,C4,21,5D,FE,00,00,00,
43475769,0000043C,false,Rx,1,8,42,C4,21,5D,FE,00,00,00,
43476010,0000044C,false,Rx,1,8,42,C4,21,5D,FE,00,00,00,
43476243,0000045C,false,Rx,1,8,E9,8B,15,2E,00,00,F9,87,
43575534,0000042C,false,Rx,1,8,42,C4,21,5D,FE,00,00,00,
43575768,0000043C,false,Rx,1,8,42,C4,21,5D,FE,00,00,00,
43576001,0000044C,false,Rx,1,8,42,C4,21,5D,FE,00,00,00,
43576241,0000045C,false,Rx,1,8,E9,8B,15,2E,00,00,FB,87,
43675778,0000042C,false,Rx,1,8,42,C4,13,5D,FE,00,00,00,
43676018,0000043C,false,Rx,1,8,42,C4,13,5D,FE,00,00,00,
43676267,0000044C,false,Rx,1,8,42,C4,13,5D,FE,00,00,00,
43677221,0000045C,false,Rx,1,8,EF,8B,15,2E,00,00,FB,87,
43775547,0000042C,false,Rx,1,8,42,C4,13,5D,FE,00,00,00,
43775788,0000043C,false,Rx,1,8,42,C4,13,5D,FE,00,00,00,
43776030,0000044C,false,Rx,1,8,42,C4,13,5D,FE,00,00,00,
43776517,0000045C,false,Rx,1,8,F5,8B,15,2E,00,00,0A,88,
43875533,0000042C,false,Rx,1,8,42,C4,AE,5C,FE,00,00,00,
43875765,0000043C,false,Rx,1,8,42,C4,AE,5C,FE,00,00,00,
43876007,0000044C,false,Rx,1,8,42,C4,AE,5C,FE,00,00,00,
43876240,0000045C,false,Rx,1,8,F2,8B,15,2E,00,00,15,88,
43975535,0000042C,false,Rx,1,8,42,C4,21,5D,FE,00,00,00,
43975769,0000043C,false,Rx,1,8,42,C4,21,5D,FE,00,00,00,
43976003,0000044C,false,Rx,1,8,42,C4,21,5D,FE,00,00,00,
43976242,0000045C,false,Rx,1,8,F8,8B,15,2E,00,00,15,88,
44075528,0000042C,false,Rx,1,8,42,C4,13,5D,FE,00,00,00,
44075769,0000043C,false,Rx,1,8,42,C4,13,5D,FE,00,00,00,
44076010,0000044C,false,Rx,1,8,42,C4,13,5D,FE,00,00,00,
44076242,0000045C,false,Rx,1,8,F5,8B,15,2E,00,00,20,88,
44176050,0000042C,false,Rx,1,8,42,C4,AE,5C,FE,00,00,00,
44176283,0000043C,false,Rx,1,8,42,C4,AE,5C,FE,00,00,00,
44177245,0000044C,false,Rx,1,8,42,C4,AE,5C,FE,00,00,00,
44177478,0000045C,false,Rx,1,8,01,8C,15,2E,00,00,21,88,
44275523,0000042C,false,Rx,1,8,42,C4,83,5D,FE,00,00,00,
44275763,0000043C,false,Rx,1,8,42,C4,83,5D,FE,00,00,00,
44276005,0000044C,false,Rx,1,8,42,C4,83,5D,FE,00,00,00,
44276237,0000045C,false,Rx,1,8,00,8C,15,2E,00,00,23,88,
44375870,0000042C,false,Rx,1,8,42,C4,BE,5D,FE,00,00,00,
44376117,0000043C,false,Rx,1,8,42,C4,BE,5D,FE,00,00,00,
44376832,0000044C,false,Rx,1,8,42,C4,BE,5D,FE,00,00,00,
44377312,0000045C,false,Rx,1,8,FF,8B,15,2E,00,00,23,88,
44475517,0000042C,false,Rx,1,8,42,C4,BE,5D,FE,00,00,00,
44475759,0000043C,false,Rx,1,8,42,C4,BE,5D,FE,00,00,00,
44476000,0000044C,false,Rx,1,8,42,C4,BE,5D,FE,00,00,00,
44476714,0000045C,false,Rx,1,8,05,8C,15,2E,00,00,1F,88,
44575514,0000042C,false,Rx,1,8,42,C4,BE,5D,FE,00,00,00,
44575755,0000043C,false,Rx,1,8,42,C4,BE,5D,FE,00,00,00,
44575996,0000044C,false,Rx,1,8,42,C4,BE,5D,FE,00,00,00,
44576958,0000045C,false,Rx,1,8,0A,8C,15,2E,00,00,2E,88,
44675533,0000042C,false,Rx,1,8,42,C4,BE,5D,FE,00,00,00,
44675773,0000043C,false,Rx,1,8,42,C4,BE,5D,FE,00,00,00,
44676014,0000044C,false,Rx,1,8,42,C4,BE,5D,FE,00,00,00,
44676977,0000045C,false,Rx,1,8,06,8C,15,2E,00,00,2F,88,
44775533,0000042C,false,Rx,1,8,42,C4,BE,5D,FE,00,00,00,
44775773,0000043C,false,Rx,1,8,42,C4,BE,5D,FE,00,00,00,
44776017,0000044C,false,Rx,1,8,42,C4,BE,5D,FE,00,00,00,
44776986,0000045C,false,Rx,1,8,0B,8C,15,2E,00,00,2E,88,
44875514,0000042C,false,Rx,1,8,42,C4,BE,5D,FE,00,00,00,
44875754,0000043C,false,Rx,1,8,42,C4,BE,5D,FE,00,00,00,
44875997,0000044C,false,Rx,1,8,42,C4,BE,5D,FE,00,00,00,
44876229,0000045C,false,Rx,1,8,0F,8C,15,2E,00,00,2C,88,
44975512,0000042C,false,Rx,1,8,42,C4,BE,5D,FE,00,00,00,
44975753,0000043C,false,Rx,1,8,42,C4,BE,5D,FE,00,00,00,
44975994,0000044C,false,Rx,1,8,42,C4,BE,5D,FE,00,00,00,
44976234,0000045C,false,Rx,1,8,0E,8C,15,2E,00,00,2E,88,
45075507,0000042C,false,Rx,1,8,42,C4,BE,5D,FE,00,00,00,
45075747,0000043C,false,Rx,1,8,42,C4,BE,5D,FE,00,00,00,
45075988,0000044C,false,Rx,1,8,42,C4,BE,5D,FE,00,00,00,
45076228,0000045C,false,Rx,1,8,0F,8C,15,2E,00,00,2E,88,
45176033,0000042C,false,Rx,1,8,42,C4,BE,5D,FE,00,00,00,
45176274,0000043C,false,Rx,1,8,42,C4,BE,5D,FE,00,00,00,
45177229,0000044C,false,Rx,1,8,42,C4,BE,5D,FE,00,00,00,
45177469,0000045C,false,Rx,1,8,12,8C,15,2E,00,00,2E,88,
45275508,0000042C,false,Rx,1,8,42,C4,BE,5D,FE,00,00,00,
45275748,0000043C,false,Rx,1,8,42,C4,BE,5D,FE,00,00,00,
45275990,0000044C,false,Rx,1,8,42,C4,BE,5D,FE,00,00,00,
45276222,0000045C,false,Rx,1,8,1A,8C,15,2E,00,00,2C,88,
45375267,0000042C,false,Rx,1,8,42,C4,BE,5D,FE,00,00,00,
45375507,0000043C,false,Rx,1,8,42,C4,BE,5D,FE,00,00,00,
45375746,0000044C,false,Rx,1,8,42,C4,BE,5D,FE,00,00,00,
45375981,0000045C,false,Rx,1,8,1C,8C,15,2E,00,00,38,88,
45475498,0000042C,false,Rx,1,8,42,C4,BE,5D,FE,00,00,00,
45475739,0000043C,false,Rx,1,8,42,C4,BE,5D,FE,00,00,00,
45475980,0000044C,false,Rx,1,8,42,C4,BE,5D,FE,00,00,00,
45476694,0000045C,false,Rx,1,8,1B,8C,15,2E,00,00,3C,88,
45575503,0000042C,false,Rx,1,8,42,C4,BE,5D,FE,00,00,00,
45575743,0000043C,false,Rx,1,8,42,C4,BE,5D,FE,00,00,00,
45575984,0000044C,false,Rx,1,8,42,C4,BE,5D,FE,00,00,00,
45576705,0000045C,false,Rx,1,8,1E,8C,15,2E,00,00,2C,88,
45675743,0000042C,false,Rx,1,8,42,C4,BE,5D,FE,00,00,00,
45675992,0000043C,false,Rx,1,8,42,C4,BE,5D,FE,00,00,00,
45676954,0000044C,false,Rx,1,8,42,C4,BE,5D,FE,00,00,00,
45677194,0000045C,false,Rx,1,8,1F,8C,15,2E,00,00,38,88,
45775268,0000042C,false,Rx,1,8,42,C4,BE,5D,FE,00,00,00,
45775508,0000043C,false,Rx,1,8,42,C4,BE,5D,FE,00,00,00,
45775748,0000044C,false,Rx,1,8,42,C4,BE,5D,FE,00,00,00,
45775983,0000045C,false,Rx,1,8,1D,8C,15,2E,00,00,2B,88,
45875732,0000042C,false,Rx,1,8,42,C4,BE,5D,FE,00,00,00,
