Time Stamp,ID,Extended,Dir,Bus,LEN,D1,D2,D3,D4,D5,D6,D7,D8
74095789,00000207,false,Rx,1,8,00,00,C0,FF,F0,00,14,00,
74096034,00000227,false,Rx,1,8,00,00,20,83,00,00,1F,C5,
74111148,0000042C,false,Rx,1,8,42,60,00,00,64,00,00,00,
74195940,00000207,false,Rx,1,8,00,00,C0,FF,F0,00,14,00,
74196428,00000227,false,Rx,1,8,00,00,18,83,00,00,1F,C5,
74211149,0000042C,false,Rx,1,8,42,60,00,00,64,00,00,00,
74295758,00000207,false,Rx,1,8,00,00,C0,FF,F0,00,14,00,
74295995,00000227,false,Rx,1,8,00,00,1E,83,00,00,1F,C5,
74311373,0000042C,false,Rx,1,8,42,60,00,00,64,00,00,00,
74395692,00000207,false,Rx,1,8,00,00,C0,FF,F0,00,14,00,
74395929,00000227,false,Rx,1,8,00,00,1B,83,00,00,1F,C5,
74411147,0000042C,false,Rx,1,8,42,60,00,00,64,00,00,00,
74495681,00000207,false,Rx,1,8,00,00,C0,FF,F0,00,14,00,
74495918,00000227,false,Rx,1,8,00,00,26,83,00,00,1F,C5,
74511163,0000042C,false,Rx,1,8,42,60,00,00,64,00,00,00,
74595649,00000207,false,Rx,1,8,00,00,C0,FF,F0,00,14,00,
74595887,00000227,false,Rx,1,8,00,00,18,83,00,00,1F,C5,
74611220,0000042C,false,Rx,1,8,42,60,00,00,64,00,00,00,
74695621,00000207,false,Rx,1,8,00,00,C0,FF,F0,00,14,00,
74695865,00000227,false,Rx,1,8,00,00,1B,83,00,00,1F,C5,
74711171,0000042C,false,Rx,1,8,42,60,00,00,64,00,00,00,
74795630,00000207,false,Rx,1,8,00,00,C0,FF,F0,00,14,00,
74795875,00000227,false,Rx,1,8,00,00,1C,83,00,00,1F,C5,
74811164,0000042C,false,Rx,1,8,42,60,00,00,64,00,00,00,
74895642,00000207,false,Rx,1,8,00,00,00,00,F0,00,14,00,
74895880,00000227,false,Rx,1,8,00,00,1C,83,00,00,1F,C5,
74910951,0000042C,false,Rx,1,8,42,60,00,00,64,00,00,00,
74995633,00000207,false,Rx,1,8,00,00,00,00,F0,00,14,00,
74995872,00000227,false,Rx,1,8,00,00,1D,83,00,00,1F,C5,
75010924,0000042C,false,Rx,1,8,42,60,00,00,64,00,00,00,
75095625,00000207,false,Rx,1,8,00,00,00,00,F0,00,14,00,
75095862,00000227,false,Rx,1,8,00,00,20,83,00,00,1F,C5,
75110931,0000042C,false,Rx,1,8,42,60,00,00,64,00,00,00,
75195847,00000207,false,Rx,1,8,00,00,00,00,F0,00,14,00,
75196330,00000227,false,Rx,1,8,00,00,1E,83,00,00,1F,C5,
75210953,0000042C,false,Rx,1,8,42,60,00,00,64,00,00,00,
75295597,00000207,false,Rx,1,8,00,00,00,00,F0,00,14,00,
75295842,00000227,false,Rx,1,8,00,00,1F,83,00,00,1F,C5,
75311338,0000042C,false,Rx,1,8,42,60,00,00,64,00,00,00,
75395605,00000207,false,Rx,1,8,00,00,00,00,F0,00,14,00,
75395843,00000227,false,Rx,1,8,00,00,1C,83,00,00,1F,C5,
75410927,0000042C,false,Rx,1,8,42,60,00,00,64,00,00,00,
75495609,00000207,false,Rx,1,8,00,00,00,00,F0,00,14,00,
75495846,00000227,false,Rx,1,8,00,00,1E,83,00,00,1F,C5,
75510948,0000042C,false,Rx,1,8,42,60,00,00,64,00,00,00,
75595340,00000207,false,Rx,1,8,00,00,00,00,F0,00,14,00,
75595584,00000227,false,Rx,1,8,00,00,1F,83,00,00,1F,C5,
75610938,0000042C,false,Rx,1,8,42,60,00,00,64,00,00,00,
75695284,00000207,false,Rx,1,8,00,00,C0,FF,F0,00,14,00,
75695527,00000227,false,Rx,1,8,00,00,20,83,00,00,1F,C5,
75710943,0000042C,false,Rx,1,8,42,60,00,00,64,00,00,00,
75795274,00000207,false,Rx,1,8,00,00,00,00,F0,00,14,00,
75795517,00000227,false,Rx,1,8,00,00,20,83,00,00,1F,C5,
75810878,0000042C,false,Rx,1,8,42,60,00,00,64,00,00,00,
75895255,00000207,false,Rx,1,8,00,00,C0,FF,F0,00,14,00,
75895489,00000227,false,Rx,1,8,00,00,1C,83,00,00,1F,C5,
75910878,0000042C,false,Rx,1,8,42,60,00,00,64,00,00,00,
75995208,00000207,false,Rx,1,8,00,00,00,00,F0,00,14,00,
75995450,00000227,false,Rx,1,8,00,00,1F,83,00,00,1F,C5,
76010880,0000042C,false,Rx,1,8,42,60,00,00,64,00,00,00,
76095180,00000207,false,Rx,1,8,00,00,C0,FF,F0,00,14,00,
76095424,00000227,false,Rx,1,8,00,00,1A,83,00,00,1F,C5,
76110896,0000042C,false,Rx,1,8,42,60,00,00,64,00,00,00,
76195286,00000207,false,Rx,1,8,00,00,C0,FF,F0,00,14,00,
76195777,00000227,false,Rx,1,8,00,00,22,83,00,00,1F,C5,
76210895,0000042C,false,Rx,1,8,42,60,00,00,64,00,00,00,
76295117,00000207,false,Rx,1,8,00,00,00,00,F0,00,14,00,
76295353,00000227,false,Rx,1,8,00,00,1C,83,00,00,1F,C5,
76311189,0000042C,false,Rx,1,8,42,60,00,00,64,00,00,00,
76395104,00000207,false,Rx,1,8,00,00,00,00,F0,00,14,00,
76395341,00000227,false,Rx,1,8,00,00,1C,83,00,00,1F,C5,
76410893,0000042C,false,Rx,1,8,42,60,00,00,64,00,00,00,
76495036,00000207,false,Rx,1,8,00,00,C0,FF,F0,00,14,00,
76495502,00000227,false,Rx,1,8,00,00,19,83,00,00,1F,C5,
76510899,0000042C,false,Rx,1,8,42,60,00,00,64,00,00,00,
76595021,00000207,false,Rx,1,8,00,00,00,00,F0,00,14,00,
76595264,00000227,false,Rx,1,8,00,00,17,83,00,00,1F,C5,
76610876,0000042C,false,Rx,1,8,42,60,00,00,64,00,00,00,
76694968,00000207,false,Rx,1,8,00,00,00,00,F0,00,14,00,
76695213,00000227,false,Rx,1,8,00,00,17,83,00,00,1F,C5,
76710889,0000042C,false,Rx,1,8,42,60,00,00,64,00,00,00,
76794961,00000207,false,Rx,1,8,00,00,C0,FF,F0,00,14,00,
76795206,00000227,false,Rx,1,8,00,00,15,83,00,00,1F,C5,
76810900,0000042C,false,Rx,1,8,42,60,00,00,64,00,00,00,
76894926,00000207,false,Rx,1,8,00,00,C0,FF,F0,00,14,00,
76895170,00000227,false,Rx,1,8,00,00,1A,83,00,00,1F,C5,
76910884,0000042C,false,Rx,1,8,42,60,00,00,64,00,00,00,
76994890,00000207,false,Rx,1,8,00,00,C0,FF,F0,00,14,00,
76995126,00000227,false,Rx,1,8,00,00,16,83,00,00,1F,C5,
77010886,0000042C,false,Rx,1,8,42,60,00,00,64,00,00,00,
77094855,00000207,false,Rx,1,8,00,00,C0,FF,F0,00,14,00,
77095098,00000227,false,Rx,1,8,00,00,1E,83,00,00,1F,C5,
77110885,0000042C,false,Rx,1,8,42,60,00,00,64,00,00,00,
77194979,00000207,false,Rx,1,8,00,00,00,00,F0,00,14,00,
77195474,00000227,false,Rx,1,8,00,00,14,83,00,00,1F,C5,
77210887,0000042C,false,Rx,1,8,42,60,00,00,64,00,00,00,
77294801,00000207,false,Rx,1,8,00,00,C0,FF,F0,00,14,00,
77295045,00000227,false,Rx,1,8,00,00,19,83,00,00,1F,C5,
77310860,0000042C,false,Rx,1,8,42,60,00,00,64,00,00,00,
77394769,00000207,false,Rx,1,8,00,00,C0,FF,F0,00,14,00,
77395006,00000227,false,Rx,1,8,00,00,12,83,00,00,1F,C5,
77410855,0000042C,false,Rx,1,8,42,60,00,00,64,00,00,00,
77494715,00000207,false,Rx,1,8,00,00,C0,FF,F0,00,14,00,
77494959,00000227,false,Rx,1,8,00,00,1B,83,00,00,1F,C5,
77510978,0000042C,false,Rx,1,8,42,60,00,00,64,00,00,00,
77594710,00000207,false,Rx,1,8,00,00,C0,FF,F0,00,14,00,
77594946,00000227,false,Rx,1,8,00,00,18,83,00,00,1F,C5,
77611049,0000042C,false,Rx,1,8,42,60,00,00,64,00,00,00,
77694678,00000207,false,Rx,1,8,00,00,00,00,F0,00,14,00,
77694945,00000227,false,Rx,1,8,00,00,1B,83,00,00,1F,C5,
77710849,0000042C,false,Rx,1,8,42,60,00,00,64,00,00,00,
77794625,00000207,false,Rx,1,8,00,00,C0,FF,F0,00,14,00,
77794870,00000227,false,Rx,1,8,00,00,19,83,00,00,1F,C5,
77810852,0000042C,false,Rx,1,8,42,60,00,00,64,00,00,00,
77894608,00000207,false,Rx,1,8,00,00,C0,FF,F0,00,14,00,
77894848,00000227,false,Rx,1,8,00,00,1C,83,00,00,1F,C5,
77910881,0000042C,false,Rx,1,8,42,60,00,00,64,00,00,00,
77994564,00000207,false,Rx,1,8,00,00,00,00,F0,00,14,00,
77994810,00000227,false,Rx,1,8,00,00,14,83,00,00,1F,C5,
78010848,0000042C,false,Rx,1,8,42,60,00,00,64,00,00,00,
78094551,00000207,false,Rx,1,8,00,00,00,00,F0,00,14,00,
78094796,00000227,false,Rx,1,8,00,00,16,83,00,00,1F,C5,
78110844,0000042C,false,Rx,1,8,42,60,00,00,64,00,00,00,
78194663,00000207,false,Rx,1,8,00,00,C0,FF,F0,00,14,00,
78195182,00000227,false,Rx,1,8,00,00,19,83,00,00,1F,C5,
78210839,0000042C,false,Rx,1,8,42,60,00,00,64,00,00,00,
78294470,00000207,false,Rx,1,8,00,00,00,00,F0,00,14,00,
78294706,00000227,false,Rx,1,8,00,00,19,83,00,00,1F,C5,
78310839,0000042C,false,Rx,1,8,42,60,00,00,64,00,00,00,
78394464,00000207,false,Rx,1,8,00,00,00,00,F0,00,14,00,
78394709,00000227,false,Rx,1,8,00,00,1B,83,00,00,1F,C5,
78411018,0000042C,false,Rx,1,8,42,60,00,00,64,00,00,00,
78494403,00000207,false,Rx,1,8,00,00,C0,FF,F0,00,14,00,
78494648,00000227,false,Rx,1,8,00,00,1A,83,00,00,1F,C5,
78510836,0000042C,false,Rx,1,8,42,60,00,00,64,00,00,00,
78594392,00000207,false,Rx,1,8,00,00,00,00,F0,00,14,00,
78594637,00000227,false,Rx,1,8,00,00,20,83,00,00,1F,C5,
78610836,0000042C,false,Rx,1,8,42,60,00,00,64,00,00,00,
78694375,00000207,false,Rx,1,8,00,00,00,00,F0,00,14,00,
78694618,00000227,false,Rx,1,8,00,00,1F,83,00,00,1F,C5,
78710831,0000042C,false,Rx,1,8,42,60,00,00,64,00,00,00,
78794324,00000207,false,Rx,1,8,00,00,00,00,F0,00,14,00,
78794560,00000227,false,Rx,1,8,00,00,25,83,00,00,1F,C5,
78810929,0000042C,false,Rx,1,8,42,60,00,00,64,00,00,00,
78894297,00000207,false,Rx,1,8,00,00,00,00,F0,00,14,00,
78894540,00000227,false,Rx,1,8,00,00,1B,83,00,00,1F,C5,
78910948,0000042C,false,Rx,1,8,42,60,00,00,64,00,00,00,
78994242,00000207,false,Rx,1,8,00,00,C0,FF,F0,00,14,00,
78994486,00000227,false,Rx,1,8,00,00,1E,83,00,00,1F,C5,
79010953,0000042C,false,Rx,1,8,42,60,00,00,64,00,00,00,
79094227,00000207,false,Rx,1,8,00,00,00,00,F0,00,14,00,
79094472,00000227,false,Rx,1,8,00,00,22,83,00,00,1F,C5,
79110989,0000042C,false,Rx,1,8,42,60,00,00,64,00,00,00,
79194350,00000207,false,Rx,1,8,00,00,C0,FF,F0,00,14,00,
79194839,00000227,false,Rx,1,8,00,00,1E,83,00,00,1F,C5,
79210999,0000042C,false,Rx,1,8,42,60,00,00,64,00,00,00,
79294156,00000207,false,Rx,1,8,00,00,00,00,F0,00,14,00,
79294400,00000227,false,Rx,1,8,00,00,25,83,00,00,1F,C5,
79311000,0000042C,false,Rx,1,8,42,60,00,00,64,00,00,00,
79394151,00000207,false,Rx,1,8,00,00,00,00,F0,00,14,00,
79394394,00000227,false,Rx,1,8,00,00,20,83,00,00,1F,C5,
79411099,0000042C,false,Rx,1,8,42,60,00,00,64,00,00,00,
79494117,00000207,false,Rx,1,8,00,00,C0,FF,F0,00,14,00,
79494353,00000227,false,Rx,1,8,00,00,21,83,00,00,1F,C5,
79510819,0000042C,false,Rx,1,8,42,60,00,00,64,00,00,00,
79594059,00000207,false,Rx,1,8,00,00,C0,FF,F0,00,14,00,
79594303,00000227,false,Rx,1,8,00,00,1D,83,00,00,1F,C5,
79610819,0000042C,false,Rx,1,8,42,60,00,00,64,00,00,00,
79694049,00000207,false,Rx,1,8,00,00,00,00,F0,00,14,00,
79694293,00000227,false,Rx,1,8,00,00,1C,83,00,00,1F,C5,
79711249,0000042C,false,Rx,1,8,42,60,00,00,64,00,00,00,
79794011,00000207,false,Rx,1,8,00,00,C0,FF,F0,00,14,00,
79794247,00000227,false,Rx,1,8,00,00,1B,83,00,00,1F,C5,
79811044,0000042C,false,Rx,1,8,42,60,00,00,64,00,00,00,
79893988,00000207,false,Rx,1,8,00,00,C0,FF,F0,00,14,00,
79894224,00000227,false,Rx,1,8,00,00,21,83,00,00,1F,C5,
79911014,0000042C,false,Rx,1,8,42,60,00,00,64,00,00,00,
79993963,00000207,false,Rx,1,8,00,00,00,00,F0,00,14,00,
79994198,00000227,false,Rx,1,8,00,00,23,83,00,00,1F,C5,
80011015,0000042C,false,Rx,1,8,42,60,00,00,64,00,00,00,
80093910,00000207,false,Rx,1,8,00,00,C0,FF,F0,00,14,00,
80094153,00000227,false,Rx,1,8,00,00,20,83,00,00,1F,C5,
80110995,0000042C,false,Rx,1,8,42,60,00,00,64,00,00,00,
80194040,00000207,false,Rx,1,8,00,00,00,00,F0,00,14,00,
80194536,00000227,false,Rx,1,8,00,00,22,83,00,00,1F,C5,
80211010,0000042C,false,Rx,1,8,42,60,00,00,64,00,00,00,
80293851,00000207,false,Rx,1,8,00,00,00,00,F0,00,14,00,
80294095,00000227,false,Rx,1,8,00,00,1D,83,00,00,1F,C5,
80311215,0000042C,false,Rx,1,8,42,60,00,00,64,00,00,00,
80393833,00000207,false,Rx,1,8,00,00,00,00,F0,00,14,00,
80394076,00000227,false,Rx,1,8,00,00,1B,83,00,00,1F,C5,
80410804,0000042C,false,Rx,1,8,42,60,00,00,64,00,00,00,
80493799,00000207,false,Rx,1,8,00,00,00,00,F0,00,14,00,
80494035,00000227,false,Rx,1,8,00,00,19,83,00,00,1F,C5,
80510804,0000042C,false,Rx,1,8,42,60,00,00,64,00,00,00,
80593739,00000207,false,Rx,1,8,00,00,C0,FF,F0,00,14,00,
80593982,00000227,false,Rx,1,8,00,00,19,83,00,00,1F,C5,
80610944,0000042C,false,Rx,1,8,42,60,00,00,64,00,00,00,
80693751,00000207,false,Rx,1,8,00,00,C0,FF,F0,00,14,00,
80693987,00000227,false,Rx,1,8,00,00,12,83,00,00,1F,C5,
80711202,0000042C,false,Rx,1,8,42,60,00,00,64,00,00,00,
80793682,00000207,false,Rx,1,8,00,00,C0,FF,F0,00,14,00,
80793926,00000227,false,Rx,1,8,00,00,20,83,00,00,1F,C5,
80810979,0000042C,false,Rx,1,8,42,60,00,00,64,00,00,00,
80893660,00000207,false,Rx,1,8,00,00,00,00,F0,00,14,00,
80893902,00000227,false,Rx,1,8,00,00,21,83,00,00,1F,C5,
80910971,0000042C,false,Rx,1,8,42,60,00,00,64,00,00,00,
80993636,00000207,false,Rx,1,8,00,00,00,00,F0,00,14,00,
80993892,00000227,false,Rx,1,8,00,00,1F,83,00,00,1F,C5,
81010992,0000042C,false,Rx,1,8,42,60,00,00,64,00,00,00,
81093600,00000207,false,Rx,1,8,00,00,C0,FF,F0,00,14,00,
81093840,00000227,false,Rx,1,8,00,00,21,83,00,00,1F,C5,
81110998,0000042C,false,Rx,1,8,42,60,00,00,64,00,00,00,
81193749,00000207,false,Rx,1,8,00,00,C0,FF,F0,00,14,00,
81194237,00000227,false,Rx,1,8,00,00,21,83,00,00,1F,C5,
81211205,0000042C,false,Rx,1,8,42,60,00,00,64,00,00,00,
81293547,00000207,false,Rx,1,8,00,00,00,00,F0,00,14,00,
81293791,00000227,false,Rx,1,8,00,00,26,83,00,00,1F,C5,
81311217,0000042C,false,Rx,1,8,42,60,00,00,64,00,00,00,
81393493,00000207,false,Rx,1,8,00,00,00,00,F0,00,14,00,
81393742,00000227,false,Rx,1,8,00,00,1D,83,00,00,1F,C5,
81411235,0000042C,false,Rx,1,8,42,60,00,00,64,00,00,00,
81493490,00000207,false,Rx,1,8,00,00,00,00,F0,00,14,00,
81493729,00000227,false,Rx,1,8,00,00,21,83,00,00,1F,C5,
81511229,0000042C,false,Rx,1,8,42,60,00,00,64,00,00,00,
81593432,00000207,false,Rx,1,8,00,00,C0,FF,F0,00,14,00,
81593677,00000227,false,Rx,1,8,00,00,1C,83,00,00,1F,C5,
81611293,0000042C,false,Rx,1,8,42,60,00,00,64,00,00,00,
81693414,00000207,false,Rx,1,8,00,00,C0,FF,F0,00,14,00,
81693658,00000227,false,Rx,1,8,00,00,22,83,00,00,1F,C5,
81713653,0000042C,false,Rx,1,8,42,60,00,00,64,00,00,00,
81793382,00000207,false,Rx,1,8,00,00,C0,FF,F0,00,14,00,
81793626,00000227,false,Rx,1,8,00,00,1C,83,00,00,1F,C5,
81811308,0000042C,false,Rx,1,8,42,60,00,00,64,00,00,00,
81893333,00000207,false,Rx,1,8,00,00,00,00,F0,00,14,00,
81893576,00000227,false,Rx,1,8,00,00,22,83,00,00,1F,C5,
81911273,0000042C,false,Rx,1,8,42,60,00,00,64,00,00,00,
81993346,00000207,false,Rx,1,8,00,00,00,00,F0,00,14,00,
81993583,00000227,false,Rx,1,8,00,00,1C,83,00,00,1F,C5,
82011276,0000042C,false,Rx,1,8,42,60,00,00,64,00,00,00,
82093270,00000207,false,Rx,1,8,00,00,00,00,F0,00,14,00,
82093514,00000227,false,Rx,1,8,00,00,1A,83,00,00,1F,C5,
82110808,0000042C,false,Rx,1,8,42,60,00,00,64,00,00,00,
82193427,00000207,false,Rx,1,8,00,00,00,00,F0,00,14,00,
82193923,00000227,false,Rx,1,8,00,00,20,83,00,00,1F,C5,
82210812,0000042C,false,Rx,1,8,42,60,00,00,64,00,00,00,
82293250,00000207,false,Rx,1,8,00,00,C0,FF,F0,00,14,00,
82293493,00000227,false,Rx,1,8,00,00,18,83,00,00,1F,C5,
82310787,0000042C,false,Rx,1,8,42,60,00,00,64,00,00,00,
82393180,00000207,false,Rx,1,8,00,00,C0,FF,F0,00,14,00,
82393424,00000227,false,Rx,1,8,00,00,1C,83,00,00,1F,C5,
82410774,0000042C,false,Rx,1,8,42,60,00,00,64,00,00,00,
82493167,00000207,false,Rx,1,8,00,00,00,00,F0,00,14,00,
82493411,00000227,false,Rx,1,8,00,00,16,83,00,00,1F,C5,
82510803,0000042C,false,Rx,1,8,42,60,00,00,64,00,00,00,
82593147,00000207,false,Rx,1,8,00,00,C0,FF,F0,00,14,00,
82593384,00000227,false,Rx,1,8,00,00,17,83,00,00,1F,C5,
82610769,0000042C,false,Rx,1,8,42,60,00,00,64,00,00,00,
82693089,00000207,false,Rx,1,8,00,00,C0,FF,F0,00,14,00,
82693334,00000227,false,Rx,1,8,00,00,17,83,00,00,1F,C5,
82710769,0000042C,false,Rx,1,8,42,60,00,00,64,00,00,00,
82793071,00000207,false,Rx,1,8,00,00,C0,FF,F0,00,14,00,
82793314,00000227,false,Rx,1,8,00,00,18,83,00,00,1F,C5,
82810767,0000042C,false,Rx,1,8,42,60,00,00,64,00,00,00,
82893022,00000207,false,Rx,1,8,00,00,C0,FF,F0,00,14,00,
82893265,00000227,false,Rx,1,8,00,00,19,83,00,00,1F,C5,
82910768,0000042C,false,Rx,1,8,42,60,00,00,64,00,00,00,
82993013,00000207,false,Rx,1,8,00,00,C0,FF,F0,00,14,00,
82993256,00000227,false,Rx,1,8,00,00,1A,83,00,00,1F,C5,
83010761,0000042C,false,Rx,1,8,42,60,00,00,64,00,00,00,
83092980,00000207,false,Rx,1,8,00,00,C0,FF,F0,00,14,00,
83093224,00000227,false,Rx,1,8,00,00,1C,83,00,00,1F,C5,
83110767,0000042C,false,Rx,1,8,42,60,00,00,64,00,00,00,
83193150,00000207,false,Rx,1,8,00,00,00,00,F0,00,14,00,
83193395,00000227,false,Rx,1,8,00,00,11,83,00,00,1F,C5,
83210762,0000042C,false,Rx,1,8,42,60,00,00,64,00,00,00,
83292921,00000207,false,Rx,1,8,00,00,C0,FF,F0,00,14,00,
83293158,00000227,false,Rx,1,8,00,00,1C,83,00,00,1F,C5,
83310767,0000042C,false,Rx,1,8,42,60,00,00,64,00,00,00,
83392893,00000207,false,Rx,1,8,00,00,00,00,F0,00,14,00,
83393129,00000227,false,Rx,1,8,00,00,1E,83,00,00,1F,C5,
83410758,0000042C,false,Rx,1,8,42,60,00,00,64,00,00,00,
83492891,00000207,false,Rx,1,8,00,00,00,00,F0,00,14,00,
83493119,00000227,false,Rx,1,8,00,00,17,83,00,00,1F,C5,
83510753,0000042C,false,Rx,1,8,42,60,00,00,64,00,00,00,
83592899,00000207,false,Rx,1,8,00,00,C0,FF,F0,00,14,00,
83593143,00000227,false,Rx,1,8,00,00,1F,83,00,00,1F,C5,
83610758,0000042C,false,Rx,1,8,42,60,00,00,64,00,00,00,
83692869,00000207,false,Rx,1,8,00,00,00,00,F0,00,14,00,
83693105,00000227,false,Rx,1,8,00,00,1C,83,00,00,1F,C5,
83710755,0000042C,false,Rx,1,8,42,60,00,00,64,00,00,00,
83792868,00000207,false,Rx,1,8,00,00,C0,FF,F0,00,14,00,
83793112,00000227,false,Rx,1,8,00,00,22,83,00,00,1F,C5,
83810749,0000042C,false,Rx,1,8,42,60,00,00,64,00,00,00,
83892861,00000207,false,Rx,1,8,00,00,C0,FF,F0,00,14,00,
83893096,00000227,false,Rx,1,8,00,00,1E,83,00,00,1F,C5,
83910762,0000042C,false,Rx,1,8,42,60,00,00,64,00,00,00,
83992856,00000207,false,Rx,1,8,00,00,C0,FF,F0,00,14,00,
83993100,00000227,false,Rx,1,8,00,00,1D,83,00,00,1F,C5,
84010753,0000042C,false,Rx,1,8,42,60,00,00,64,00,00,00,
84092659,00000207,false,Rx,1,8,00,00,C0,FF,F0,00,14,00,
84092903,00000227,false,Rx,1,8,00,00,1B,83,00,00,1F,C5,
84110746,0000042C,false,Rx,1,8,42,60,00,00,64,00,00,00,
84192948,00000207,false,Rx,1,8,00,00,00,00,F0,00,14,00,
84193185,00000227,false,Rx,1,8,00,00,1D,83,00,00,1F,C5,
84210744,0000042C,false,Rx,1,8,42,60,00,00,64,00,00,00,
84292601,00000207,false,Rx,1,8,00,00,C0,FF,F0,00,14,00,
84292846,00000227,false,Rx,1,8,00,00,1E,83,00,00,1F,C5,
84310748,0000042C,false,Rx,1,8,42,60,00,00,64,00,00,00,
84392576,00000207,false,Rx,1,8,00,00,00,00,F0,00,14,00,
84392980,00000227,false,Rx,1,8,00,00,17,83,00,00,1F,C5,
84410748,0000042C,false,Rx,1,8,42,60,00,00,64,00,00,00,
84492527,00000207,false,Rx,1,8,00,00,00,00,F0,00,14,00,
84492765,00000227,false,Rx,1,8,00,00,13,83,00,00,1F,C5,
84510743,0000042C,false,Rx,1,8,42,60,00,00,64,00,00,00,
84592600,00000207,false,Rx,1,8,00,00,C0,FF,F0,00,14,00,
84592836,00000227,false,Rx,1,8,00,00,1C,83,00,00,1F,C5,
84610743,0000042C,false,Rx,1,8,42,60,00,00,64,00,00,00,
84692464,00000207,false,Rx,1,8,00,00,00,00,F0,00,14,00,
84692710,00000227,false,Rx,1,8,00,00,1D,83,00,00,1F,C5,
84710740,0000042C,false,Rx,1,8,42,60,00,00,64,00,00,00,
84792634,00000207,false,Rx,1,8,00,00,00,00,F0,00,14,00,
84792871,00000227,false,Rx,1,8,00,00,1E,83,00,00,1F,C5,
84810733,0000042C,false,Rx,1,8,42,60,00,00,64,00,00,00,
84892405,00000207,false,Rx,1,8,00,00,C0,FF,F0,00,14,00,
84892649,00000227,false,Rx,1,8,00,00,22,83,00,00,1F,C5,
84910733,0000042C,false,Rx,1,8,42,60,00,00,64,00,00,00,
84992356,00000207,false,Rx,1,8,00,00,C0,FF,F0,00,14,00,
84992600,00000227,false,Rx,1,8,00,00,21,83,00,00,1F,C5,
85010736,0000042C,false,Rx,1,8,42,60,00,00,64,00,00,00,
85092357,00000207,false,Rx,1,8,00,00,C0,FF,F0,00,14,00,
85092601,00000227,false,Rx,1,8,00,00,1A,83,00,00,1F,C5,
85110736,0000042C,false,Rx,1,8,42,60,00,00,64,00,00,00,
85192587,00000207,false,Rx,1,8,00,00,00,00,F0,00,14,00,
85192824,00000227,false,Rx,1,8,00,00,21,83,00,00,1F,C5,
85210728,0000042C,false,Rx,1,8,42,60,00,00,64,00,00,00,
85292406,00000207,false,Rx,1,8,00,00,00,00,F0,00,14,00,
85292649,00000227,false,Rx,1,8,00,00,20,83,00,00,1F,C5,
85310736,0000042C,false,Rx,1,8,42,60,00,00,64,00,00,00,
85392334,00000207,false,Rx,1,8,00,00,00,00,F0,00,14,00,
85392578,00000227,false,Rx,1,8,00,00,25,83,00,00,1F,C5,
85410727,0000042C,false,Rx,1,8,42,60,00,00,64,00,00,00,
85492313,00000207,false,Rx,1,8,00,00,C0,FF,F0,00,14,00,
85492556,00000227,false,Rx,1,8,00,00,1F,83,00,00,1F,C5,
85510723,0000042C,false,Rx,1,8,42,60,00,00,64,00,00,00,
85592260,00000207,false,Rx,1,8,00,00,C0,FF,F0,00,14,00,
85592497,00000227,false,Rx,1,8,00,00,1C,83,00,00,1F,C5,
85610725,0000042C,false,Rx,1,8,42,60,00,00,64,00,00,00,
85692219,00000207,false,Rx,1,8,00,00,00,00,F0,00,14,00,
85692464,00000227,false,Rx,1,8,00,00,20,83,00,00,1F,C5,
85710725,0000042C,false,Rx,1,8,42,60,00,00,64,00,00,00,
85792255,00000207,false,Rx,1,8,00,00,C0,FF,F0,00,14,00,
85792490,00000227,false,Rx,1,8,00,00,1D,83,00,00,1F,C5,
85810724,0000042C,false,Rx,1,8,42,60,00,00,64,00,00,00,
85892227,00000207,false,Rx,1,8,00,00,00,00,F0,00,14,00,
85892471,00000227,false,Rx,1,8,00,00,1E,83,00,00,1F,C5,
85910717,0000042C,false,Rx,1,8,42,60,00,00,64,00,00,00,
85992148,00000207,false,Rx,1,8,00,00,C0,FF,F0,00,14,00,
85992384,00000227,false,Rx,1,8,00,00,1C,83,00,00,1F,C5,
86010721,0000042C,false,Rx,1,8,42,60,00,00,64,00,00,00,
86092226,00000207,false,Rx,1,8,00,00,C0,FF,F0,00,14,00,
86092470,00000227,false,Rx,1,8,00,00,25,83,00,00,1F,C5,
86110717,0000042C,false,Rx,1,8,42,60,00,00,64,00,00,00,
86192216,00000207,false,Rx,1,8,00,00,00,00,F0,00,14,00,
86192453,00000227,false,Rx,1,8,00,00,24,83,00,00,1F,C5,
86210717,0000042C,false,Rx,1,8,42,60,00,00,64,00,00,00,
86292009,00000207,false,Rx,1,8,00,00,C0,FF,F0,00,14,00,
86292497,00000227,false,Rx,1,8,00,00,1E,83,00,00,1F,C5,
86310720,0000042C,false,Rx,1,8,42,60,00,00,64,00,00,00,
86392220,00000207,false,Rx,1,8,00,00,C0,FF,F0,00,14,00,
86392464,00000227,false,Rx,1,8,00,00,1D,83,00,00,1F,C5,
86410713,0000042C,false,Rx,1,8,42,60,00,00,64,00,00,00,
86492199,00000207,false,Rx,1,8,00,00,00,00,F0,00,14,00,
86492684,00000227,false,Rx,1,8,00,00,18,83,00,00,1F,C5,
86510712,0000042C,false,Rx,1,8,42,60,00,00,64,00,00,00,
86592250,00000207,false,Rx,1,8,00,00,C0,FF,F0,00,14,00,
86592733,00000227,false,Rx,1,8,00,00,1A,83,00,00,1F,C5,
86610706,0000042C,false,Rx,1,8,42,60,00,00,64,00,00,00,
86692227,00000207,false,Rx,1,8,00,00,C0,FF,F0,00,14,00,
86692722,00000227,false,Rx,1,8,00,00,1E,83,00,00,1F,C5,
86710709,0000042C,false,Rx,1,8,42,60,00,00,64,00,00,00,
86791988,00000207,false,Rx,1,8,00,00,C0,FF,F0,00,14,00,
86792476,00000227,false,Rx,1,8,00,00,1C,83,00,00,1F,C5,
86810708,0000042C,false,Rx,1,8,42,60,00,00,64,00,00,00,
86892231,00000207,false,Rx,1,8,00,00,00,00,F0,00,14,00,
86892720,00000227,false,Rx,1,8,00,00,1B,83,00,00,1F,C5,
86910702,0000042C,false,Rx,1,8,42,60,00,00,64,00,00,00,
86991989,00000207,false,Rx,1,8,00,00,C0,FF,F0,00,14,00,
86992721,00000227,false,Rx,1,8,00,00,1F,83,00,00,1F,C5,
87010704,0000042C,false,Rx,1,8,42,60,00,00,64,00,00,00,
87091726,00000207,false,Rx,1,8,00,00,00,00,F0,00,14,00,
87092700,00000227,false,Rx,1,8,00,00,1A,83,00,00,1F,C5,
87110698,0000042C,false,Rx,1,8,42,60,00,00,64,00,00,00,
87192072,00000207,false,Rx,1,8,00,00,C0,FF,F0,00,14,00,
87192804,00000227,false,Rx,1,8,00,00,1C,83,00,00,1F,C5,
87210697,0000042C,false,Rx,1,8,42,60,00,00,64,00,00,00,
87291636,00000207,false,Rx,1,8,00,00,C0,FF,F0,00,14,00,
87292359,00000227,false,Rx,1,8,00,00,1B,83,00,00,1F,C5,
87310700,0000042C,false,Rx,1,8,42,60,00,00,64,00,00,00,
87391637,00000207,false,Rx,1,8,00,00,00,00,F0,00,14,00,
87392361,00000227,false,Rx,1,8,00,00,1F,83,00,00,1F,C5,
87410697,0000042C,false,Rx,1,8,42,60,00,00,64,00,00,00,
87491600,00000207,false,Rx,1,8,00,00,C0,FF,F0,00,14,00,
87492565,00000227,false,Rx,1,8,00,00,1B,83,00,00,1F,C5,
87510696,0000042C,false,Rx,1,8,42,60,00,00,64,00,00,00,
87591546,00000207,false,Rx,1,8,00,00,00,00,F0,00,14,00,
87592269,00000227,false,Rx,1,8,00,00,1D,83,00,00,1F,C5,
87610693,0000042C,false,Rx,1,8,42,60,00,00,64,00,00,00,
87691541,00000207,false,Rx,1,8,00,00,00,00,F0,00,14,00,
87692509,00000227,false,Rx,1,8,00,00,20,83,00,00,1F,C5,
87710692,0000042C,false,Rx,1,8,42,60,00,00,64,00,00,00,
87791492,00000207,false,Rx,1,8,00,00,00,00,F0,00,14,00,
87792460,00000227,false,Rx,1,8,00,00,23,83,00,00,1F,C5,
87810686,0000042C,false,Rx,1,8,42,60,00,00,64,00,00,00,
87891471,00000207,false,Rx,1,8,00,00,C0,FF,F0,00,14,00,
87891714,00000227,false,Rx,1,8,00,00,1F,83,00,00,1F,C5,
87910685,0000042C,false,Rx,1,8,42,60,00,00,64,00,00,00,
87991576,00000207,false,Rx,1,8,00,00,00,00,F0,00,14,00,
87992293,00000227,false,Rx,1,8,00,00,22,83,00,00,1F,C5,
88010685,0000042C,false,Rx,1,8,42,60,00,00,64,00,00,00,
88091403,00000207,false,Rx,1,8,00,00,C0,FF,F0,00,14,00,
88091638,00000227,false,Rx,1,8,00,00,26,83,00,00,1F,C5,
88110679,0000042C,false,Rx,1,8,42,60,00,00,64,00,00,00,
88191534,00000207,false,Rx,1,8,00,00,00,00,F0,00,14,00,
88192495,00000227,false,Rx,1,8,00,00,1D,83,00,00,1F,C5,
88210680,0000042C,false,Rx,1,8,42,60,00,00,64,00,00,00,
88291339,00000207,false,Rx,1,8,00,00,C0,FF,F0,00,14,00,
88291581,00000227,false,Rx,1,8,00,00,21,83,00,00,1F,C5,
88310686,0000042C,false,Rx,1,8,42,60,00,00,64,00,00,00,
88391311,00000207,false,Rx,1,8,00,00,C0,FF,F0,00,14,00,
88391553,00000227,false,Rx,1,8,00,00,1E,83,00,00,1F,C5,
88410682,0000042C,false,Rx,1,8,42,60,00,00,64,00,00,00,
88491425,00000207,false,Rx,1,8,00,00,00,00,F0,00,14,00,
88491662,00000227,false,Rx,1,8,00,00,22,83,00,00,1F,C5,
88510674,0000042C,false,Rx,1,8,42,60,00,00,64,00,00,00,
88591236,00000207,false,Rx,1,8,00,00,00,00,F0,00,14,00,
88591481,00000227,false,Rx,1,8,00,00,21,83,00,00,1F,C5,
88610671,0000042C,false,Rx,1,8,42,60,00,00,64,00,00,00,
88691221,00000207,false,Rx,1,8,00,00,00,00,F0,00,14,00,
88691466,00000227,false,Rx,1,8,00,00,1F,83,00,00,1F,C5,
88710670,0000042C,false,Rx,1,8,42,60,00,00,64,00,00,00,
88791172,00000207,false,Rx,1,8,00,00,00,00,F0,00,14,00,
88791408,00000227,false,Rx,1,8,00,00,1E,83,00,00,1F,C5,
88810672,0000042C,false,Rx,1,8,42,60,00,00,64,00,00,00,
88891152,00000207,false,Rx,1,8,00,00,00,00,F0,00,14,00,
88891639,00000227,false,Rx,1,8,00,00,20,83,00,00,1F,C5,
88910671,0000042C,false,Rx,1,8,42,60,00,00,64,00,00,00,
88991133,00000207,false,Rx,1,8,00,00,00,00,F0,00,14,00,
88991375,00000227,false,Rx,1,8,00,00,25,83,00,00,1F,C5,
89010909,0000042C,false,Rx,1,8,42,60,00,00,64,00,00,00,
89091077,00000207,false,Rx,1,8,00,00,00,00,F0,00,14,00,
89091319,00000227,false,Rx,1,8,00,00,22,83,00,00,1F,C5,
89110903,0000042C,false,Rx,1,8,42,60,00,00,64,00,00,00,
89191474,00000207,false,Rx,1,8,00,00,C0,FF,F0,00,14,00,
89192192,00000227,false,Rx,1,8,00,00,1E,83,00,00,1F,C5,
89210903,0000042C,false,Rx,1,8,42,60,00,00,64,00,00,00,
89291032,00000207,false,Rx,1,8,00,00,C0,FF,F0,00,14,00,
89291276,00000227,false,Rx,1,8,00,00,1D,83,00,00,1F,C5,
89310665,0000042C,false,Rx,1,8,42,60,00,00,64,00,00,00,
89390980,00000207,false,Rx,1,8,00,00,C0,FF,F0,00,14,00,
89391473,00000227,false,Rx,1,8,00,00,1E,83,00,00,1F,C5,
89410661,0000042C,false,Rx,1,8,42,60,00,00,64,00,00,00,
89490970,00000207,false,Rx,1,8,00,00,00,00,F0,00,14,00,
89491206,00000227,false,Rx,1,8,00,00,21,83,00,00,1F,C5,
89510659,0000042C,false,Rx,1,8,42,60,00,00,64,00,00,00,
89590916,00000207,false,Rx,1,8,00,00,00,00,F0,00,14,00,
89591158,00000227,false,Rx,1,8,00,00,20,83,00,00,1F,C5,
89610660,0000042C,false,Rx,1,8,42,60,00,00,64,00,00,00,
89690913,00000207,false,Rx,1,8,00,00,00,00,F0,00,14,00,
89691155,00000227,false,Rx,1,8,00,00,19,83,00,00,1F,C5,
89710653,0000042C,false,Rx,1,8,42,60,00,00,64,00,00,00,
89790875,00000207,false,Rx,1,8,00,00,C0,FF,F0,00,14,00,
89791120,00000227,false,Rx,1,8,00,00,1E,83,00,00,1F,C5,
89810652,0000042C,false,Rx,1,8,42,60,00,00,64,00,00,00,
89890828,00000207,false,Rx,1,8,00,00,00,00,F0,00,14,00,
89891064,00000227,false,Rx,1,8,00,00,26,83,00,00,1F,C5,
89910650,0000042C,false,Rx,1,8,42,60,00,00,64,00,00,00,
89990810,00000207,false,Rx,1,8,00,00,00,00,F0,00,14,00,
89991053,00000227,false,Rx,1,8,00,00,22,83,00,00,1F,C5,
90010652,0000042C,false,Rx,1,8,42,60,00,00,64,00,00,00,
90090763,00000207,false,Rx,1,8,00,00,C0,FF,F0,00,14,00,
90091005,00000227,false,Rx,1,8,00,00,23,83,00,00,1F,C5,
90110647,0000042C,false,Rx,1,8,42,60,00,00,64,00,00,00,
90190917,00000207,false,Rx,1,8,00,00,C0,FF,F0,00,14,00,
90191160,00000227,false,Rx,1,8,00,00,23,83,00,00,1F,C5,
90210645,0000042C,false,Rx,1,8,42,60,00,00,64,00,00,00,
90290745,00000207,false,Rx,1,8,00,00,00,00,F0,00,14,00,
90290987,00000227,false,Rx,1,8,00,00,1B,83,00,00,1F,C5,
90310652,0000042C,false,Rx,1,8,42,60,00,00,64,00,00,00,
90390660,00000207,false,Rx,1,8,00,00,C0,FF,F0,00,14,00,
90390905,00000227,false,Rx,1,8,00,00,20,83,00,00,1F,C5,
90410646,0000042C,false,Rx,1,8,42,60,00,00,64,00,00,00,
90490656,00000207,false,Rx,1,8,00,00,C0,FF,F0,00,14,00,
90490903,00000227,false,Rx,1,8,00,00,1D,83,00,00,1F,C5,
90510647,0000042C,false,Rx,1,8,42,60,00,00,64,00,00,00,
90590640,00000207,false,Rx,1,8,00,00,00,00,F0,00,14,00,
90590884,00000227,false,Rx,1,8,00,00,21,83,00,00,1F,C5,
90610647,0000042C,false,Rx,1,8,42,60,00,00,64,00,00,00,
90690597,00000207,false,Rx,1,8,00,00,C0,FF,F0,00,14,00,
90690834,00000227,false,Rx,1,8,00,00,1C,83,00,00,1F,C5,
90710643,0000042C,false,Rx,1,8,42,60,00,00,64,00,00,00,
90790583,00000207,false,Rx,1,8,00,00,00,00,F0,00,14,00,
90790827,00000227,false,Rx,1,8,00,00,1C,83,00,00,1F,C5,
90810636,0000042C,false,Rx,1,8,42,60,00,00,64,00,00,00,
90890516,00000207,false,Rx,1,8,00,00,00,00,F0,00,14,00,
90890760,00000227,false,Rx,1,8,00,00,1C,83,00,00,1F,C5,
90910643,0000042C,false,Rx,1,8,42,60,00,00,64,00,00,00,
90990515,00000207,false,Rx,1,8,00,00,00,00,F0,00,14,00,
90990759,00000227,false,Rx,1,8,00,00,1D,83,00,00,1F,C5,
91010640,0000042C,false,Rx,1,8,42,60,00,00,64,00,00,00,
91090470,00000207,false,Rx,1,8,00,00,00,00,F0,00,14,00,
91090730,00000227,false,Rx,1,8,00,00,1F,83,00,00,1F,C5,
91110638,0000042C,false,Rx,1,8,42,60,00,00,64,00,00,00,
91190587,00000207,false,Rx,1,8,00,00,00,00,F0,00,14,00,
91190831,00000227,false,Rx,1,8,00,00,1F,83,00,00,1F,C5,
91210886,0000042C,false,Rx,1,8,42,60,00,00,64,00,00,00,
91290415,00000207,false,Rx,1,8,00,00,00,00,F0,00,14,00,
91290649,00000227,false,Rx,1,8,00,00,21,83,00,00,1F,C5,
91310713,0000042C,false,Rx,1,8,42,60,00,00,64,00,00,00,
91390359,00000207,false,Rx,1,8,00,00,00,00,F0,00,14,00,
91390594,00000227,false,Rx,1,8,00,00,28,83,00,00,1F,C5,
91410847,0000042C,false,Rx,1,8,42,60,00,00,64,00,00,00,
91490336,00000207,false,Rx,1,8,00,00,C0,FF,F0,00,14,00,
91490579,00000227,false,Rx,1,8,00,00,1C,83,00,00,1F,C5,
91510628,0000042C,false,Rx,1,8,42,60,00,00,64,00,00,00,
91590318,00000207,false,Rx,1,8,00,00,00,00,F0,00,14,00,
91590554,00000227,false,Rx,1,8,00,00,1D,83,00,00,1F,C5,
91610629,0000042C,false,Rx,1,8,42,60,00,00,64,00,00,00,
91690265,00000207,false,Rx,1,8,00,00,00,00,F0,00,14,00,
91690508,00000227,false,Rx,1,8,00,00,1F,83,00,00,1F,C5,
91710622,0000042C,false,Rx,1,8,42,60,00,00,64,00,00,00,
91790243,00000207,false,Rx,1,8,00,00,C0,FF,F0,00,14,00,
91790487,00000227,false,Rx,1,8,00,00,20,83,00,00,1F,C5,
91810624,0000042C,false,Rx,1,8,42,60,00,00,64,00,00,00,
91890195,00000207,false,Rx,1,8,00,00,C0,FF,F0,00,14,00,
91890437,00000227,false,Rx,1,8,00,00,21,83,00,00,1F,C5,
91910621,0000042C,false,Rx,1,8,42,60,00,00,64,00,00,00,
91990192,00000207,false,Rx,1,8,00,00,C0,FF,F0,00,14,00,
91990434,00000227,false,Rx,1,8,00,00,1D,83,00,00,1F,C5,
92010622,0000042C,false,Rx,1,8,42,60,00,00,64,00,00,00,
92090175,00000207,false,Rx,1,8,00,00,00,00,F0,00,14,00,
92090417,00000227,false,Rx,1,8,00,00,1F,83,00,00,1F,C5,
92110615,0000042C,false,Rx,1,8,42,60,00,00,64,00,00,00,
92190271,00000207,false,Rx,1,8,00,00,C0,FF,F0,00,14,00,
92190516,00000227,false,Rx,1,8,00,00,23,83,00,00,1F,C5,
92210739,0000042C,false,Rx,1,8,42,60,00,00,64,00,00,00,
92290092,00000207,false,Rx,1,8,00,00,00,00,F0,00,14,00,
92290329,00000227,false,Rx,1,8,00,00,1E,83,00,00,1F,C5,
92310621,0000042C,false,Rx,1,8,42,60,00,00,64,00,00,00,
92390032,00000207,false,Rx,1,8,00,00,C0,FF,F0,00,14,00,
92390276,00000227,false,Rx,1,8,00,00,1C,83,00,00,1F,C5,
92410613,0000042C,false,Rx,1,8,42,60,00,00,64,00,00,00,
92490019,00000207,false,Rx,1,8,00,00,00,00,F0,00,14,00,
92490262,00000227,false,Rx,1,8,00,00,22,83,00,00,1F,C5,
92510615,0000042C,false,Rx,1,8,42,60,00,00,64,00,00,00,
92589994,00000207,false,Rx,1,8,00,00,00,00,F0,00,14,00,
92590237,00000227,false,Rx,1,8,00,00,1C,83,00,00,1F,C5,
92610610,0000042C,false,Rx,1,8,42,60,00,00,64,00,00,00,
92689943,00000207,false,Rx,1,8,00,00,C0,FF,F0,00,14,00,
92690187,00000227,false,Rx,1,8,00,00,22,83,00,00,1F,C5,
92710608,0000042C,false,Rx,1,8,42,60,00,00,64,00,00,00,
92789937,00000207,false,Rx,1,8,00,00,00,00,F0,00,14,00,
92790182,00000227,false,Rx,1,8,00,00,20,83,00,00,1F,C5,
92810604,0000042C,false,Rx,1,8,42,60,00,00,64,00,00,00,
92889899,00000207,false,Rx,1,8,00,00,C0,FF,F0,00,14,00,
92890144,00000227,false,Rx,1,8,00,00,23,83,00,00,1F,C5,
92910607,0000042C,false,Rx,1,8,42,60,00,00,64,00,00,00,
92989847,00000207,false,Rx,1,8,00,00,C0,FF,F0,00,14,00,
92990091,00000227,false,Rx,1,8,00,00,20,83,00,00,1F,C5,
93010600,0000042C,false,Rx,1,8,42,60,00,00,64,00,00,00,
93089841,00000207,false,Rx,1,8,00,00,00,00,F0,00,14,00,
93090077,00000227,false,Rx,1,8,00,00,24,83,00,00,1F,C5,
93110602,0000042C,false,Rx,1,8,42,60,00,00,64,00,00,00,
93189956,00000207,false,Rx,1,8,00,00,00,00,F0,00,14,00,
93190199,00000227,false,Rx,1,8,00,00,26,83,00,00,1F,C5,
93210600,0000042C,false,Rx,1,8,42,60,00,00,64,00,00,00,
93289781,00000207,false,Rx,1,8,00,00,00,00,F0,00,14,00,
93290024,00000227,false,Rx,1,8,00,00,1D,83,00,00,1F,C5,
93310605,0000042C,false,Rx,1,8,42,60,00,00,64,00,00,00,
93389747,00000207,false,Rx,1,8,00,00,00,00,F0,00,14,00,
93389984,00000227,false,Rx,1,8,00,00,21,83,00,00,1F,C5,
93410844,0000042C,false,Rx,1,8,42,60,00,00,64,00,00,00,
93489694,00000207,false,Rx,1,8,00,00,C0,FF,F0,00,14,00,
93489931,00000227,false,Rx,1,8,00,00,24,83,00,00,1F,C5,
93510595,0000042C,false,Rx,1,8,42,60,00,00,64,00,00,00,
93589688,00000207,false,Rx,1,8,00,00,C0,FF,F0,00,14,00,
93589932,00000227,false,Rx,1,8,00,00,1E,83,00,00,1F,C5,
93610590,0000042C,false,Rx,1,8,42,60,00,00,64,00,00,00,
93689641,00000207,false,Rx,1,8,00,00,00,00,F0,00,14,00,
93689878,00000227,false,Rx,1,8,00,00,24,83,00,00,1F,C5,
93710592,0000042C,false,Rx,1,8,42,60,00,00,64,00,00,00,
93789612,00000207,false,Rx,1,8,00,00,C0,FF,F0,00,14,00,
93789857,00000227,false,Rx,1,8,00,00,1F,83,00,00,1F,C5,
93810589,0000042C,false,Rx,1,8,42,60,00,00,64,00,00,00,
93889589,00000207,false,Rx,1,8,00,00,00,00,F0,00,14,00,
93889826,00000227,false,Rx,1,8,00,00,21,83,00,00,1F,C5,
93910589,0000042C,false,Rx,1,8,42,60,00,00,64,00,00,00,
93989543,00000207,false,Rx,1,8,00,00,C0,FF,F0,00,14,00,
93989782,00000227,false,Rx,1,8,00,00,1B,83,00,00,1F,C5,
94010589,0000042C,false,Rx,1,8,42,60,00,00,64,00,00,00,
94089520,00000207,false,Rx,1,8,00,00,C0,FF,F0,00,14,00,
94089766,00000227,false,Rx,1,8,00,00,1D,83,00,00,1F,C5,
94110589,0000042C,false,Rx,1,8,42,60,00,00,64,00,00,00,
94189648,00000207,false,Rx,1,8,00,00,00,00,F0,00,14,00,
94189885,00000227,false,Rx,1,8,00,00,21,83,00,00,1F,C5,
94210587,0000042C,false,Rx,1,8,42,60,00,00,64,00,00,00,
94289442,00000207,false,Rx,1,8,00,00,00,00,F0,00,14,00,
94289686,00000227,false,Rx,1,8,00,00,22,83,00,00,1F,C5,
94310589,0000042C,false,Rx,1,8,42,60,00,00,64,00,00,00,
94389436,00000207,false,Rx,1,8,00,00,C0,FF,F0,00,14,00,
94389672,00000227,false,Rx,1,8,00,00,21,83,00,00,1F,C5,
94410617,0000042C,false,Rx,1,8,42,60,00,00,64,00,00,00,
94489387,00000207,false,Rx,1,8,00,00,00,00,F0,00,14,00,
94489623,00000227,false,Rx,1,8,00,00,1E,83,00,00,1F,C5,
94510576,0000042C,false,Rx,1,8,42,60,00,00,64,00,00,00,
94589364,00000207,false,Rx,1,8,00,00,C0,FF,F0,00,14,00,
94589601,00000227,false,Rx,1,8,00,00,1E,83,00,00,1F,C5,
94610578,0000042C,false,Rx,1,8,42,60,00,00,64,00,00,00,
94689340,00000207,false,Rx,1,8,00,00,C0,FF,F0,00,14,00,
94689584,00000227,false,Rx,1,8,00,00,1C,83,00,00,1F,C5,
94710574,0000042C,false,Rx,1,8,42,60,00,00,64,00,00,00,
94789296,00000207,false,Rx,1,8,00,00,00,00,F0,00,14,00,
94789532,00000227,false,Rx,1,8,00,00,1C,83,00,00,1F,C5,
94810575,0000042C,false,Rx,1,8,42,60,00,00,64,00,00,00,
94889273,00000207,false,Rx,1,8,00,00,C0,FF,F0,00,14,00,
94889516,00000227,false,Rx,1,8,00,00,1D,83,00,00,1F,C5,
94910575,0000042C,false,Rx,1,8,42,60,00,00,64,00,00,00,
94989220,00000207,false,Rx,1,8,00,00,C0,FF,F0,00,14,00,
94989456,00000227,false,Rx,1,8,00,00,1C,83,00,00,1F,C5,
95010572,0000042C,false,Rx,1,8,42,60,00,00,64,00,00,00,
95089216,00000207,false,Rx,1,8,00,00,00,00,F0,00,14,00,
95089460,00000227,false,Rx,1,8,00,00,22,83,00,00,1F,C5,
95110567,0000042C,false,Rx,1,8,42,60,00,00,64,00,00,00,
95189342,00000207,false,Rx,1,8,00,00,00,00,F0,00,14,00,
95189578,00000227,false,Rx,1,8,00,00,21,83,00,00,1F,C5,
95210567,0000042C,false,Rx,1,8,42,60,00,00,64,00,00,00,
95289135,00000207,false,Rx,1,8,00,00,00,00,F0,00,14,00,
95289372,00000227,false,Rx,1,8,00,00,1E,83,00,00,1F,C5,
95310573,0000042C,false,Rx,1,8,42,60,00,00,64,00,00,00,
95389109,00000207,false,Rx,1,8,00,00,C0,FF,F0,00,14,00,
95389353,00000227,false,Rx,1,8,00,00,1C,83,00,00,1F,C5,
95410566,0000042C,false,Rx,1,8,42,60,00,00,64,00,00,00,
95489064,00000207,false,Rx,1,8,00,00,C0,FF,F0,00,14,00,
95489300,00000227,false,Rx,1,8,00,00,1C,83,00,00,1F,C5,
95510562,0000042C,false,Rx,1,8,42,60,00,00,64,00,00,00,
95589040,00000207,false,Rx,1,8,00,00,C0,FF,F0,00,14,00,
95589283,00000227,false,Rx,1,8,00,00,20,83,00,00,1F,C5,
95610560,0000042C,false,Rx,1,8,42,60,00,00,64,00,00,00,
95689017,00000207,false,Rx,1,8,00,00,C0,FF,F0,00,14,00,
95689261,00000227,false,Rx,1,8,00,00,23,83,00,00,1F,C5,
95710557,0000042C,false,Rx,1,8,42,60,00,00,64,00,00,00,
95788971,00000207,false,Rx,1,8,00,00,C0,FF,F0,00,14,00,
95789208,00000227,false,Rx,1,8,00,00,20,83,00,00,1F,C5,
95810553,0000042C,false,Rx,1,8,42,60,00,00,64,00,00,00,
95888971,00000207,false,Rx,1,8,00,00,00,00,F0,00,14,00,
95889216,00000227,false,Rx,1,8,00,00,22,83,00,00,1F,C5,
95910558,0000042C,false,Rx,1,8,42,60,00,00,64,00,00,00,
95988949,00000207,false,Rx,1,8,00,00,C0,FF,F0,00,14,00,
95989185,00000227,false,Rx,1,8,00,00,21,83,00,00,1F,C5,
96010556,0000042C,false,Rx,1,8,42,60,00,00,64,00,00,00,
96088881,00000207,false,Rx,1,8,00,00,C0,FF,F0,00,14,00,
96089116,00000227,false,Rx,1,8,00,00,28,83,00,00,1F,C5,
96110551,0000042C,false,Rx,1,8,42,60,00,00,64,00,00,00,
96189015,00000207,false,Rx,1,8,00,00,C0,FF,F0,00,14,00,
96189250,00000227,false,Rx,1,8,00,00,1C,83,00,00,1F,C5,
96210548,0000042C,false,Rx,1,8,42,60,00,00,64,00,00,00,
96288811,00000207,false,Rx,1,8,00,00,C0,FF,F0,00,14,00,
96289055,00000227,false,Rx,1,8,00,00,19,83,00,00,1F,C5,
96310552,0000042C,false,Rx,1,8,42,60,00,00,68,00,00,00,
96388793,00000207,false,Rx,1,8,00,00,00,00,F0,00,14,00,
96389038,00000227,false,Rx,1,8,00,00,20,83,00,00,1F,C5,
96410552,0000042C,false,Rx,1,8,42,60,00,00,69,00,00,00,
96488751,00000207,false,Rx,1,8,00,00,C0,FF,F0,00,14,00,
96488996,00000227,false,Rx,1,8,00,00,21,83,00,00,1F,C5,
96510544,0000042C,false,Rx,1,8,42,60,00,00,6D,00,00,00,
96588725,00000207,false,Rx,1,8,00,00,00,00,F0,00,14,00,
96588968,00000227,false,Rx,1,8,00,00,27,83,00,00,1F,C5,
96610553,0000042C,false,Rx,1,8,42,60,00,00,6D,00,00,00,
96688698,00000207,false,Rx,1,8,00,00,C0,FF,F0,00,14,00,
96688941,00000227,false,Rx,1,8,00,00,24,83,00,00,1F,C5,
96710556,0000042C,false,Rx,1,8,42,C4,00,00,6D,00,00,00,
96788796,00000207,false,Rx,1,8,00,00,C0,FF,F0,00,14,00,
96789040,00000227,false,Rx,1,8,00,00,1F,83,00,00,1F,C5,
96810551,0000042C,false,Rx,1,8,42,C4,00,00,6D,00,00,00,
96888647,00000207,false,Rx,1,8,00,00,00,00,F0,00,14,00,
96888892,00000227,false,Rx,1,8,00,00,23,83,00,00,1F,C5,
96910551,0000042C,false,Rx,1,8,42,C4,00,00,6D,00,00,00,
96988605,00000207,false,Rx,1,8,00,00,C0,FF,F0,00,14,00,
96988843,00000227,false,Rx,1,8,00,00,21,83,00,00,1F,C5,
97010552,0000042C,false,Rx,1,8,42,C4,00,00,6D,00,00,00,
97088572,00000207,false,Rx,1,8,00,00,C0,FF,F0,00,14,00,
97088810,00000227,false,Rx,1,8,00,00,20,83,00,00,1F,C5,
97110544,0000042C,false,Rx,1,8,42,C4,00,00,6D,00,00,00,
97188706,00000207,false,Rx,1,8,00,00,C0,FF,F0,00,14,00,
97188949,00000227,false,Rx,1,8,00,00,1D,83,00,00,1F,C5,
97210006,0000042C,false,Rx,1,8,42,C4,00,00,6D,00,00,00,
97210974,0000042C,false,Rx,1,8,42,C4,00,00,6D,00,00,00,
97288501,00000207,false,Rx,1,8,00,00,C0,FF,F0,00,14,00,
97288753,00000227,false,Rx,1,8,00,00,20,83,00,00,1F,C5,
97310540,0000042C,false,Rx,1,8,42,C4,00,00,6C,00,00,00,
97388469,00000207,false,Rx,1,8,00,00,C0,FF,F0,00,14,00,
97388706,00000227,false,Rx,1,8,00,00,18,83,00,00,1F,C5,
97410072,0000042C,false,Rx,1,8,42,C4,00,00,6C,00,00,00,
97488460,00000207,false,Rx,1,8,00,00,C0,FF,F0,00,14,00,
97488698,00000227,false,Rx,1,8,00,00,25,83,00,00,1F,C5,
97509841,0000042C,false,Rx,1,8,42,C4,00,00,FC,00,00,00,
97588370,00000207,false,Rx,1,8,00,00,00,00,F0,00,10,00,
97588615,00000227,false,Rx,1,8,00,00,1F,83,00,00,1F,C5,
97609876,0000042C,false,Rx,1,8,42,C4,00,00,FC,00,00,00,
97688363,00000207,false,Rx,1,8,00,00,00,00,F0,00,10,00,
97688607,00000227,false,Rx,1,8,00,00,1F,83,00,00,1F,C5,
97709878,0000042C,false,Rx,1,8,42,C4,00,00,FC,00,00,00,
97788307,00000207,false,Rx,1,8,00,00,C0,FF,F0,00,10,00,
97788551,00000227,false,Rx,1,8,00,00,23,83,00,00,1F,C5,
97809862,0000042C,false,Rx,1,8,42,C4,00,00,FC,00,00,00,
97888277,00000207,false,Rx,1,8,00,00,C0,FF,F0,00,10,00,
97888520,00000227,false,Rx,1,8,00,00,1C,83,00,00,1F,C5,
97909527,0000042C,false,Rx,1,8,42,C4,00,00,FC,00,00,00,
97988278,00000207,false,Rx,1,8,00,00,C0,FF,F0,00,10,00,
97988521,00000227,false,Rx,1,8,00,00,1A,83,00,00,1F,C5,
98009521,0000042C,false,Rx,1,8,42,C4,00,00,FC,00,00,00,
98088249,00000207,false,Rx,1,8,00,00,C0,FF,F0,00,10,00,
98088493,00000227,false,Rx,1,8,00,00,1A,83,00,00,1F,C5,
98109880,0000042C,false,Rx,1,8,42,C4,00,00,FC,00,00,00,
98188503,00000207,false,Rx,1,8,00,00,C0,FF,F0,00,10,00,
98188747,00000227,false,Rx,1,8,00,00,14,83,00,00,1F,C5,
98209915,0000042C,false,Rx,1,8,42,C4,00,00,FC,00,00,00,
98288251,00000207,false,Rx,1,8,00,00,C0,FF,F0,00,10,00,
98288487,00000227,false,Rx,1,8,00,00,1E,83,00,00,1F,C5,
98309669,0000042C,false,Rx,1,8,42,C4,00,00,FC,00,00,00,
98388241,00000207,false,Rx,1,8,00,00,C0,FF,F0,00,10,00,
98388477,00000227,false,Rx,1,8,00,00,1E,83,00,00,1F,C5,
98409742,0000042C,false,Rx,1,8,42,C4,00,00,FC,00,00,00,
98488236,00000207,false,Rx,1,8,00,00,C0,FF,F0,00,10,00,
98488472,00000227,false,Rx,1,8,00,00,1E,83,00,00,1F,C5,
98509317,0000042C,false,Rx,1,8,42,C4,00,00,FC,00,00,00,
98588227,00000207,false,Rx,1,8,3F,7D,E0,36,F0,00,10,00,
98588471,00000227,false,Rx,1,8,00,00,16,83,00,00,1F,C5,
98609329,0000042C,false,Rx,1,8,42,C4,00,00,FC,00,00,00,
98688223,00000207,false,Rx,1,8,5E,BB,60,36,F0,00,10,00,
98688460,00000227,false,Rx,1,8,00,00,16,83,00,00,D3,CD,
98709302,0000042C,false,Rx,1,8,42,C4,00,00,FC,00,00,00,
98788211,00000207,false,Rx,1,8,6B,D5,E0,35,F0,00,10,00,
98788446,00000227,false,Rx,1,8,00,00,16,83,00,00,EC,D1,
98808980,0000042C,false,Rx,1,8,42,C4,00,00,FC,00,00,00,
98887947,00000207,false,Rx,1,8,71,E2,60,35,F0,00,10,00,
98888419,00000227,false,Rx,1,8,00,00,16,83,00,00,EC,D1,
98908743,0000042C,false,Rx,1,8,42,C4,00,00,FC,00,00,00,
98987941,00000207,false,Rx,1,8,74,E8,E0,34,F0,00,10,00,
98988412,00000227,false,Rx,1,8,00,00,0E,83,00,00,EC,D1,
99009287,0000042C,false,Rx,1,8,42,C4,00,00,FC,00,00,00,
99087890,00000207,false,Rx,1,8,76,EB,60,34,F0,00,10,00,
99088361,00000227,false,Rx,1,8,00,00,1E,83,00,00,EC,D1,
99109296,0000042C,false,Rx,1,8,42,C4,00,00,FC,00,00,00,
99188264,00000207,false,Rx,1,8,77,ED,A0,33,F0,00,10,00,
99188501,00000227,false,Rx,1,8,00,00,1D,83,00,00,EC,D1,
99209705,0000042C,false,Rx,1,8,42,C4,00,00,FC,00,00,00,
99287840,00000207,false,Rx,1,8,77,EE,E0,32,F0,00,10,00,
99288311,00000227,false,Rx,1,8,00,00,1A,83,00,00,EC,D1,
99309299,0000042C,false,Rx,1,8,42,C4,00,00,FC,00,00,00,
99387796,00000207,false,Rx,1,8,77,EE,70,32,F0,00,10,74,
99388268,00000227,false,Rx,1,8,00,00,1A,83,00,00,EC,D1,
99409708,0000042C,false,Rx,1,8,42,C4,00,00,FC,00,00,00,
99487798,00000207,false,Rx,1,8,77,EE,B0,31,F0,00,10,77,
99488271,00000227,false,Rx,1,8,00,00,18,83,00,00,EC,D1,
99509282,0000042C,false,Rx,1,8,42,C4,00,00,FC,00,00,00,
99587748,00000207,false,Rx,1,8,77,EE,30,31,F0,00,10,76,
99588220,00000227,false,Rx,1,8,00,00,18,83,00,00,EC,D1,
99609279,0000042C,false,Rx,1,8,42,C4,00,00,FC,00,00,00,
99687689,00000207,false,Rx,1,8,77,EE,70,30,F0,00,10,74,
99688160,00000227,false,Rx,1,8,02,00,1D,83,00,00,EC,D1,
99709275,0000042C,false,Rx,1,8,42,C4,00,00,FC,00,00,00,
99787709,00000207,false,Rx,1,8,77,EE,70,2F,F0,00,10,72,
99788181,00000227,false,Rx,1,8,00,00,1B,83,00,00,EC,D1,
99809271,0000042C,false,Rx,1,8,42,C4,00,00,FC,00,00,00,
99887633,00000207,false,Rx,1,8,77,EE,B0,2E,F0,00,10,75,
99887884,00000227,false,Rx,1,8,00,00,14,83,00,00,EC,D1,
99909283,0000042C,false,Rx,1,8,42,C4,00,00,FC,00,00,00,
99987640,00000207,false,Rx,1,8,77,EF,30,2E,F0,00,10,77,
99987878,00000227,false,Rx,1,8,02,00,1C,83,00,00,EC,D1,
100009277,0000042C,false,Rx,1,8,42,C4,00,00,FC,00,00,00,
100087608,00000207,false,Rx,1,8,77,EE,30,2D,F0,00,10,74,
100087837,00000227,false,Rx,1,8,02,00,18,83,00,00,EC,D1,
100109266,0000042C,false,Rx,1,8,42,C4,00,00,FC,00,00,00,
100187718,00000207,false,Rx,1,8,77,EE,70,2C,F0,00,10,73,
100188190,00000227,false,Rx,1,8,03,00,14,83,00,00,EC,D1,
100209484,0000042C,false,Rx,1,8,42,C4,00,00,FC,00,00,00,
100213578,0000042C,false,Rx,1,8,42,C4,00,00,FC,00,00,00,
100287564,00000207,false,Rx,1,8,77,EE,B0,2B,F0,00,10,74,
100287801,00000227,false,Rx,1,8,05,00,1B,83,00,00,EC,D1,
100313805,0000042C,false,Rx,1,8,42,C4,00,00,FC,00,00,00,
100387471,00000207,false,Rx,1,8,77,EE,F0,2A,F0,00,10,75,
100387722,00000227,false,Rx,1,8,06,00,1B,83,00,00,EC,D1,
100413553,0000042C,false,Rx,1,8,42,C4,00,00,FC,00,00,00,
100487474,00000207,false,Rx,1,8,77,EF,30,2A,F0,00,10,75,
100487712,00000227,false,Rx,1,8,0D,00,1A,83,00,00,EC,D1,
100513555,0000042C,false,Rx,1,8,42,C4,00,00,FC,00,00,00,
100587453,00000207,false,Rx,1,8,77,EE,F0,28,F0,00,10,72,
100587691,00000227,false,Rx,1,8,07,00,17,83,00,00,EC,D1,
100613551,0000042C,false,Rx,1,8,42,C4,00,00,FC,00,00,00,
100687387,00000207,false,Rx,1,8,77,EE,70,28,F0,00,10,73,
100687631,00000227,false,Rx,1,8,12,00,1A,83,00,00,EC,D1,
100710478,0000042C,false,Rx,1,8,42,C4,00,00,FC,00,00,00,
100713761,0000042C,false,Rx,1,8,42,C4,00,00,FC,00,00,00,
100787387,00000207,false,Rx,1,8,77,EE,70,27,F0,00,10,75,
100787622,00000227,false,Rx,1,8,0B,00,11,83,00,00,EC,D1,
100813800,0000042C,false,Rx,1,8,42,C4,00,00,FC,00,00,00,
100887324,00000207,false,Rx,1,8,77,EE,70,26,F0,00,10,74,
100887566,00000227,false,Rx,1,8,13,00,17,83,00,00,EC,D1,
100914024,0000042C,false,Rx,1,8,42,C4,00,00,FE,00,00,00,
100987300,00000207,false,Rx,1,8,77,EE,B2,25,F0,00,00,74,
100987550,00000227,false,Rx,1,8,1B,00,1F,83,00,00,EC,D1,
101013538,0000042C,false,Rx,1,8,42,C4,00,00,FE,00,00,00,
101087285,00000207,false,Rx,1,8,77,EE,B2,24,F0,34,00,72,
101087519,00000227,false,Rx,1,8,C4,55,2C,83,00,00,EC,D1,
101113533,0000042C,false,Rx,1,8,42,C4,00,00,FE,00,00,00,
101187391,00000207,false,Rx,1,8,77,EE,B2,23,F0,2C,00,73,
101187628,00000227,false,Rx,1,8,DF,77,26,83,00,00,EC,D1,
101213540,0000042C,false,Rx,1,8,42,C4,00,00,FE,00,00,00,
101287215,00000207,false,Rx,1,8,77,EE,B2,22,F0,24,00,74,
101287451,00000227,false,Rx,1,8,87,88,24,83,00,00,EC,D1,
101313779,0000042C,false,Rx,1,8,42,C4,00,00,FE,00,00,00,
101387190,00000207,false,Rx,1,8,77,ED,B2,21,F0,1C,00,73,
101387417,00000227,false,Rx,1,8,E8,91,21,83,00,00,EC,D1,
101413525,0000042C,false,Rx,1,8,42,C4,00,00,FE,00,00,00,
101487137,00000207,false,Rx,1,8,77,EE,F2,20,F0,14,00,73,
101487365,00000227,false,Rx,1,8,D1,97,24,83,00,00,EC,D1,
101513536,0000042C,false,Rx,1,8,42,C4,00,00,FE,00,00,00,
101587127,00000207,false,Rx,1,8,77,EE,B2,1F,F0,10,00,72,
101587355,00000227,false,Rx,1,8,B1,9B,2A,83,00,00,EC,D1,
101613531,0000042C,false,Rx,1,8,42,C4,00,00,FE,00,00,00,
101687056,00000207,false,Rx,1,8,77,EE,B2,1E,F0,0C,00,73,
101687284,00000227,false,Rx,1,8,5A,9E,21,83,00,00,EC,D1,
101713527,0000042C,false,Rx,1,8,42,C4,00,00,FE,00,00,00,
101787073,00000207,false,Rx,1,8,77,EE,F2,1D,F0,08,00,74,
101787317,00000227,false,Rx,1,8,27,A0,1D,83,00,00,EC,D1,
101813783,0000042C,false,Rx,1,8,42,C4,00,00,FE,00,00,00,
101887033,00000207,false,Rx,1,8,77,EE,B2,1C,F0,06,00,72,
101887270,00000227,false,Rx,1,8,8E,A1,27,83,00,00,EC,D1,
101913528,0000042C,false,Rx,1,8,42,C4,00,00,FE,00,00,00,
101986968,00000207,false,Rx,1,8,77,EE,F2,1B,F0,06,00,72,
101987195,00000227,false,Rx,1,8,99,A2,21,83,00,00,EC,D1,
102013523,0000042C,false,Rx,1,8,42,C4,00,00,FE,00,00,00,
102086956,00000207,false,Rx,1,8,77,EE,F2,1A,F0,04,00,73,
102087198,00000227,false,Rx,1,8,60,A3,1F,83,00,00,EC,D1,
102113529,0000042C,false,Rx,1,8,42,C4,00,00,FE,00,00,00,
102187086,00000207,false,Rx,1,8,77,EE,F2,19,F0,02,00,72,
102187314,00000227,false,Rx,1,8,F8,A3,25,83,00,00,EC,D1,
102213524,0000042C,false,Rx,1,8,42,C4,00,00,FE,00,00,00,
102286885,00000207,false,Rx,1,8,77,EE,F2,18,F0,02,00,73,
102287120,00000227,false,Rx,1,8,6B,A4,22,83,00,00,EC,D1,
102313766,0000042C,false,Rx,1,8,42,C4,00,00,FE,00,00,00,
102386880,00000207,false,Rx,1,8,77,EE,B2,17,F0,02,00,71,
102387108,00000227,false,Rx,1,8,C3,A4,28,83,00,00,EC,D1,
102413510,0000042C,false,Rx,1,8,42,C4,00,00,FE,00,00,00,
102486822,00000207,false,Rx,1,8,77,ED,32,17,F0,02,00,72,
102487051,00000227,false,Rx,1,8,15,A5,24,83,00,00,EC,D1,
102513521,0000042C,false,Rx,1,8,42,C4,00,00,FE,00,00,00,
102586821,00000207,false,Rx,1,8,77,EE,32,16,F0,02,00,73,
102587049,00000227,false,Rx,1,8,51,A5,1F,83,00,00,EC,D1,
102613515,0000042C,false,Rx,1,8,42,C4,00,00,FE,00,00,00,
102686758,00000207,false,Rx,1,8,77,ED,F2,14,F0,00,00,72,
102686992,00000227,false,Rx,1,8,84,A5,26,83,00,00,EC,D1,
102713511,0000042C,false,Rx,1,8,42,C4,00,00,FE,00,00,00,
102786728,00000207,false,Rx,1,8,77,ED,32,14,F0,00,00,72,
102786962,00000227,false,Rx,1,8,AB,A5,28,83,00,00,EC,D1,
102813769,0000042C,false,Rx,1,8,42,C4,00,00,FE,00,00,00,
102886722,00000207,false,Rx,1,8,77,ED,F2,12,F0,00,00,72,
102886957,00000227,false,Rx,1,8,D5,A5,23,83,00,00,EC,D1,
102913514,0000042C,false,Rx,1,8,42,C4,00,00,FE,00,00,00,
102986662,00000207,false,Rx,1,8,77,ED,32,12,F0,00,00,72,
102986899,00000227,false,Rx,1,8,F4,A5,1F,83,00,00,EC,D1,
103013504,0000042C,false,Rx,1,8,42,C4,00,00,FE,00,00,00,
103086665,00000207,false,Rx,1,8,77,ED,32,11,F0,00,00,73,
103086894,00000227,false,Rx,1,8,0B,A6,23,83,00,00,EC,D1,
103113516,0000042C,false,Rx,1,8,42,C4,00,00,FE,00,00,00,
103186768,00000207,false,Rx,1,8,77,ED,F2,0F,F0,00,00,71,
103186997,00000227,false,Rx,1,8,1E,A6,25,83,00,00,EC,D1,
103213504,0000042C,false,Rx,1,8,42,C4,00,00,FE,00,00,00,
103286571,00000207,false,Rx,1,8,77,ED,72,0F,F0,00,00,71,
103286806,00000227,false,Rx,1,8,2C,A6,20,83,00,00,EC,D1,
103313753,0000042C,false,Rx,1,8,42,C4,00,00,FE,00,00,00,
103386565,00000207,false,Rx,1,8,77,ED,32,0E,F0,00,00,72,
103386801,00000227,false,Rx,1,8,37,A6,22,83,00,00,EC,D1,
103413503,0000042C,false,Rx,1,8,42,C4,00,00,FE,00,00,00,
103486511,00000207,false,Rx,1,8,77,ED,32,0D,F0,00,00,71,
103486748,00000227,false,Rx,1,8,3E,A6,21,83,00,00,EC,D1,
103513505,0000042C,false,Rx,1,8,42,C4,00,00,FE,00,00,00,
103586508,00000207,false,Rx,1,8,77,ED,B2,0C,F0,00,00,72,
103586746,00000227,false,Rx,1,8,51,A6,22,83,00,00,EC,D1,
103613501,0000042C,false,Rx,1,8,42,C4,00,00,FE,00,00,00,
103686467,00000207,false,Rx,1,8,77,ED,72,0B,F0,00,00,71,
103686697,00000227,false,Rx,1,8,59,A6,28,83,00,00,EC,D1,
103713498,0000042C,false,Rx,1,8,42,C4,00,00,FE,00,00,00,
103786413,00000207,false,Rx,1,8,77,ED,B2,0A,F0,00,00,71,
103786647,00000227,false,Rx,1,8,56,A6,26,83,00,00,EC,D1,
103813752,0000042C,false,Rx,1,8,42,C4,00,00,FE,00,00,00,
103886421,00000207,false,Rx,1,8,77,EE,F2,09,F0,00,00,72,
103886648,00000227,false,Rx,1,8,76,A6,26,83,00,00,EC,D1,
103913493,0000042C,false,Rx,1,8,42,C4,00,00,FE,00,00,00,
103986339,00000207,false,Rx,1,8,77,EE,F2,08,F0,00,00,71,
103986574,00000227,false,Rx,1,8,95,A6,23,83,00,00,EC,D1,
104013488,0000042C,false,Rx,1,8,42,C4,00,00,FE,00,00,00,
104086322,00000207,false,Rx,1,8,77,EE,32,08,F0,00,00,72,
104086558,00000227,false,Rx,1,8,AF,A6,22,83,00,00,EC,D1,
104113504,0000042C,false,Rx,1,8,42,C4,00,00,FE,00,00,00,
104186461,00000207,false,Rx,1,8,77,EE,32,07,F0,00,00,71,
104186689,00000227,false,Rx,1,8,CA,A6,29,83,00,00,EC,D1,
104213490,0000042C,false,Rx,1,8,42,C4,00,00,FE,00,00,00,
104286259,00000207,false,Rx,1,8,77,EE,72,06,F0,00,00,71,
104286494,00000227,false,Rx,1,8,D4,A6,22,83,00,00,EC,D1,
104313730,0000042C,false,Rx,1,8,42,C4,00,00,FE,00,00,00,
104386257,00000207,false,Rx,1,8,77,EE,B2,05,F0,00,00,72,
104386492,00000227,false,Rx,1,8,ED,A6,26,83,00,00,EC,D1,
104413480,0000042C,false,Rx,1,8,42,C4,00,00,FE,00,00,00,
104486189,00000207,false,Rx,1,8,77,EE,B2,04,F0,00,00,71,
104486425,00000227,false,Rx,1,8,FC,A6,25,83,00,00,EC,D1,
104513490,0000042C,false,Rx,1,8,42,C4,00,00,FE,00,00,00,
104586166,00000207,false,Rx,1,8,77,EE,32,04,F0,00,00,71,
104586394,00000227,false,Rx,1,8,FF,A6,28,83,00,00,EC,D1,
104613480,0000042C,false,Rx,1,8,42,C4,00,00,FE,00,00,00,
104686152,00000207,false,Rx,1,8,77,EE,F2,02,F0,00,00,72,
104686394,00000227,false,Rx,1,8,06,A7,22,83,00,00,EC,D1,
104713485,0000042C,false,Rx,1,8,42,C4,00,00,FE,00,00,00,
104786093,00000207,false,Rx,1,8,77,EE,72,02,F0,00,00,71,
104786321,00000227,false,Rx,1,8,0A,A7,26,83,00,00,EC,D1,
104813732,0000042C,false,Rx,1,8,42,C4,00,00,FE,00,00,00,
104886107,00000207,false,Rx,1,8,77,EE,B2,01,F0,00,00,72,
104886341,00000227,false,Rx,1,8,12,A7,21,83,00,00,EC,D1,
104913479,0000042C,false,Rx,1,8,42,C4,00,00,FE,00,00,00,
104986064,00000207,false,Rx,1,8,77,EE,B2,00,F0,00,00,71,
104986292,00000227,false,Rx,1,8,0D,A7,24,83,00,00,EC,D1,
105013695,0000042C,false,Rx,1,8,42,C4,00,00,FE,00,00,00,
105085997,00000207,false,Rx,1,8,77,EE,F2,FF,F0,00,00,71,
105086239,00000227,false,Rx,1,8,14,A7,27,83,00,00,EC,D1,
105113699,0000042C,false,Rx,1,8,42,C4,00,00,FE,00,00,00,
105186142,00000207,false,Rx,1,8,77,ED,B2,FE,F0,00,00,72,
105186378,00000227,false,Rx,1,8,08,A7,1F,83,00,00,EC,D1,
105213693,0000042C,false,Rx,1,8,42,C4,00,00,FE,00,00,00,
105285947,00000207,false,Rx,1,8,77,ED,32,FE,F0,00,00,71,
105286176,00000227,false,Rx,1,8,D1,A6,25,83,00,00,EC,D1,
105313942,0000042C,false,Rx,1,8,42,C4,00,00,FE,00,00,00,
105385926,00000207,false,Rx,1,8,77,EC,B2,FD,F0,00,00,72,
105386156,00000227,false,Rx,1,8,AB,A6,24,83,00,00,EC,D1,
105413467,0000042C,false,Rx,1,8,42,C4,00,00,FE,00,00,00,
105485895,00000207,false,Rx,1,8,76,EC,B2,FC,F0,00,00,71,
105486132,00000227,false,Rx,1,8,89,A6,29,83,00,00,EC,D1,
105513461,0000042C,false,Rx,1,8,42,C4,00,00,FE,00,00,00,
105585832,00000207,false,Rx,1,8,76,EC,32,FC,F0,00,00,71,
105586066,00000227,false,Rx,1,8,73,A6,24,83,00,00,EC,D1,
105613461,0000042C,false,Rx,1,8,42,C4,00,00,FE,00,00,00,
105685846,00000207,false,Rx,1,8,76,EC,72,FB,F0,00,00,72,
105686075,00000227,false,Rx,1,8,49,A6,2A,83,00,00,EC,D1,
105713457,0000042C,false,Rx,1,8,42,C4,00,00,FE,00,00,00,
105785785,00000207,false,Rx,1,8,76,EC,B2,FA,F0,00,00,71,
105786014,00000227,false,Rx,1,8,33,A6,25,83,00,00,EC,D1,
105813722,0000042C,false,Rx,1,8,42,C4,00,00,FE,00,00,00,
105885750,00000207,false,Rx,1,8,76,EC,72,FA,F0,00,00,71,
105885994,00000227,false,Rx,1,8,29,A6,28,83,00,00,EC,D1,
105913459,0000042C,false,Rx,1,8,42,C4,00,00,FE,00,00,00,
105985751,00000207,false,Rx,1,8,76,EC,32,F9,F0,00,00,72,
105985989,00000227,false,Rx,1,8,16,A6,24,83,00,00,EC,D1,
106013459,0000042C,false,Rx,1,8,42,C4,00,00,FE,00,00,00,
106085693,00000207,false,Rx,1,8,77,EC,B2,F8,F0,00,00,71,
106085921,00000227,false,Rx,1,8,0D,A6,28,83,00,00,EC,D1,
106113467,0000042C,false,Rx,1,8,42,C4,00,00,FE,00,00,00,
106185840,00000207,false,Rx,1,8,76,EC,32,F8,F0,04,00,72,
106186071,00000227,false,Rx,1,8,86,A7,28,83,00,00,EC,D1,
106213456,0000042C,false,Rx,1,8,42,C4,00,00,FE,00,00,00,
106285661,00000207,false,Rx,1,8,76,EC,72,F7,F0,02,00,72,
106285891,00000227,false,Rx,1,8,AC,A7,2E,83,00,00,EC,D1,
106313706,0000042C,false,Rx,1,8,42,C4,00,00,FE,00,00,00,
106385605,00000207,false,Rx,1,8,76,EC,B2,F6,F0,02,00,71,
106385842,00000227,false,Rx,1,8,A4,A7,2F,83,00,00,EC,D1,
106413446,0000042C,false,Rx,1,8,42,C4,00,00,FE,00,00,00,
106485604,00000207,false,Rx,1,8,76,EC,F2,F5,F0,02,00,72,
106485841,00000227,false,Rx,1,8,9C,A7,2C,83,00,00,EC,D1,
106513453,0000042C,false,Rx,1,8,42,C4,00,00,FE,00,00,00,
106585544,00000207,false,Rx,1,8,76,EC,72,F5,F0,00,00,71,
106585774,00000227,false,Rx,1,8,A1,A7,2F,83,00,00,EC,D1,
106613456,0000042C,false,Rx,1,8,42,C4,00,00,FE,00,00,00,
106685536,00000207,false,Rx,1,8,76,EC,F2,F4,F0,00,00,72,
106685766,00000227,false,Rx,1,8,A7,A7,2E,83,00,00,EC,D1,
106713450,0000042C,false,Rx,1,8,42,C4,00,00,FE,00,00,00,
106785509,00000207,false,Rx,1,8,76,EC,F2,F3,F0,00,00,72,
106785746,00000227,false,Rx,1,8,AC,A7,2F,83,00,00,EC,D1,
106813700,0000042C,false,Rx,1,8,42,C4,00,00,FE,00,00,00,
106885456,00000207,false,Rx,1,8,76,EC,72,F3,F0,00,00,71,
106885684,00000227,false,Rx,1,8,A6,A7,31,83,00,00,EC,D1,
106913449,0000042C,false,Rx,1,8,42,C4,00,00,FE,00,00,00,
106985448,00000207,false,Rx,1,8,76,EC,F2,F2,F0,00,00,72,
106985676,00000227,false,Rx,1,8,A6,A7,2B,83,00,00,EC,D1,
107013438,0000042C,false,Rx,1,8,42,C4,00,00,FE,00,00,00,
107085383,00000207,false,Rx,1,8,76,EC,F2,F1,F0,00,00,72,
107085612,00000227,false,Rx,1,8,A9,A7,30,83,00,00,EC,D1,
107113443,0000042C,false,Rx,1,8,42,C4,00,00,FE,00,00,00,
107185542,00000207,false,Rx,1,8,76,EC,B2,F1,F0,00,00,71,
107185771,00000227,false,Rx,1,8,A5,A7,30,83,00,00,EC,D1,
107213441,0000042C,false,Rx,1,8,42,C4,00,00,FE,00,00,00,
107285354,00000207,false,Rx,1,8,76,EC,B2,F0,F0,00,00,72,
107285583,00000227,false,Rx,1,8,A6,A7,30,83,00,00,EC,D1,
107313691,0000042C,false,Rx,1,8,42,C4,00,00,FE,00,00,00,
107385290,00000207,false,Rx,1,8,76,EC,72,F0,F0,00,00,71,
107385526,00000227,false,Rx,1,8,AC,A7,33,83,00,00,EC,D1,
107413447,0000042C,false,Rx,1,8,42,C4,00,00,FE,00,00,00,
107485290,00000207,false,Rx,1,8,76,EC,B2,EF,F0,00,00,72,
107485522,00000227,false,Rx,1,8,AD,A7,30,83,00,00,EC,D1,
107513435,0000042C,false,Rx,1,8,42,C4,00,00,FE,00,00,00,
107585251,00000207,false,Rx,1,8,76,EC,B2,EE,F0,00,00,72,
107585487,00000227,false,Rx,1,8,A6,A7,2F,83,00,00,EC,D1,
107613433,0000042C,false,Rx,1,8,42,C4,00,00,FE,00,00,00,
107685197,00000207,false,Rx,1,8,76,EC,32,EE,F0,00,00,71,
107685440,00000227,false,Rx,1,8,A5,A7,2F,83,00,00,EC,D1,
107713433,0000042C,false,Rx,1,8,42,C4,00,00,FE,00,00,00,
107785194,00000207,false,Rx,1,8,76,EC,32,ED,F0,00,00,72,
107785431,00000227,false,Rx,1,8,A9,A7,30,83,00,00,EC,D1,
107813683,0000042C,false,Rx,1,8,42,C4,00,00,FE,00,00,00,
107885131,00000207,false,Rx,1,8,76,EC,B2,EC,F0,00,00,72,
107885360,00000227,false,Rx,1,8,A9,A7,2E,83,00,00,EC,D1,
107913430,0000042C,false,Rx,1,8,42,C4,00,00,FE,00,00,00,
107985139,00000207,false,Rx,1,8,76,EC,F2,EB,F0,00,00,72,
107985375,00000227,false,Rx,1,8,A0,A7,31,83,00,00,EC,D1,
108013428,0000042C,false,Rx,1,8,42,C4,00,00,FE,00,00,00,
108085106,00000207,false,Rx,1,8,76,EC,F2,EA,F0,00,00,72,
108085342,00000227,false,Rx,1,8,A0,A7,2F,83,00,00,EC,D1,
108113424,0000042C,false,Rx,1,8,42,C4,00,00,FE,00,00,00,
108185466,00000207,false,Rx,1,8,76,EC,FA,EA,F0,28,00,72,
108185704,00000227,false,Rx,1,8,BA,B7,DC,82,0C,00,EC,D1,
108213415,0000042C,false,Rx,1,8,42,C4,00,00,FE,00,00,00,
108285122,00000207,false,Rx,1,8,77,EC,3A,EA,F0,22,00,72,
108285359,00000227,false,Rx,1,8,AF,CB,5C,83,9F,00,EC,D1,
108313655,0000042C,false,Rx,1,8,42,C4,00,00,FE,00,00,00,
108385100,00000207,false,Rx,1,8,76,EC,3A,E9,F0,1E,00,72,
108385329,00000227,false,Rx,1,8,84,CE,59,83,53,00,EC,D1,
108413423,0000042C,false,Rx,1,8,42,C4,00,00,FE,00,00,00,
108485098,00000207,false,Rx,1,8,76,EC,FA,E8,F0,18,00,72,
108485327,00000227,false,Rx,1,8,D3,CE,27,83,03,00,EC,D1,
108513409,0000042C,false,Rx,1,8,42,C4,5F,00,FE,00,00,00,
108585096,00000207,false,Rx,1,8,76,EC,BA,E7,F0,18,00,73,
108585324,00000227,false,Rx,1,8,82,D1,84,83,95,01,EC,D1,
108613409,0000042C,false,Rx,1,8,42,C4,24,01,FE,00,00,00,
108685000,00000207,false,Rx,1,8,76,EC,7A,E7,F0,18,00,72,
108685236,00000227,false,Rx,1,8,4C,D1,48,83,9F,01,EC,D1,
108713402,0000042C,false,Rx,1,8,42,C4,75,02,FE,00,00,00,
108784980,00000207,false,Rx,1,8,76,EC,FA,E6,F0,1A,00,72,
108785231,00000227,false,Rx,1,8,D8,D0,4C,83,F9,01,EC,D1,
108813665,0000042C,false,Rx,1,8,42,C4,07,03,FE,00,00,00,
108884946,00000207,false,Rx,1,8,76,EC,7A,E5,F0,1A,00,73,
108885183,00000227,false,Rx,1,8,E7,D0,5B,83,02,02,EC,D1,
108913401,0000042C,false,Rx,1,8,42,C4,2C,04,FE,00,00,00,
108984936,00000207,false,Rx,1,8,76,EC,3A,E5,F0,1A,00,72,
108985165,00000227,false,Rx,1,8,AA,D0,84,83,04,02,EC,D1,
109013399,0000042C,false,Rx,1,8,42,C4,7D,05,FE,00,00,00,
109084875,00000207,false,Rx,1,8,76,EC,3A,E4,F0,1A,00,73,
109085103,00000227,false,Rx,1,8,51,D0,53,83,55,01,EC,D1,
109113397,0000042C,false,Rx,1,8,42,C4,00,07,FE,00,00,00,
109184982,00000207,false,Rx,1,8,76,EC,FA,E2,F0,1C,00,73,
109185210,00000227,false,Rx,1,8,28,D0,69,83,27,02,EC,D1,
109213393,0000042C,false,Rx,1,8,42,C4,B7,08,FE,00,00,00,
109284821,00000207,false,Rx,1,8,76,EC,3A,E3,F0,1E,00,72,
109285049,00000227,false,Rx,1,8,B2,D0,67,83,AA,02,EC,D1,
109313386,0000042C,false,Rx,1,8,42,C4,CD,0A,FE,00,00,00,
109384788,00000207,false,Rx,1,8,76,EC,7A,E1,F0,26,00,73,
109385016,00000227,false,Rx,1,8,7A,D1,71,83,01,04,EC,D1,
109413386,0000042C,false,Rx,1,8,42,C4,B0,0C,FE,00,00,00,
109484750,00000207,false,Rx,1,8,76,EB,7A,E1,F0,30,00,72,
109484979,00000227,false,Rx,1,8,CC,D1,86,83,15,03,EC,D1,
109513387,0000042C,false,Rx,1,8,42,C4,C6,0E,FE,00,00,00,
109584746,00000207,false,Rx,1,8,77,EC,BA,E0,F0,3A,00,73,
109584974,00000227,false,Rx,1,8,06,D2,B9,83,87,06,EC,D1,
109613391,0000042C,false,Rx,1,8,42,C4,EE,10,FE,00,00,00,
109684774,00000207,false,Rx,1,8,77,EC,7A,DF,F0,44,00,73,
109685010,00000227,false,Rx,1,8,38,D2,78,83,F9,04,EC,D1,
109713394,0000042C,false,Rx,1,8,42,C4,BF,12,FE,00,00,00,
109784656,00000207,false,Rx,1,8,76,EC,7A,DF,F0,4C,00,72,
109784886,00000227,false,Rx,1,8,51,D2,82,83,88,07,EC,D1,
109813647,0000042C,false,Rx,1,8,42,C4,A8,14,FE,00,00,00,
109884622,00000207,false,Rx,1,8,76,EC,BA,DD,F0,56,00,74,
109884852,00000227,false,Rx,1,8,4B,D2,C0,83,6B,09,EC,D1,
109913385,0000042C,false,Rx,1,8,42,C4,8B,16,FE,00,00,00,
109984597,00000207,false,Rx,1,8,76,EB,7A,DD,F0,62,00,73,
109984826,00000227,false,Rx,1,8,85,D2,96,83,94,09,EC,D1,
110013387,0000042C,false,Rx,1,8,42,C4,6E,18,FE,00,00,00,
110084567,00000207,false,Rx,1,8,77,EB,3A,DD,F0,6C,00,73,
110084798,00000227,false,Rx,1,8,D5,D2,8A,83,BC,0C,EC,D1,
110113393,0000042C,false,Rx,1,8,42,C4,6E,1A,FE,00,00,00,
110184649,00000207,false,Rx,1,8,77,EC,3A,DC,F0,76,00,74,
110184879,00000227,false,Rx,1,8,64,D2,A6,83,81,0C,EC,D1,
110213380,0000042C,false,Rx,1,8,42,C4,5A,1C,FE,00,00,00,
110284534,00000207,false,Rx,1,8,77,EB,BA,DB,F0,7E,00,73,
110284763,00000227,false,Rx,1,8,5E,D2,96,83,79,0C,EC,D1,
110313378,0000042C,false,Rx,1,8,42,C4,EB,1D,FE,00,00,00,
110384473,00000207,false,Rx,1,8,77,EB,FA,DA,F0,88,00,73,
110384702,00000227,false,Rx,1,8,6E,D2,AD,83,15,0E,EC,D1,
110413376,0000042C,false,Rx,1,8,42,C4,F7,1F,FE,00,00,00,
110484433,00000207,false,Rx,1,8,76,EB,7A,DA,F0,92,00,73,
110484654,00000227,false,Rx,1,8,94,D2,8C,83,6D,0E,EC,D1,
110513376,0000042C,false,Rx,1,8,42,C4,A9,21,FE,00,00,00,
110584410,00000207,false,Rx,1,8,76,EB,FA,D9,F0,9E,00,73,
110584638,00000227,false,Rx,1,8,6B,D2,E7,83,66,0D,EC,D1,
110613376,0000042C,false,Rx,1,8,42,C4,C1,23,FE,00,00,00,
110684389,00000207,false,Rx,1,8,76,EB,3A,D9,F0,A8,00,75,
110684619,00000227,false,Rx,1,8,A7,D2,EC,83,95,10,EC,D1,
110713378,0000042C,false,Rx,1,8,42,C4,7A,25,FE,00,00,00,
110784355,00000207,false,Rx,1,8,76,EB,FA,D8,F0,B2,00,73,
110784583,00000227,false,Rx,1,8,CA,D2,DF,83,D6,10,EC,D1,
110813632,0000042C,false,Rx,1,8,42,C4,5F,27,FE,00,00,00,
110884306,00000207,false,Rx,1,8,76,EB,BA,D7,F0,BC,00,73,
110884534,00000227,false,Rx,1,8,D9,D2,E7,83,65,12,EC,D1,
110913380,0000042C,false,Rx,1,8,42,C4,4A,29,FE,00,00,00,
110984290,00000207,false,Rx,1,8,76,EB,3A,D7,F0,C6,00,74,
110984526,00000227,false,Rx,1,8,81,D2,8F,83,E1,12,EC,D1,
111013376,0000042C,false,Rx,1,8,42,C4,2F,2B,FE,00,00,00,
111084254,00000207,false,Rx,1,8,76,EB,FA,D6,F0,CE,00,73,
111084490,00000227,false,Rx,1,8,C2,D2,FF,83,C3,13,EC,D1,
111113378,0000042C,false,Rx,1,8,42,C4,15,2D,FE,00,00,00,
111184357,00000207,false,Rx,1,8,76,EB,3A,D6,F0,D8,00,75,
111184587,00000227,false,Rx,1,8,A8,D2,35,84,D6,13,EC,D1,
111213367,0000042C,false,Rx,1,8,42,C4,FA,2E,FE,00,00,00,
111284201,00000207,false,Rx,1,8,76,EB,BA,D5,F0,E2,00,74,
111284422,00000227,false,Rx,1,8,DB,D2,2B,84,41,16,EC,D1,
111313366,0000042C,false,Rx,1,8,42,C4,E5,30,FE,00,00,00,
111384160,00000207,false,Rx,1,8,76,EA,FA,D4,F0,EA,00,74,
111384388,00000227,false,Rx,1,8,E5,D2,39,84,E3,15,EC,D1,
111413365,0000042C,false,Rx,1,8,42,C4,CA,32,FE,00,00,00,
111484137,00000207,false,Rx,1,8,76,EB,FA,D3,F0,F4,00,74,
111484372,00000227,false,Rx,1,8,0A,D3,3F,84,7D,17,EC,D1,
111513388,0000042C,false,Rx,1,8,42,C4,E9,34,FE,00,00,00,
111584250,00000207,false,Rx,1,8,76,EA,3A,D4,F0,FE,00,74,
111584471,00000227,false,Rx,1,8,41,D3,46,84,28,18,EC,D1,
111613381,0000042C,false,Rx,1,8,42,C4,9B,36,FE,00,00,00,
111684170,00000207,false,Rx,1,8,76,EA,BA,D2,F0,06,01,75,
111684391,00000227,false,Rx,1,8,5D,D3,6A,84,86,19,EC,D1,
111713357,0000042C,false,Rx,1,8,42,C4,BE,38,FE,00,00,00,
111784226,00000207,false,Rx,1,8,76,EA,7A,D2,F0,10,01,75,
111784456,00000227,false,Rx,1,8,2B,D3,B0,84,EB,1A,EC,D1,
111813612,0000042C,false,Rx,1,8,42,C4,A5,3A,FE,00,00,00,
111884150,00000207,false,Rx,1,8,76,EA,3A,D2,F0,1A,01,74,
111884378,00000227,false,Rx,1,8,62,D3,83,84,9B,1B,EC,D1,
111913356,0000042C,false,Rx,1,8,42,C4,93,3C,FE,00,00,00,
111984198,00000207,false,Rx,1,8,76,EA,FA,D0,F0,22,01,75,
111984419,00000227,false,Rx,1,8,57,D3,A9,84,4C,1C,EC,D1,
112013357,0000042C,false,Rx,1,8,42,C4,7A,3E,FE,00,00,00,
112083948,00000207,false,Rx,1,8,76,EA,7A,D1,F0,2C,01,74,
112084169,00000227,false,Rx,1,8,6C,D3,9B,84,3B,1D,EC,D1,
112113352,0000042C,false,Rx,1,8,42,C4,61,40,FE,00,00,00,
112184047,00000207,false,Rx,1,8,76,EA,7A,D0,F0,36,01,75,
112184276,00000227,false,Rx,1,8,99,D3,EF,84,82,1E,EC,D1,
112213356,0000042C,false,Rx,1,8,42,C4,7B,42,FE,00,00,00,
112283882,00000207,false,Rx,1,8,76,EA,FA,CF,F0,3E,01,75,
112284110,00000227,false,Rx,1,8,74,D3,E2,84,2C,1F,EC,D1,
112313352,0000042C,false,Rx,1,8,42,C4,63,44,FE,00,00,00,
112383857,00000207,false,Rx,1,8,76,EA,BA,CF,F0,48,01,74,
112384085,00000227,false,Rx,1,8,A7,D3,BD,84,AC,1F,EC,D1,
112413350,0000042C,false,Rx,1,8,42,C4,50,46,FE,00,00,00,
112483822,00000207,false,Rx,1,8,76,EA,BA,CF,F0,52,01,75,
112484050,00000227,false,Rx,1,8,CD,D3,E9,84,44,21,EC,D1,
112513351,0000042C,false,Rx,1,8,42,C4,6B,48,FE,00,00,00,
112583791,00000207,false,Rx,1,8,76,EA,FA,CE,F0,5C,01,74,
112584012,00000227,false,Rx,1,8,73,D3,F6,84,E7,22,EC,D1,
112613350,0000042C,false,Rx,1,8,42,C4,1F,4A,FE,00,00,00,
112683751,00000207,false,Rx,1,8,76,E9,BA,CE,F0,66,01,75,
112683971,00000227,false,Rx,1,8,09,D4,34,85,D1,21,EC,D1,
112713337,0000042C,false,Rx,1,8,42,C4,39,4C,FE,00,00,00,
112783740,00000207,false,Rx,1,8,76,EA,3A,CE,F0,70,01,76,
112783968,00000227,false,Rx,1,8,8F,D3,80,85,6B,24,EC,D1,
112813595,0000042C,false,Rx,1,8,42,C4,76,4E,FE,00,00,00,
112883735,00000207,false,Rx,1,8,76,E9,3A,CE,F0,7A,01,75,
112883969,00000227,false,Rx,1,8,39,D3,5F,85,6D,23,EC,D1,
112913343,0000042C,false,Rx,1,8,42,C4,3B,50,FE,00,00,00,
112983662,00000207,false,Rx,1,8,76,E9,7A,CD,F0,84,01,75,
112983890,00000227,false,Rx,1,8,C0,D3,C1,85,6D,24,EC,D1,
113013333,0000042C,false,Rx,1,8,42,C4,83,52,FE,00,00,00,
113083621,00000207,false,Rx,1,8,76,E9,FA,CC,F0,8E,01,75,
113083850,00000227,false,Rx,1,8,D2,D3,35,86,22,27,EC,D1,
113113333,0000042C,false,Rx,1,8,42,C4,9F,54,FE,00,00,00,
113183746,00000207,false,Rx,1,8,76,E9,FA,CC,F0,9A,01,75,
113183967,00000227,false,Rx,1,8,C5,D3,1B,86,7A,27,EC,D1,
113213337,0000042C,false,Rx,1,8,42,C4,89,56,FE,00,00,00,
113283563,00000207,false,Rx,1,8,76,E9,3A,CC,F0,A6,01,76,
113283785,00000227,false,Rx,1,8,CB,D3,BD,86,EF,27,EC,D1,
113313340,0000042C,false,Rx,1,8,42,C4,E3,57,FE,00,00,00,
113383553,00000207,false,Rx,1,8,76,E8,BA,CC,F0,B0,01,75,
113383782,00000227,false,Rx,1,8,F5,D3,AA,86,D1,29,EC,D1,
113413346,0000042C,false,Rx,1,8,42,C4,E3,57,FE,00,00,00,
113483495,00000207,false,Rx,1,8,76,E9,BA,CB,F0,B6,01,75,
113483733,00000227,false,Rx,1,8,C8,D3,04,87,77,29,EC,D1,
113513340,0000042C,false,Rx,1,8,42,C4,E3,57,FE,00,00,00,
113583472,00000207,false,Rx,1,8,76,E9,3A,CB,F0,BA,01,76,
113583701,00000227,false,Rx,1,8,8C,D3,A8,86,74,28,EC,D1,
113613331,0000042C,false,Rx,1,8,42,C4,E3,57,FE,00,00,00,
113683432,00000207,false,Rx,1,8,76,E9,BA,CB,F0,BA,01,75,
113683661,00000227,false,Rx,1,8,AE,D3,BA,86,81,28,EC,D1,
113713331,0000042C,false,Rx,1,8,42,C4,E3,57,FE,00,00,00,
113783397,00000207,false,Rx,1,8,76,E9,7A,CA,F0,BC,01,76,
113783626,00000227,false,Rx,1,8,A9,D3,94,86,BA,27,EC,D1,
113813587,0000042C,false,Rx,1,8,42,C4,E3,57,FE,00,00,00,
113883380,00000207,false,Rx,1,8,76,E9,BA,CA,F0,BC,01,75,
113883607,00000227,false,Rx,1,8,98,D3,CD,86,59,27,EC,D1,
113913326,0000042C,false,Rx,1,8,42,C4,E3,57,FE,00,00,00,
113983354,00000207,false,Rx,1,8,76,E8,FA,C9,F0,BC,01,75,
113983581,00000227,false,Rx,1,8,A0,D3,8C,86,0B,28,EC,D1,
114013335,0000042C,false,Rx,1,8,42,C4,E3,57,FE,00,00,00,
114083332,00000207,false,Rx,1,8,76,E9,FA,C9,F0,BE,01,76,
114083559,00000227,false,Rx,1,8,94,D3,95,86,D7,25,EC,D1,
114113323,0000042C,false,Rx,1,8,42,C4,E3,57,FE,00,00,00,
114183436,00000207,false,Rx,1,8,76,E8,3A,CA,F0,BC,01,75,
114183657,00000227,false,Rx,1,8,6C,D3,D1,86,53,2A,EC,D1,
114213565,0000042C,false,Rx,1,8,42,C4,E3,57,FE,00,00,00,
114283259,00000207,false,Rx,1,8,76,E8,FA,C8,F0,BC,01,76,
114283480,00000227,false,Rx,1,8,73,D3,AD,86,1F,29,EC,D1,
114313325,0000042C,false,Rx,1,8,42,C4,E3,57,FE,00,00,00,
114383463,00000207,false,Rx,1,8,76,E9,7A,C9,F0,BC,01,76,
114383684,00000227,false,Rx,1,8,0D,D3,8E,86,F6,27,EC,D1,
114413322,0000042C,false,Rx,1,8,42,C4,E3,57,FE,00,00,00,
114483197,00000207,false,Rx,1,8,76,E8,3A,C9,F0,BA,01,76,
114483416,00000227,false,Rx,1,8,8C,D3,CE,86,C1,29,EC,D1,
114513323,0000042C,false,Rx,1,8,42,C4,E3,57,FE,00,00,00,
114583152,00000207,false,Rx,1,8,76,E9,7A,C8,F0,BC,01,76,
114583381,00000227,false,Rx,1,8,25,D3,FE,86,0C,29,EC,D1,
114613323,0000042C,false,Rx,1,8,42,C4,E3,57,FE,00,00,00,
114683166,00000207,false,Rx,1,8,76,E9,FA,C8,F0,BA,01,75,
114683385,00000227,false,Rx,1,8,78,D3,B3,86,37,29,EC,D1,
114713304,0000042C,false,Rx,1,8,42,C4,E3,57,FE,00,00,00,
114783097,00000207,false,Rx,1,8,76,E8,FA,C7,F0,BA,01,76,
114783326,00000227,false,Rx,1,8,60,D3,CB,86,03,29,EC,D1,
114813567,0000042C,false,Rx,1,8,42,C4,E3,57,FE,00,00,00,
114883041,00000207,false,Rx,1,8,76,E9,3A,C8,F0,BA,01,77,
114883271,00000227,false,Rx,1,8,13,D3,8D,86,D6,27,EC,D1,
114913304,0000042C,false,Rx,1,8,42,C4,E3,57,FE,00,00,00,
114983029,00000207,false,Rx,1,8,76,E9,FA,C7,F0,BA,01,76,
114983258,00000227,false,Rx,1,8,A6,D3,91,86,B8,2A,EC,D1,
115013295,0000042C,false,Rx,1,8,42,C4,E3,57,FE,00,00,00,
115083000,00000207,false,Rx,1,8,76,E9,7A,C7,F0,BA,01,76,
115083243,00000227,false,Rx,1,8,35,D3,04,87,5B,28,EC,D1,
115113292,0000042C,false,Rx,1,8,42,C4,E3,57,FE,00,00,00,
115183098,00000207,false,Rx,1,8,76,E9,BA,C7,F0,BA,01,76,
115183326,00000227,false,Rx,1,8,12,D3,B5,86,F5,27,EC,D1,
115213539,0000042C,false,Rx,1,8,42,C4,E3,57,FE,00,00,00,
115282930,00000207,false,Rx,1,8,76,E9,7A,C7,F0,BA,01,76,
115283158,00000227,false,Rx,1,8,A1,D3,8A,86,B6,27,EC,D1,
115313287,0000042C,false,Rx,1,8,42,C4,E3,57,FE,00,00,00,
115382900,00000207,false,Rx,1,8,76,E9,FA,C6,F0,BA,01,77,
115383120,00000227,false,Rx,1,8,F8,D2,A4,86,4C,28,EC,D1,
115413284,0000042C,false,Rx,1,8,42,C4,E3,57,FE,00,00,00,
115482874,00000207,false,Rx,1,8,76,E9,3A,C7,F0,BA,01,76,
115483103,00000227,false,Rx,1,8,2D,D3,D6,86,5F,29,EC,D1,
115513278,0000042C,false,Rx,1,8,42,C4,E3,57,FE,00,00,00,
115582828,00000207,false,Rx,1,8,76,E9,BA,C7,F0,BC,01,76,
115583064,00000227,false,Rx,1,8,27,D3,BE,86,59,27,EC,D1,
115613282,0000042C,false,Rx,1,8,42,C4,E3,57,FE,00,00,00,
115682818,00000207,false,Rx,1,8,76,EA,FA,C6,F0,BC,01,77,
115683046,00000227,false,Rx,1,8,C4,D2,CD,86,58,27,EC,D1,
115713281,0000042C,false,Rx,1,8,42,C4,E3,57,FE,00,00,00,
115782778,00000207,false,Rx,1,8,76,E9,FA,C6,F0,BC,01,75,
115783006,00000227,false,Rx,1,8,0C,D3,0D,87,F9,26,EC,D1,
115813530,0000042C,false,Rx,1,8,42,C4,E3,57,FE,00,00,00,
115882747,00000207,false,Rx,1,8,76,E9,3A,C6,F0,BC,01,77,
115882975,00000227,false,Rx,1,8,F2,D2,A0,86,67,27,EC,D1,
115913267,0000042C,false,Rx,1,8,42,C4,E3,57,FE,00,00,00,
115982730,00000207,false,Rx,1,8,76,E9,BA,C6,F0,BC,01,76,
115982960,00000227,false,Rx,1,8,17,D3,F1,86,83,27,EC,D1,
116013257,0000042C,false,Rx,1,8,42,C4,E3,57,FE,00,00,00,
116082679,00000207,false,Rx,1,8,76,E9,3A,C6,F0,BC,01,76,
116082903,00000227,false,Rx,1,8,D4,D2,98,86,77,27,EC,D1,
116113250,0000042C,false,Rx,1,8,42,C4,E3,57,FE,00,00,00,
116182782,00000207,false,Rx,1,8,76,E9,FA,C5,F0,BE,01,77,
116183002,00000227,false,Rx,1,8,BD,D2,A8,86,C5,27,EC,D1,
116213501,0000042C,false,Rx,1,8,42,C4,E3,57,FE,00,00,00,
116282620,00000207,false,Rx,1,8,76,E9,7A,C6,F0,BC,01,76,
116282850,00000227,false,Rx,1,8,B5,D2,AC,86,05,27,EC,D1,
116313251,0000042C,false,Rx,1,8,42,C4,E3,57,FE,00,00,00,
116382587,00000207,false,Rx,1,8,76,E9,3A,C6,F0,BC,01,77,
116382817,00000227,false,Rx,1,8,FF,D2,CF,86,44,28,EC,D1,
116413248,0000042C,false,Rx,1,8,42,C4,E3,57,FE,00,00,00,
116482583,00000207,false,Rx,1,8,76,E9,3A,C6,F0,BC,01,77,
116482812,00000227,false,Rx,1,8,C0,D2,87,86,94,29,EC,D1,
116513246,0000042C,false,Rx,1,8,42,C4,E3,57,FE,00,00,00,
116582527,00000207,false,Rx,1,8,76,E9,FA,C5,F0,BC,01,76,
116582759,00000227,false,Rx,1,8,18,D3,B2,86,B8,28,EC,D1,
116613240,0000042C,false,Rx,1,8,42,C4,E3,57,FE,00,00,00,
116682508,00000207,false,Rx,1,8,76,E9,FA,C5,F0,BC,01,76,
116682739,00000227,false,Rx,1,8,A5,D2,B6,86,90,29,EC,D1,
116713239,0000042C,false,Rx,1,8,42,C4,E3,57,FE,00,00,00,
116782460,00000207,false,Rx,1,8,76,E8,3A,C6,F0,BC,01,75,
116782688,00000227,false,Rx,1,8,7D,D2,7B,86,C9,28,EC,D1,
116813490,0000042C,false,Rx,1,8,42,C4,E3,57,FE,00,00,00,
116882430,00000207,false,Rx,1,8,76,E8,BA,C5,F0,BC,01,76,
116882658,00000227,false,Rx,1,8,A9,D2,65,86,B7,29,EC,D1,
116913235,0000042C,false,Rx,1,8,42,C4,E3,57,FE,00,00,00,
116982420,00000207,false,Rx,1,8,76,E9,3A,C6,F0,BC,01,77,
116982648,00000227,false,Rx,1,8,4C,D1,85,86,DA,27,EC,D1,
117013221,0000042C,false,Rx,1,8,42,C4,E3,57,FE,00,00,00,
117082383,00000207,false,Rx,1,8,76,E8,7A,C5,F0,BA,01,76,
117082603,00000227,false,Rx,1,8,85,D2,DE,86,D9,27,EC,D1,
117113225,0000042C,false,Rx,1,8,42,C4,E3,57,FE,00,00,00,
117182473,00000207,false,Rx,1,8,76,E9,7A,C4,F0,BA,01,77,
117182704,00000227,false,Rx,1,8,EB,D1,FE,86,0C,27,EC,D1,
117213471,0000042C,false,Rx,1,8,42,C4,E3,57,FE,00,00,00,
117282322,00000207,false,Rx,1,8,76,E9,3A,C6,F0,BA,01,76,
117282552,00000227,false,Rx,1,8,20,D2,79,86,F1,28,EC,D1,
117313222,0000042C,false,Rx,1,8,42,C4,E3,57,FE,00,00,00,
117382275,00000207,false,Rx,1,8,76,E9,BA,C5,F0,BA,01,76,
117382504,00000227,false,Rx,1,8,5C,D2,94,86,05,28,EC,D1,
117413464,0000042C,false,Rx,1,8,42,C4,E3,57,FE,00,00,00,
117482262,00000207,false,Rx,1,8,76,E9,FA,C5,F0,BA,01,77,
117482483,00000227,false,Rx,1,8,06,D2,E7,86,68,29,EC,D1,
117513211,0000042C,false,Rx,1,8,42,C4,E3,57,FE,00,00,00,
117582306,00000207,false,Rx,1,8,76,E9,3A,C6,F0,BA,01,76,
117582534,00000227,false,Rx,1,8,28,D2,7C,86,FA,28,EC,D1,
117613209,0000042C,false,Rx,1,8,42,C4,E3,57,FE,00,00,00,
117682184,00000207,false,Rx,1,8,76,E9,FA,C5,F0,BA,01,76,
117682413,00000227,false,Rx,1,8,36,D2,23,87,A1,29,EC,D1,
117713205,0000042C,false,Rx,1,8,42,C4,E3,57,FE,00,00,00,
117782322,00000207,false,Rx,1,8,76,E9,BA,C6,F0,BC,01,77,
117782544,00000227,false,Rx,1,8,C5,D1,F7,86,59,28,EC,D1,
117813448,0000042C,false,Rx,1,8,42,C4,E3,57,FE,00,00,00,
117882108,00000207,false,Rx,1,8,76,E9,3A,C6,F0,BC,01,77,
117882337,00000227,false,Rx,1,8,ED,D1,FF,86,61,29,EC,D1,
117913202,0000042C,false,Rx,1,8,42,C4,E3,57,FE,00,00,00,
117982079,00000207,false,Rx,1,8,76,E9,7A,C6,F0,BC,01,77,
117982307,00000227,false,Rx,1,8,89,D1,B3,86,FC,28,EC,D1,
118013417,0000042C,false,Rx,1,8,42,C4,E3,57,FE,00,00,00,
118082048,00000207,false,Rx,1,8,76,E9,BA,C6,F0,BC,01,75,
118082284,00000227,false,Rx,1,8,17,D2,8F,86,6C,29,EC,D1,
118113409,0000042C,false,Rx,1,8,42,C4,E3,57,FE,00,00,00,
118182147,00000207,false,Rx,1,8,76,E9,BA,C6,F0,BC,01,75,
118182367,00000227,false,Rx,1,8,F9,D1,82,86,EF,28,EC,D1,
118213654,0000042C,false,Rx,1,8,42,C4,E3,57,FE,00,00,00,
118282031,00000207,false,Rx,1,8,76,E9,BA,C7,F0,BE,01,76,
118282504,00000227,false,Rx,1,8,7E,D1,FD,86,01,28,EC,D1,
118313405,0000042C,false,Rx,1,8,42,C4,E3,57,FE,00,00,00,
118381961,00000207,false,Rx,1,8,76,E9,3A,C8,F0,BC,01,77,
118382182,00000227,false,Rx,1,8,BD,D1,DB,86,7B,29,EC,D1,
118413438,0000042C,false,Rx,1,8,42,C4,E3,57,FE,00,00,00,
118481930,00000207,false,Rx,1,8,76,E9,BA,C7,F0,BE,01,78,
118482152,00000227,false,Rx,1,8,B0,D1,0F,87,4A,2A,EC,D1,
118513182,0000042C,false,Rx,1,8,42,C4,E3,57,FE,00,00,00,
118581901,00000207,false,Rx,1,8,76,E8,BA,C8,F0,BC,01,76,
118582122,00000227,false,Rx,1,8,C2,D1,98,86,27,2A,EC,D1,
118613173,0000042C,false,Rx,1,8,42,C4,E3,57,FE,00,00,00,
118681869,00000207,false,Rx,1,8,76,E8,7A,C8,F0,BC,01,75,
118682089,00000227,false,Rx,1,8,A1,D1,A4,86,B5,29,EC,D1,
118713172,0000042C,false,Rx,1,8,42,C4,E3,57,FE,00,00,00,
118781847,00000207,false,Rx,1,8,76,E9,3A,C9,F0,BC,01,76,
118782075,00000227,false,Rx,1,8,60,D1,1E,87,55,28,EC,D1,
118813424,0000042C,false,Rx,1,8,42,C4,E3,57,FE,00,00,00,
118881805,00000207,false,Rx,1,8,76,E8,FA,C8,F0,BC,01,76,
118882040,00000227,false,Rx,1,8,20,D1,DF,86,30,28,EC,D1,
118913168,0000042C,false,Rx,1,8,42,C4,E3,57,FE,00,00,00,
118981781,00000207,false,Rx,1,8,76,E8,BA,C9,F0,BC,01,76,
118982003,00000227,false,Rx,1,8,5E,D1,B5,86,7D,28,EC,D1,
119013313,0000042C,false,Rx,1,8,42,C4,E3,57,FE,00,00,00,
119081741,00000207,false,Rx,1,8,76,E9,3A,CA,F0,BC,01,77,
119081971,00000227,false,Rx,1,8,0D,D1,AF,86,5D,2A,EC,D1,
119113304,0000042C,false,Rx,1,8,42,C4,E3,57,FE,00,00,00,
119181825,00000207,false,Rx,1,8,76,E9,7A,CA,F0,BA,01,76,
119182046,00000227,false,Rx,1,8,C2,D0,DA,86,5B,28,EC,D1,
119213402,0000042C,false,Rx,1,8,42,C4,E3,57,FE,00,00,00,
119281682,00000207,false,Rx,1,8,76,E9,BA,CA,F0,BA,01,76,
119281904,00000227,false,Rx,1,8,0C,D1,E2,86,0F,28,EC,D1,
119313152,0000042C,false,Rx,1,8,42,C4,E3,57,FE,00,00,00,
119381658,00000207,false,Rx,1,8,76,E9,FA,CB,F0,BA,01,74,
119381880,00000227,false,Rx,1,8,C9,D0,FE,86,43,28,EC,D1,
119413404,0000042C,false,Rx,1,8,42,C4,E3,57,FE,00,00,00,
119481615,00000207,false,Rx,1,8,76,E8,FA,CB,F0,BC,01,75,
119481852,00000227,false,Rx,1,8,49,D1,01,87,C3,28,EC,D1,
119513159,0000042C,false,Rx,1,8,42,C4,E3,57,FE,00,00,00,
119581611,00000207,false,Rx,1,8,76,E9,7A,CC,F0,BC,01,76,
119581842,00000227,false,Rx,1,8,03,D1,F3,86,A7,29,EC,D1,
119613149,0000042C,false,Rx,1,8,42,C4,E3,57,FE,00,00,00,
119681555,00000207,false,Rx,1,8,75,E8,3A,CD,F0,BC,01,76,
119681778,00000227,false,Rx,1,8,FE,D0,E9,86,16,2A,EC,D1,
119713144,0000042C,false,Rx,1,8,42,C4,E3,57,FE,00,00,00,
119781538,00000207,false,Rx,1,8,76,E8,7A,CD,F0,BE,01,76,
119781760,00000227,false,Rx,1,8,D6,D0,C6,86,B2,25,EC,D1,
119813408,0000042C,false,Rx,1,8,42,C4,E3,57,FE,00,00,00,
119881488,00000207,false,Rx,1,8,75,E8,7A,CE,F0,BE,01,75,
119881732,00000227,false,Rx,1,8,B5,D0,AF,86,B7,29,EC,D1,
119913132,0000042C,false,Rx,1,8,42,C4,E3,57,FE,00,00,00,
119981459,00000207,false,Rx,1,8,75,E8,3A,CF,F0,BE,01,74,
119981698,00000227,false,Rx,1,8,AE,D0,15,87,E6,29,EC,D1,
120013131,0000042C,false,Rx,1,8,42,C4,E3,57,FE,00,00,00,
120081466,00000207,false,Rx,1,8,75,E8,FA,CF,F0,BE,01,76,
120081687,00000227,false,Rx,1,8,8C,D0,D5,86,91,28,EC,D1,
120113120,0000042C,false,Rx,1,8,42,C4,E3,57,FE,00,00,00,
120181546,00000207,false,Rx,1,8,75,E8,FA,CF,F0,BC,01,75,
120181770,00000227,false,Rx,1,8,BB,D0,F3,86,DE,29,EC,D1,
120213376,0000042C,false,Rx,1,8,42,C4,E3,57,FE,00,00,00,
120281365,00000207,false,Rx,1,8,75,E8,FA,D0,F0,BC,01,75,
120281591,00000227,false,Rx,1,8,73,D0,B5,86,FC,27,EC,D1,
120313128,0000042C,false,Rx,1,8,42,C4,E3,57,FE,00,00,00,
120381332,00000207,false,Rx,1,8,75,E8,3A,D2,F0,BC,01,75,
120381552,00000227,false,Rx,1,8,8D,D0,BA,86,80,28,EC,D1,
120413370,0000042C,false,Rx,1,8,42,C4,E3,57,FE,00,00,00,
120481299,00000207,false,Rx,1,8,75,E8,BA,D2,F0,BA,01,74,
120481520,00000227,false,Rx,1,8,86,D0,F4,86,38,2A,EC,D1,
120513129,0000042C,false,Rx,1,8,42,C4,E3,57,FE,00,00,00,
120581274,00000207,false,Rx,1,8,75,E8,7A,D3,F0,BC,01,75,
120581495,00000227,false,Rx,1,8,4D,D0,BF,86,1E,29,EC,D1,
120613112,0000042C,false,Rx,1,8,42,C4,E3,57,FE,00,00,00,
120681247,00000207,false,Rx,1,8,76,E8,FA,D3,F0,BA,01,75,
120681475,00000227,false,Rx,1,8,FB,CF,A1,86,F1,28,EC,D1,
120713116,0000042C,false,Rx,1,8,42,C4,E3,57,FE,00,00,00,
120781239,00000207,false,Rx,1,8,76,E8,FA,D4,F0,BA,01,75,
120781461,00000227,false,Rx,1,8,A1,D0,C9,86,D3,28,EC,D1,
120813363,0000042C,false,Rx,1,8,42,C4,E3,57,FE,00,00,00,
120881176,00000207,false,Rx,1,8,76,E8,3A,D6,F0,BC,01,75,
120881406,00000227,false,Rx,1,8,ED,CF,B0,86,E2,2A,EC,D1,
120913108,0000042C,false,Rx,1,8,42,C4,E3,57,FE,00,00,00,
120981142,00000207,false,Rx,1,8,75,E8,BA,D6,F0,BC,01,73,
120981371,00000227,false,Rx,1,8,44,D0,98,86,0C,2B,EC,D1,
121013105,0000042C,false,Rx,1,8,42,C4,E3,57,FE,00,00,00,
121081113,00000207,false,Rx,1,8,75,E8,BA,D7,F0,BC,01,74,
121081342,00000227,false,Rx,1,8,F5,CF,B8,86,D6,28,EC,D1,
121113097,0000042C,false,Rx,1,8,42,C4,E3,57,FE,00,00,00,
121181234,00000207,false,Rx,1,8,75,E8,FA,D8,F0,BC,01,74,
121181463,00000227,false,Rx,1,8,9D,CF,AE,86,D9,29,EC,D1,
121213345,0000042C,false,Rx,1,8,42,C4,E3,57,FE,00,00,00,
121281055,00000207,false,Rx,1,8,75,E7,7A,D9,F0,BC,01,73,
121281289,00000227,false,Rx,1,8,77,D0,7C,86,62,29,EC,D1,
121313135,0000042C,false,Rx,1,8,42,C4,E3,57,FE,00,00,00,
121381052,00000207,false,Rx,1,8,75,E8,BA,DA,F0,BE,01,74,
121381281,00000227,false,Rx,1,8,2A,D0,EB,86,72,27,EC,D1,
121413577,0000042C,false,Rx,1,8,42,C4,E3,57,FE,00,00,00,
121481006,00000207,false,Rx,1,8,75,E7,3A,DC,F0,BE,01,73,
121481232,00000227,false,Rx,1,8,25,D0,08,87,13,29,EC,D1,
121513091,0000042C,false,Rx,1,8,42,C4,E3,57,FE,00,00,00,
121580968,00000207,false,Rx,1,8,75,E7,BA,DC,F0,BC,01,73,
121581197,00000227,false,Rx,1,8,53,D0,88,86,38,28,EC,D1,
121613080,0000042C,false,Rx,1,8,42,C4,E3,57,FE,00,00,00,
121680956,00000207,false,Rx,1,8,75,E7,BA,DD,F0,BC,01,74,
121681191,00000227,false,Rx,1,8,40,D0,B2,86,7C,28,EC,D1,
121713080,0000042C,false,Rx,1,8,42,C4,E3,57,FE,00,00,00,
121780958,00000207,false,Rx,1,8,75,E6,3A,DF,F0,BC,01,72,
121781163,00000227,false,Rx,1,8,94,D0,D7,86,10,2A,EC,D1,
121813324,0000042C,false,Rx,1,8,42,C4,E3,57,FE,00,00,00,
121880939,00000207,false,Rx,1,8,75,E7,7A,DF,F0,BC,01,73,
121881158,00000227,false,Rx,1,8,50,D0,E3,86,23,28,EC,D1,
121913069,0000042C,false,Rx,1,8,42,C4,E3,57,FE,00,00,00,
121980941,00000207,false,Rx,1,8,75,E7,BA,E1,F0,BC,01,73,
121981162,00000227,false,Rx,1,8,DF,CF,B3,86,CE,28,EC,D1,
122013073,0000042C,false,Rx,1,8,42,C4,E3,57,FE,00,00,00,
122080932,00000207,false,Rx,1,8,75,E7,7A,E2,F0,BA,01,72,
122081153,00000227,false,Rx,1,8,FB,CF,D9,86,AA,2A,EC,D1,
122113062,0000042C,false,Rx,1,8,42,C4,E3,57,FE,00,00,00,
122181180,00000207,false,Rx,1,8,75,E7,BA,E3,F0,BC,01,73,
122181408,00000227,false,Rx,1,8,25,D0,C4,86,D7,28,EC,D1,
122213311,0000042C,false,Rx,1,8,42,C4,E3,57,FE,00,00,00,
122280755,00000207,false,Rx,1,8,75,E7,FA,E4,F0,BC,01,71,
122280982,00000227,false,Rx,1,8,36,D0,E4,86,E2,28,EC,D1,
122313065,0000042C,false,Rx,1,8,42,C4,E3,57,FE,00,00,00,
122380753,00000207,false,Rx,1,8,75,E7,3A,E5,F0,BC,01,72,
122380973,00000227,false,Rx,1,8,66,D0,0E,87,52,29,EC,D1,
122413315,0000042C,false,Rx,1,8,42,C4,E3,57,FE,00,00,00,
122480748,00000207,false,Rx,1,8,75,E7,3A,E5,F0,BC,01,73,
122480975,00000227,false,Rx,1,8,07,D0,A4,86,51,28,EC,D1,
122513054,0000042C,false,Rx,1,8,42,C4,E3,57,FE,00,00,00,
122580744,00000207,false,Rx,1,8,75,E7,7A,E8,F0,BC,01,72,
122580977,00000227,false,Rx,1,8,3C,D0,0C,87,86,29,EC,D1,
122613059,0000042C,false,Rx,1,8,42,C4,E3,57,FE,00,00,00,
122680747,00000207,false,Rx,1,8,75,E7,3A,E9,F0,BE,01,73,
122680980,00000227,false,Rx,1,8,D7,D0,19,87,80,29,EC,D1,
122713049,0000042C,false,Rx,1,8,42,C4,E3,57,FE,00,00,00,
122780905,00000207,false,Rx,1,8,75,E7,7A,EB,F0,BE,01,72,
122781126,00000227,false,Rx,1,8,4A,D0,E9,86,D1,28,EC,D1,
122813293,0000042C,false,Rx,1,8,42,C4,E3,57,FE,00,00,00,
122880898,00000207,false,Rx,1,8,75,E6,FA,EB,F0,BC,01,71,
122881128,00000227,false,Rx,1,8,BD,D0,ED,86,71,28,EC,D1,
122912904,0000042C,false,Rx,1,8,42,C4,E3,57,FE,00,00,00,
122980896,00000207,false,Rx,1,8,75,E7,BA,ED,F0,BC,01,72,
122981118,00000227,false,Rx,1,8,14,D0,BD,86,55,28,EC,D1,
123013030,0000042C,false,Rx,1,8,42,C4,E3,57,FE,00,00,00,
123080476,00000207,false,Rx,1,8,75,E7,BA,EE,F0,BC,01,72,
123080932,00000227,false,Rx,1,8,8E,D0,D8,86,F9,29,EC,D1,
123113027,0000042C,false,Rx,1,8,42,C4,E3,57,FE,00,00,00,
123180834,00000207,false,Rx,1,8,75,E7,BA,EF,F0,BC,01,73,
123181055,00000227,false,Rx,1,8,94,D0,1E,87,71,29,EC,D1,
123213146,0000042C,false,Rx,1,8,42,C4,E3,57,FE,00,00,00,
123280436,00000207,false,Rx,1,8,75,E7,FA,F0,F0,BA,01,72,
123280885,00000227,false,Rx,1,8,C6,D0,A4,86,CB,28,EC,D1,
123313032,0000042C,false,Rx,1,8,42,C4,E3,57,FE,00,00,00,
123380380,00000207,false,Rx,1,8,75,E7,3A,F2,F0,BA,01,71,
123380839,00000227,false,Rx,1,8,AA,D0,C2,86,C8,27,EC,D1,
