Time Stamp,ID,Extended,Dir,Bus,LEN,D1,D2,D3,D4,D5,D6,D7,D8
34991194,000005E7,false,Rx,1,8,00,3F,05,06,00,00,00,01,
35112565,00000217,false,Rx,1,8,00,00,80,FF,7D,02,00,04,
35202771,00000207,false,Rx,1,8,00,02,40,FF,00,00,04,00,
35203019,00000227,false,Rx,1,8,06,00,00,00,01,00,1F,C5,
35203261,00000237,false,Rx,1,8,3B,41,00,00,00,00,00,00,
35203500,00000247,false,Rx,1,8,00,7D,6E,03,00,00,20,00,
35203749,00000717,false,Rx,1,8,02,00,00,00,00,00,00,00,
35212565,00000217,false,Rx,1,8,00,00,80,FF,9C,02,01,04,
35302734,00000207,false,Rx,1,8,00,02,40,FF,C8,00,04,00,
35302981,00000227,false,Rx,1,8,02,00,00,00,02,00,1F,C5,
35303220,00000237,false,Rx,1,8,3B,41,00,00,00,00,00,00,
35303463,00000247,false,Rx,1,8,44,7D,6E,03,00,00,20,00,
35312547,00000217,false,Rx,1,8,02,40,80,FF,9C,02,01,04,
35402726,00000207,false,Rx,1,8,00,02,40,FF,C8,00,04,00,
35402973,00000227,false,Rx,1,8,01,00,00,00,01,00,1F,C5,
35403220,00000237,false,Rx,1,8,3B,41,00,00,00,00,00,00,
35403455,00000247,false,Rx,1,8,44,7D,6E,03,00,00,20,00,
35403702,00000717,false,Rx,1,8,04,00,00,00,00,00,00,00,
35412525,00000217,false,Rx,1,8,02,40,80,FF,9C,02,01,04,
35502711,00000207,false,Rx,1,8,00,02,80,FF,C8,00,04,00,
35502965,00000227,false,Rx,1,8,04,00,00,00,00,00,1F,C5,
35503206,00000237,false,Rx,1,8,3B,41,00,00,00,00,00,00,
35503447,00000247,false,Rx,1,8,44,7D,6E,03,00,00,20,00,
35503687,00000717,false,Rx,1,8,05,00,00,00,00,00,00,00,
35512498,00000217,false,Rx,1,8,02,40,80,FF,9C,02,01,04,
35602658,00000207,false,Rx,1,8,00,02,80,FF,C8,00,04,00,
35602904,00000227,false,Rx,1,8,07,00,00,00,02,00,1F,C5,
35603145,00000237,false,Rx,1,8,3B,41,00,00,00,00,00,00,
35603388,00000247,false,Rx,1,8,44,7D,6E,03,00,00,20,00,
35603620,00000717,false,Rx,1,8,06,00,26,45,66,06,00,40,
35612460,00000217,false,Rx,1,8,02,80,00,FF,9C,02,01,04,
35702670,00000207,false,Rx,1,8,00,02,80,FF,C8,00,04,00,
35702910,00000227,false,Rx,1,8,04,00,00,00,01,00,1F,C5,
35703158,00000237,false,Rx,1,8,3B,41,00,00,00,00,00,00,
35703391,00000247,false,Rx,1,8,44,7D,6E,03,00,00,20,00,
35703640,00000717,false,Rx,1,8,07,00,00,00,02,0A,00,00,
35712463,00000217,false,Rx,1,8,02,80,00,FF,9C,02,01,04,
35802623,00000207,false,Rx,1,8,00,01,80,FF,C8,00,04,00,
35802870,00000227,false,Rx,1,8,01,00,00,00,00,00,1F,C5,
35803117,00000237,false,Rx,1,8,3B,41,00,00,00,00,00,00,
35803358,00000247,false,Rx,1,8,44,7D,6E,03,00,00,20,00,
35803592,00000717,false,Rx,1,8,08,00,00,00,32,45,00,00,
35812440,00000217,false,Rx,1,8,02,80,00,FF,9C,02,01,04,
35902616,00000207,false,Rx,1,8,01,01,80,FF,C8,00,04,00,
35902862,00000227,false,Rx,1,8,01,00,00,00,03,00,1F,C5,
35903102,00000237,false,Rx,1,8,3B,41,00,00,00,00,00,00,
35903344,00000247,false,Rx,1,8,44,7D,6E,03,00,00,20,00,
35903576,00000717,false,Rx,1,8,09,00,4E,45,00,00,00,00,
35912408,00000217,false,Rx,1,8,02,80,00,FF,9C,02,01,04,
36002603,00000207,false,Rx,1,8,01,01,80,FF,C8,00,04,00,
36002849,00000227,false,Rx,1,8,03,00,00,00,00,00,1F,C5,
36003090,00000237,false,Rx,1,8,3B,41,00,00,00,00,00,00,
36003331,00000247,false,Rx,1,8,44,7D,6E,03,00,00,20,00,
36003578,00000717,false,Rx,1,8,0A,00,00,00,00,00,00,00,
36012390,00000217,false,Rx,1,8,02,C0,00,FF,9C,02,01,04,
36102488,00000367,false,Rx,1,8,00,00,00,00,00,00,00,00,
36102734,00000207,false,Rx,1,8,01,01,80,FF,C8,00,04,00,
36102983,00000227,false,Rx,1,8,00,00,00,00,02,00,1F,C5,
36103223,00000237,false,Rx,1,8,3B,41,00,00,00,00,00,00,
36103464,00000247,false,Rx,1,8,44,7D,6E,03,00,00,20,00,
36103705,00000717,false,Rx,1,8,0B,00,00,00,00,00,00,00,
36112346,00000217,false,Rx,1,8,02,C0,80,FE,9C,02,00,04,
36112600,00000507,false,Rx,1,8,2C,00,00,00,00,00,00,40,
36112847,00000377,false,Rx,1,8,00,00,00,00,00,00,00,00,
36122480,00000347,false,Rx,1,8,00,00,00,00,00,08,00,00,
36132477,00000357,false,Rx,1,8,00,00,00,00,00,00,00,00,
36142474,00000327,false,Rx,1,8,00,00,00,00,00,00,00,00,
36152472,00000337,false,Rx,1,8,00,00,00,00,00,00,00,00,
36162477,00000367,false,Rx,1,8,00,00,00,00,00,00,00,00,
36172475,00000377,false,Rx,1,8,00,00,00,00,00,00,00,00,
36182486,00000347,false,Rx,1,8,00,00,00,00,00,08,00,00,
36192484,00000357,false,Rx,1,8,00,00,00,00,00,00,00,00,
36202472,00000327,false,Rx,1,8,00,00,00,00,00,00,00,00,
36202719,00000207,false,Rx,1,8,01,01,80,FF,C8,00,04,00,
36202967,00000227,false,Rx,1,8,02,00,00,00,03,00,1F,C5,
36203207,00000237,false,Rx,1,8,3B,41,00,00,00,00,00,00,
36203448,00000247,false,Rx,1,8,44,7D,6E,03,00,00,20,00,
36203689,00000717,false,Rx,1,8,0C,01,00,04,04,00,01,00,
36212351,00000217,false,Rx,1,8,02,C0,80,FE,9C,02,00,04,
36212604,00000337,false,Rx,1,8,00,00,00,00,00,00,00,00,
36302545,00000207,false,Rx,1,8,01,01,80,FF,C8,00,04,00,
36302792,00000227,false,Rx,1,8,01,00,00,00,04,00,1F,C5,
36303032,00000237,false,Rx,1,8,3B,41,00,00,00,00,00,00,
36303273,00000247,false,Rx,1,8,44,7D,6E,03,00,00,20,00,
36303514,00000717,false,Rx,1,8,0E,00,00,02,A6,04,00,00,
36312331,00000217,false,Rx,1,8,02,C0,80,FE,9C,02,00,04,
36402499,00000207,false,Rx,1,8,01,01,C0,FF,C8,00,04,00,
36402746,00000227,false,Rx,1,8,00,00,00,00,03,00,1F,C5,
36402993,00000237,false,Rx,1,8,3B,41,00,00,00,00,00,00,
36403234,00000247,false,Rx,1,8,44,7D,6E,03,00,00,20,00,
36403467,00000717,false,Rx,1,8,0F,00,EB,01,F1,0D,00,00,
36412290,00000217,false,Rx,1,8,02,C0,80,FE,9C,02,00,04,
36502511,00000207,false,Rx,1,8,01,01,80,FF,C8,00,04,00,
36502757,00000227,false,Rx,1,8,01,00,00,00,00,00,1F,C5,
36502997,00000237,false,Rx,1,8,3B,41,00,00,00,00,00,00,
36503238,00000247,false,Rx,1,8,44,7D,6E,03,00,00,20,00,
36503479,00000717,false,Rx,1,8,10,07,80,FF,03,A0,FF,00,
36512296,00000217,false,Rx,1,8,02,C0,80,FE,9C,02,00,04,
36602470,00000207,false,Rx,1,8,00,01,C0,FF,C8,00,04,00,
36602717,00000227,false,Rx,1,8,00,00,00,00,02,00,1F,C5,
36602958,00000237,false,Rx,1,8,3B,41,00,00,00,00,00,00,
36603198,00000247,false,Rx,1,8,44,7D,6E,03,00,00,20,00,
36603439,00000717,false,Rx,1,8,11,00,00,00,00,00,02,02,
36612249,00000217,false,Rx,1,8,02,C0,00,FE,9C,02,00,04,
36702456,00000207,false,Rx,1,8,00,01,C0,FF,C8,00,04,00,
36702704,00000227,false,Rx,1,8,00,00,00,00,00,00,1F,C5,
36702944,00000237,false,Rx,1,8,3B,41,00,00,00,00,00,00,
36703184,00000247,false,Rx,1,8,44,7D,6E,03,00,00,20,00,
36703425,00000717,false,Rx,1,8,12,3F,25,00,27,00,14,00,
36712248,00000217,false,Rx,1,8,02,00,01,FE,9C,02,00,04,
36802439,00000207,false,Rx,1,8,00,01,C0,FF,C8,00,04,00,
36802679,00000227,false,Rx,1,8,02,00,00,00,05,00,1F,C5,
36802926,00000237,false,Rx,1,8,3B,41,00,00,00,00,00,00,
36803158,00000247,false,Rx,1,8,44,7D,6E,03,00,00,20,00,
36803408,00000717,false,Rx,1,8,13,00,00,00,00,00,00,00,
36812224,00000217,false,Rx,1,8,02,00,01,FE,9C,02,00,04,
36902402,00000207,false,Rx,1,8,00,01,C0,FF,C8,00,04,00,
36902648,00000227,false,Rx,1,8,00,00,00,00,00,00,1F,C5,
36902896,00000237,false,Rx,1,8,3B,41,00,00,00,00,00,00,
36903128,00000247,false,Rx,1,8,44,7D,6E,03,00,00,20,00,
36903378,00000717,false,Rx,1,8,14,00,00,00,EF,FF,00,00,
36912192,00000217,false,Rx,1,8,02,00,01,FE,9C,02,00,04,
37002397,00000207,false,Rx,1,8,00,00,C0,FF,C8,00,04,00,
37002643,00000227,false,Rx,1,8,02,00,00,00,03,00,1F,C5,
37002883,00000237,false,Rx,1,8,3B,41,00,00,00,00,00,00,
37003124,00000247,false,Rx,1,8,44,7D,6E,03,00,00,20,00,
37012184,00000217,false,Rx,1,8,02,00,01,FE,9C,02,00,04,
37102264,00000367,false,Rx,1,8,00,00,00,00,00,00,00,00,
37102510,00000207,false,Rx,1,8,00,00,C0,FF,C8,00,04,00,
37102757,00000227,false,Rx,1,8,00,00,00,00,0B,00,1F,C5,
37102998,00000237,false,Rx,1,8,3B,41,00,00,00,00,00,00,
37103238,00000247,false,Rx,1,8,44,7D,6E,03,00,00,20,00,
37103479,00000717,false,Rx,1,8,16,00,00,00,00,00,3A,46,
37112164,00000217,false,Rx,1,8,02,00,01,FE,9C,02,00,04,
37112413,00000377,false,Rx,1,8,00,00,00,00,00,00,00,00,
37122261,00000347,false,Rx,1,8,00,00,00,00,00,08,00,00,
37132259,00000357,false,Rx,1,8,00,00,00,00,00,00,00,00,
37142258,00000327,false,Rx,1,8,00,00,00,00,00,00,00,00,
37152256,00000337,false,Rx,1,8,00,00,00,00,00,00,00,00,
37202350,00000207,false,Rx,1,8,00,00,C0,FF,C8,00,04,00,
37202597,00000227,false,Rx,1,8,00,00,00,00,01,00,1F,C5,
37202838,00000237,false,Rx,1,8,3B,41,00,00,00,00,00,00,
37203078,00000247,false,Rx,1,8,44,7D,6E,03,00,00,20,00,
37203319,00000717,false,Rx,1,8,17,00,00,B0,03,00,00,00,
37212134,00000217,false,Rx,1,8,02,00,81,FD,9C,02,00,04,
37302333,00000207,false,Rx,1,8,00,00,C0,FF,C8,00,04,00,
37302581,00000227,false,Rx,1,8,00,00,00,00,05,00,1F,C5,
37302828,00000237,false,Rx,1,8,3B,41,00,00,00,00,00,00,
37303068,00000247,false,Rx,1,8,44,7D,6E,03,00,00,20,00,
37303310,00000717,false,Rx,1,8,18,00,00,00,00,00,00,00,
37312124,00000217,false,Rx,1,8,02,00,81,FD,9C,02,00,04,
37402293,00000207,false,Rx,1,8,00,00,C0,FF,C8,00,04,00,
37402540,00000227,false,Rx,1,8,01,00,00,00,01,00,1F,C5,
37402809,00000237,false,Rx,1,8,3B,41,00,00,00,00,00,00,
37403021,00000247,false,Rx,1,8,44,7D,6E,03,00,00,20,00,
37403271,00000717,false,Rx,1,8,19,00,00,00,00,00,00,00,
37412079,00000217,false,Rx,1,8,02,00,81,FD,9C,02,00,04,
37502287,00000207,false,Rx,1,8,00,00,C0,FF,C8,00,04,00,
37502533,00000227,false,Rx,1,8,01,00,00,00,03,00,1F,C5,
37502773,00000237,false,Rx,1,8,3B,41,00,00,00,00,00,00,
37503014,00000247,false,Rx,1,8,44,7D,6E,03,00,00,20,00,
37503263,00000717,false,Rx,1,8,01,00,00,00,00,00,00,00,
37512070,00000217,false,Rx,1,8,02,00,81,FD,9C,02,00,04,
37602246,00000207,false,Rx,1,8,00,00,C0,FF,C8,00,04,00,
37602492,00000227,false,Rx,1,8,02,00,00,00,00,00,1F,C5,
37602732,00000237,false,Rx,1,8,3B,41,00,00,00,00,00,00,
37602973,00000247,false,Rx,1,8,44,7D,6E,03,00,00,20,00,
37603221,00000717,false,Rx,1,8,02,00,00,00,00,00,00,00,
37612054,00000217,false,Rx,1,8,02,00,81,FD,9C,02,00,04,
37702235,00000207,false,Rx,1,8,00,00,C0,FF,C8,00,04,00,
37702482,00000227,false,Rx,1,8,00,00,00,00,02,00,1F,C5,
37702731,00000237,false,Rx,1,8,3B,41,00,00,00,00,00,00,
37702963,00000247,false,Rx,1,8,44,7D,6E,03,00,00,20,00,
37712026,00000217,false,Rx,1,8,02,00,81,FD,9C,02,00,04,
37802232,00000207,false,Rx,1,8,00,00,C0,FF,C8,00,04,00,
37802472,00000227,false,Rx,1,8,01,00,00,00,02,00,1F,C5,
37802713,00000237,false,Rx,1,8,3B,41,00,00,00,00,00,00,
37802953,00000247,false,Rx,1,8,44,7D,6E,03,00,00,20,00,
37803200,00000717,false,Rx,1,8,04,00,00,00,00,00,00,00,
37812011,00000217,false,Rx,1,8,02,00,81,FD,9C,02,00,04,
37902181,00000207,false,Rx,1,8,00,00,C0,FF,C8,00,04,00,
37902422,00000227,false,Rx,1,8,01,00,00,00,06,00,1F,C5,
37902670,00000237,false,Rx,1,8,3B,41,00,00,00,00,00,00,
37902910,00000247,false,Rx,1,8,44,7D,6E,03,00,00,20,00,
37903150,00000717,false,Rx,1,8,05,00,00,00,00,00,00,00,
37911973,00000217,false,Rx,1,8,02,00,01,FD,9C,02,00,04,
38002172,00000207,false,Rx,1,8,00,00,C0,FF,C8,00,04,00,
38002420,00000227,false,Rx,1,8,00,00,00,00,00,00,1F,C5,
38002660,00000237,false,Rx,1,8,3B,41,00,00,00,00,00,00,
38002900,00000247,false,Rx,1,8,44,7D,6E,03,00,00,20,00,
38003133,00000717,false,Rx,1,8,06,00,B6,45,66,06,00,40,
38011965,00000217,false,Rx,1,8,02,00,01,FD,9C,02,00,04,
38102056,00000367,false,Rx,1,8,00,00,00,00,00,00,00,00,
38102304,00000207,false,Rx,1,8,00,00,C0,FF,C8,00,04,00,
38102551,00000227,false,Rx,1,8,01,00,00,00,06,00,1F,C5,
38102792,00000237,false,Rx,1,8,3B,41,00,00,00,00,00,00,
38103032,00000247,false,Rx,1,8,44,7D,6E,03,00,00,20,00,
38103273,00000717,false,Rx,1,8,07,00,00,00,02,0A,00,00,
38111955,00000217,false,Rx,1,8,02,00,01,FD,9C,02,00,04,
38112203,00000377,false,Rx,1,8,00,00,00,00,00,00,00,00,
38122051,00000347,false,Rx,1,8,00,00,00,00,00,08,00,00,
38132048,00000357,false,Rx,1,8,00,00,00,00,00,00,00,00,
38142045,00000327,false,Rx,1,8,00,00,00,00,00,00,00,00,
38152044,00000337,false,Rx,1,8,00,00,00,00,00,00,00,00,
38202109,00000207,false,Rx,1,8,00,00,C0,FF,C8,00,04,00,
38202356,00000227,false,Rx,1,8,01,00,00,00,03,00,1F,C5,
38202596,00000237,false,Rx,1,8,3B,41,00,00,00,00,00,00,
38202837,00000247,false,Rx,1,8,44,7D,6E,03,00,00,20,00,
38203084,00000717,false,Rx,1,8,08,00,00,00,BE,45,00,00,
38211916,00000217,false,Rx,1,8,02,00,01,FD,9C,02,00,04,
38302119,00000207,false,Rx,1,8,00,00,C0,FF,C8,00,04,00,
38302366,00000227,false,Rx,1,8,00,00,00,00,04,00,1F,C5,
38302607,00000237,false,Rx,1,8,3B,41,00,00,00,00,00,00,
38302847,00000247,false,Rx,1,8,44,7D,6E,03,00,00,20,00,
38303087,00000717,false,Rx,1,8,09,00,42,46,00,00,00,00,
38311903,00000217,false,Rx,1,8,02,00,01,FD,9C,02,00,04,
38402076,00000207,false,Rx,1,8,00,00,C0,FF,C8,00,04,00,
38402324,00000227,false,Rx,1,8,00,00,00,00,01,00,1F,C5,
38402564,00000237,false,Rx,1,8,3B,41,00,00,00,00,00,00,
38402804,00000247,false,Rx,1,8,44,7D,6E,03,00,00,20,00,
38403052,00000717,false,Rx,1,8,0A,00,00,00,00,00,00,00,
38411860,00000217,false,Rx,1,8,02,40,01,FD,9C,02,00,04,
38502078,00000207,false,Rx,1,8,00,00,C0,FF,C8,00,04,00,
38502328,00000227,false,Rx,1,8,00,00,00,00,0B,00,1F,C5,
38502567,00000237,false,Rx,1,8,3B,41,00,00,00,00,00,00,
38502807,00000247,false,Rx,1,8,44,7D,6E,03,00,00,20,00,
38503056,00000717,false,Rx,1,8,0B,00,00,00,00,00,00,00,
38511865,00000217,false,Rx,1,8,02,40,01,FD,9C,02,00,04,
38602054,00000207,false,Rx,1,8,00,00,C0,FF,C8,00,04,00,
38602301,00000227,false,Rx,1,8,00,00,00,00,00,00,1F,C5,
38602549,00000237,false,Rx,1,8,3B,41,00,00,00,00,00,00,
38602782,00000247,false,Rx,1,8,44,7D,6E,03,00,00,20,00,
38603022,00000717,false,Rx,1,8,0C,01,00,04,04,00,01,00,
38611837,00000217,false,Rx,1,8,02,40,01,FD,9C,02,00,04,
38701996,00000207,false,Rx,1,8,00,00,C0,FF,C8,00,04,00,
38702244,00000227,false,Rx,1,8,00,00,00,00,00,00,1F,C5,
38702483,00000237,false,Rx,1,8,3B,41,00,00,00,00,00,00,
38702724,00000247,false,Rx,1,8,44,7D,6E,03,00,00,20,00,
38702964,00000717,false,Rx,1,8,0E,00,00,02,06,0E,00,00,
38711797,00000217,false,Rx,1,8,02,40,01,FD,9C,02,00,04,
38802015,00000207,false,Rx,1,8,00,00,C0,FF,C8,00,04,00,
38802263,00000227,false,Rx,1,8,00,00,00,00,00,00,1F,C5,
38802504,00000237,false,Rx,1,8,3B,41,00,00,00,00,00,00,
38802744,00000247,false,Rx,1,8,44,7D,6E,03,00,00,20,00,
38802984,00000717,false,Rx,1,8,0F,00,EB,01,D8,10,00,00,
38811802,00000217,false,Rx,1,8,02,40,01,FD,9C,02,00,04,
38901974,00000207,false,Rx,1,8,00,00,C0,FF,C8,00,04,00,
38902221,00000227,false,Rx,1,8,01,00,00,00,00,00,1F,C5,
38902471,00000237,false,Rx,1,8,3B,41,00,00,00,00,00,00,
38902703,00000247,false,Rx,1,8,44,7D,6E,03,00,00,20,00,
38902943,00000717,false,Rx,1,8,10,09,20,FF,03,80,FF,00,
38911775,00000217,false,Rx,1,8,02,40,01,FD,9C,02,00,04,
39001958,00000207,false,Rx,1,8,00,00,C0,FF,C8,00,04,00,
39002198,00000227,false,Rx,1,8,00,00,00,00,00,00,1F,C5,
39002440,00000237,false,Rx,1,8,3B,41,00,00,00,00,00,00,
39002680,00000247,false,Rx,1,8,44,7D,6E,03,00,00,20,00,
39002928,00000717,false,Rx,1,8,11,00,00,00,00,00,02,02,
39011751,00000217,false,Rx,1,8,02,40,01,FD,9C,02,00,04,
39101835,00000367,false,Rx,1,8,00,00,00,00,00,00,00,00,
39102083,00000207,false,Rx,1,8,00,00,00,00,C8,00,04,00,
39102331,00000227,false,Rx,1,8,01,00,00,00,01,00,1F,C5,
39102571,00000237,false,Rx,1,8,3B,41,00,00,00,00,00,00,
39102812,00000247,false,Rx,1,8,44,7D,6E,03,00,00,20,00,
39103052,00000717,false,Rx,1,8,12,40,27,00,27,00,14,00,
39111728,00000217,false,Rx,1,8,02,40,01,FD,9C,02,00,04,
39111976,00000377,false,Rx,1,8,00,00,00,00,00,00,00,00,
39121829,00000347,false,Rx,1,8,00,00,00,00,00,08,00,00,
39131826,00000357,false,Rx,1,8,00,00,00,00,00,00,00,00,
39141831,00000327,false,Rx,1,8,00,00,00,00,00,00,00,00,
39151821,00000337,false,Rx,1,8,00,00,00,00,00,00,00,00,
39201887,00000207,false,Rx,1,8,00,00,C0,FF,C8,00,04,00,
39202133,00000227,false,Rx,1,8,01,00,00,00,01,00,1F,C5,
39202375,00000237,false,Rx,1,8,3B,41,00,00,00,00,00,00,
39202616,00000247,false,Rx,1,8,44,7D,6E,03,00,00,20,00,
39202864,00000717,false,Rx,1,8,13,00,00,00,00,00,00,00,
39211693,00000217,false,Rx,1,8,02,40,01,FD,9C,02,00,04,
39301893,00000207,false,Rx,1,8,00,00,C0,FF,C8,00,04,00,
39302139,00000227,false,Rx,1,8,00,00,00,00,01,00,1F,C5,
39302388,00000237,false,Rx,1,8,3B,41,00,00,00,00,00,00,
39302621,00000247,false,Rx,1,8,44,7D,6E,03,00,00,20,00,
39302868,00000717,false,Rx,1,8,14,00,00,00,FD,FF,00,00,
39311694,00000217,false,Rx,1,8,02,40,01,FD,9C,02,00,04,
39401852,00000207,false,Rx,1,8,00,00,C0,FF,C8,00,04,00,
39402098,00000227,false,Rx,1,8,00,00,00,00,02,00,1F,C5,
39402348,00000237,false,Rx,1,8,3B,41,00,00,00,00,00,00,
39402580,00000247,false,Rx,1,8,44,7D,6E,03,00,00,20,00,
39411671,00000217,false,Rx,1,8,02,40,01,FD,9C,02,00,04,
39501827,00000207,false,Rx,1,8,00,00,C0,FF,C8,00,04,00,
39502074,00000227,false,Rx,1,8,00,00,00,00,02,00,1F,C5,
39502315,00000237,false,Rx,1,8,3B,41,00,00,00,00,00,00,
39502555,00000247,false,Rx,1,8,44,7D,6E,03,00,00,20,00,
39502795,00000717,false,Rx,1,8,16,00,00,00,00,00,9E,45,
39511626,00000217,false,Rx,1,8,02,40,01,FD,9C,02,00,04,
39601832,00000207,false,Rx,1,8,00,00,C0,FF,C8,00,04,00,
39602079,00000227,false,Rx,1,8,00,00,00,00,01,00,1F,C5,
39602320,00000237,false,Rx,1,8,3B,41,00,00,00,00,00,00,
39602560,00000247,false,Rx,1,8,44,7D,6E,03,00,00,20,00,
39602801,00000717,false,Rx,1,8,17,00,00,30,04,00,00,00,
39611633,00000217,false,Rx,1,8,02,40,81,FC,9C,02,00,04,
39701792,00000207,false,Rx,1,8,00,00,00,00,C8,00,04,00,
39702038,00000227,false,Rx,1,8,00,00,00,00,00,00,1F,C5,
39702279,00000237,false,Rx,1,8,3B,41,00,00,00,00,00,00,
39702520,00000247,false,Rx,1,8,44,7D,6E,03,00,00,20,00,
39702767,00000717,false,Rx,1,8,18,00,00,00,00,00,00,00,
39711590,00000217,false,Rx,1,8,02,40,81,FC,9C,02,00,04,
39801789,00000207,false,Rx,1,8,00,00,00,00,C8,00,04,00,
39802028,00000227,false,Rx,1,8,00,00,00,00,00,00,1F,C5,
39802276,00000237,false,Rx,1,8,3B,41,00,00,00,00,00,00,
39802510,00000247,false,Rx,1,8,44,7D,6E,03,00,00,20,00,
39802757,00000717,false,Rx,1,8,19,00,00,00,00,00,00,00,
39811581,00000217,false,Rx,1,8,02,40,81,FC,9C,02,00,04,
39901742,00000207,false,Rx,1,8,00,00,00,00,C8,00,04,00,
39901988,00000227,false,Rx,1,8,02,00,00,00,02,00,1F,C5,
39902229,00000237,false,Rx,1,8,3B,41,00,00,00,00,00,00,
39902470,00000247,false,Rx,1,8,44,7D,6E,03,00,00,20,00,
39902717,00000717,false,Rx,1,8,01,00,00,00,00,00,00,00,
39911563,00000217,false,Rx,1,8,02,40,81,FC,9C,02,00,04,
40001732,00000207,false,Rx,1,8,00,00,00,00,C8,00,04,00,
40001970,00000227,false,Rx,1,8,00,00,00,00,09,00,1F,C5,
40002219,00000237,false,Rx,1,8,3B,41,00,00,00,00,00,00,
40002452,00000247,false,Rx,1,8,44,7D,6E,03,00,00,20,00,
40002700,00000717,false,Rx,1,8,02,00,00,00,00,00,00,00,
40011517,00000217,false,Rx,1,8,02,40,81,FC,9C,02,00,04,
40101631,00000367,false,Rx,1,8,00,00,00,00,00,00,00,00,
40101878,00000207,false,Rx,1,8,00,00,00,00,C8,00,04,00,
40102125,00000227,false,Rx,1,8,01,00,00,00,00,00,1F,C5,
40102366,00000237,false,Rx,1,8,3B,41,00,00,00,00,00,00,
40102606,00000247,false,Rx,1,8,44,7D,6E,03,00,00,20,00,
40111521,00000217,false,Rx,1,8,02,40,81,FC,9C,02,00,04,
40111767,00000377,false,Rx,1,8,00,00,00,00,00,00,00,00,
40121621,00000347,false,Rx,1,8,00,00,00,00,00,08,00,00,
40131618,00000357,false,Rx,1,8,00,00,00,00,00,00,00,00,
40141616,00000327,false,Rx,1,8,00,00,00,00,00,00,00,00,
40151611,00000337,false,Rx,1,8,00,00,00,00,00,00,00,00,
40201696,00000207,false,Rx,1,8,00,01,C0,FF,C8,00,04,00,
40201943,00000227,false,Rx,1,8,00,00,00,00,01,00,1F,C5,
40202183,00000237,false,Rx,1,8,3B,41,00,00,00,00,00,00,
40202425,00000247,false,Rx,1,8,44,7D,6E,03,00,00,20,00,
40202674,00000717,false,Rx,1,8,04,00,00,00,00,00,00,00,
40211466,00000217,false,Rx,1,8,02,40,81,FC,9C,02,00,04,
40301689,00000207,false,Rx,1,8,00,01,00,00,C8,00,04,00,
40301935,00000227,false,Rx,1,8,00,00,00,00,00,00,1F,C5,
40302175,00000237,false,Rx,1,8,3B,41,00,00,00,00,00,00,
40302417,00000247,false,Rx,1,8,44,7D,6E,03,00,00,20,00,
40302657,00000717,false,Rx,1,8,05,00,00,00,00,00,00,00,
40311472,00000217,false,Rx,1,8,02,40,81,FC,9C,02,00,04,
40401676,00000207,false,Rx,1,8,00,01,00,00,C8,00,04,00,
40401922,00000227,false,Rx,1,8,00,00,00,00,03,00,1F,C5,
40402163,00000237,false,Rx,1,8,3B,41,00,00,00,00,00,00,
40402405,00000247,false,Rx,1,8,44,7D,6E,03,00,00,20,00,
40402645,00000717,false,Rx,1,8,06,00,6A,44,66,06,00,40,
40411455,00000217,false,Rx,1,8,02,40,81,FC,9C,02,00,04,
40501635,00000207,false,Rx,1,8,00,01,C0,FF,C8,00,04,00,
40501874,00000227,false,Rx,1,8,00,00,00,00,00,00,1F,C5,
40502123,00000237,false,Rx,1,8,3B,41,00,00,00,00,00,00,
40502356,00000247,false,Rx,1,8,44,7D,6E,03,00,00,20,00,
40502604,00000717,false,Rx,1,8,07,00,00,00,02,0A,00,00,
40511420,00000217,false,Rx,1,8,02,40,81,FC,9C,02,00,04,
40601625,00000207,false,Rx,1,8,00,01,00,00,C8,00,04,00,
40601872,00000227,false,Rx,1,8,01,00,00,00,05,00,1F,C5,
40602112,00000237,false,Rx,1,8,3B,41,00,00,00,00,00,00,
40602353,00000247,false,Rx,1,8,44,7D,6E,03,00,00,20,00,
40602593,00000717,false,Rx,1,8,08,00,00,00,66,44,00,00,
40611409,00000217,false,Rx,1,8,02,40,81,FC,9C,02,00,04,
40701585,00000207,false,Rx,1,8,00,01,00,00,C8,00,04,00,
40701832,00000227,false,Rx,1,8,00,00,00,00,02,00,1F,C5,
40702079,00000237,false,Rx,1,8,3B,41,00,00,00,00,00,00,
40702313,00000247,false,Rx,1,8,44,7D,6E,03,00,00,20,00,
40702554,00000717,false,Rx,1,8,09,00,2A,44,00,00,00,00,
40711386,00000217,false,Rx,1,8,02,40,81,FC,9C,02,00,04,
40801571,00000207,false,Rx,1,8,00,01,00,00,C8,00,04,00,
40801817,00000227,false,Rx,1,8,00,00,00,00,00,00,1F,C5,
40802057,00000237,false,Rx,1,8,3B,41,00,00,00,00,00,00,
40802299,00000247,false,Rx,1,8,44,7D,6E,03,00,00,20,00,
40802546,00000717,false,Rx,1,8,0A,00,00,00,00,00,00,00,
40811363,00000217,false,Rx,1,8,02,40,81,FC,9C,02,00,04,
40901568,00000207,false,Rx,1,8,00,01,00,00,C8,00,04,00,
40901814,00000227,false,Rx,1,8,00,00,00,00,01,00,1F,C5,
40902054,00000237,false,Rx,1,8,3B,41,00,00,00,00,00,00,
40902296,00000247,false,Rx,1,8,44,7D,6E,03,00,00,20,00,
40902543,00000717,false,Rx,1,8,0B,00,00,00,00,00,00,00,
40911352,00000217,false,Rx,1,8,02,40,81,FC,9C,02,00,04,
41001520,00000207,false,Rx,1,8,00,01,00,00,C8,00,04,00,
41001766,00000227,false,Rx,1,8,01,00,00,00,00,00,1F,C5,
41002014,00000237,false,Rx,1,8,3B,41,00,00,00,00,00,00,
41002255,00000247,false,Rx,1,8,44,7D,6E,03,00,00,20,00,
41002495,00000717,false,Rx,1,8,0C,01,00,04,04,00,01,00,
41011304,00000217,false,Rx,1,8,02,40,81,FC,9C,02,00,04,
41101420,00000367,false,Rx,1,8,00,00,00,00,00,00,00,00,
41101666,00000207,false,Rx,1,8,00,01,00,00,C8,00,04,00,
41101914,00000227,false,Rx,1,8,00,00,00,00,02,00,1F,C5,
41102162,00000237,false,Rx,1,8,3B,41,00,00,00,00,00,00,
41102395,00000247,false,Rx,1,8,44,7D,6E,03,00,00,20,00,
41102636,00000717,false,Rx,1,8,0E,00,00,02,66,17,00,00,
41111299,00000217,false,Rx,1,8,02,40,81,FC,9C,02,00,04,
41111545,00000377,false,Rx,1,8,00,00,00,00,00,00,00,00,
41121402,00000347,false,Rx,1,8,00,00,00,00,00,08,00,00,
41131399,00000357,false,Rx,1,8,00,00,00,00,00,00,00,00,
41141404,00000327,false,Rx,1,8,00,00,00,00,00,00,00,00,
41151394,00000337,false,Rx,1,8,00,00,00,00,00,00,00,00,
41201501,00000207,false,Rx,1,8,00,01,00,00,C8,00,04,00,
41201749,00000227,false,Rx,1,8,02,00,00,00,04,00,1F,C5,
41201996,00000237,false,Rx,1,8,3B,41,00,00,00,00,00,00,
41202228,00000247,false,Rx,1,8,44,7D,6E,03,00,00,20,00,
41202463,00000717,false,Rx,1,8,0F,00,EB,01,CB,10,00,00,
41211286,00000217,false,Rx,1,8,02,40,81,FC,9C,02,00,04,
41301460,00000207,false,Rx,1,8,00,01,00,00,C8,00,04,00,
41301707,00000227,false,Rx,1,8,01,00,00,00,02,00,1F,C5,
41301954,00000237,false,Rx,1,8,3B,41,00,00,00,00,00,00,
41302187,00000247,false,Rx,1,8,44,7D,6E,03,00,00,20,00,
41302429,00000717,false,Rx,1,8,10,0A,00,FF,03,80,FF,00,
41311239,00000217,false,Rx,1,8,02,40,81,FC,9C,02,00,04,
41401453,00000207,false,Rx,1,8,00,01,00,00,C8,00,04,00,
41401699,00000227,false,Rx,1,8,00,00,00,00,00,00,1F,C5,
41401947,00000237,false,Rx,1,8,3B,41,00,00,00,00,00,00,
41402180,00000247,false,Rx,1,8,44,7D,6E,03,00,00,20,00,
41402429,00000717,false,Rx,1,8,11,00,00,00,00,00,02,02,
41411237,00000217,false,Rx,1,8,02,40,81,FC,9C,02,00,04,
41501413,00000207,false,Rx,1,8,00,01,00,00,C8,00,04,00,
41501660,00000227,false,Rx,1,8,00,00,00,00,02,00,1F,C5,
41501907,00000237,false,Rx,1,8,3B,41,00,00,00,00,00,00,
41502148,00000247,false,Rx,1,8,44,7D,6E,03,00,00,20,00,
41502383,00000717,false,Rx,1,8,12,40,29,00,27,00,15,00,
41511200,00000217,false,Rx,1,8,02,40,81,FC,9C,02,00,04,
41601417,00000207,false,Rx,1,8,00,01,00,00,C8,00,04,00,
41601670,00000227,false,Rx,1,8,00,00,00,00,02,00,1F,C5,
41601911,00000237,false,Rx,1,8,3B,41,00,00,00,00,00,00,
41602151,00000247,false,Rx,1,8,44,7D,6E,03,00,00,20,00,
41602400,00000717,false,Rx,1,8,13,00,00,00,00,00,00,00,
41611200,00000217,false,Rx,1,8,02,40,81,FC,9C,02,00,04,
41701399,00000207,false,Rx,1,8,00,01,40,00,C8,00,04,00,
41701639,00000227,false,Rx,1,8,00,00,00,00,01,00,1F,C5,
41701887,00000237,false,Rx,1,8,3B,41,00,00,00,00,00,00,
41702126,00000247,false,Rx,1,8,44,7D,6E,03,00,00,20,00,
41702375,00000717,false,Rx,1,8,14,00,00,00,9F,00,00,00,
41711175,00000217,false,Rx,1,8,02,40,81,FC,9C,02,00,04,
41801351,00000207,false,Rx,1,8,00,01,00,00,C8,00,04,00,
41801598,00000227,false,Rx,1,8,00,00,00,00,00,00,1F,C5,
41801838,00000237,false,Rx,1,8,3B,41,00,00,00,00,00,00,
41802078,00000247,false,Rx,1,8,44,7D,6E,03,00,00,20,00,
41811124,00000217,false,Rx,1,8,02,40,81,FC,9C,02,00,04,
41901349,00000207,false,Rx,1,8,00,01,40,00,C8,00,04,00,
41901596,00000227,false,Rx,1,8,00,00,00,00,07,00,1F,C5,
41901835,00000237,false,Rx,1,8,3B,41,00,00,00,00,00,00,
41902077,00000247,false,Rx,1,8,44,7D,6E,03,00,00,20,00,
41902318,00000717,false,Rx,1,8,16,00,00,00,00,00,AE,43,
41911131,00000217,false,Rx,1,8,02,40,81,FC,9C,02,00,04,
42001316,00000207,false,Rx,1,8,00,01,00,00,C8,00,04,00,
42001563,00000227,false,Rx,1,8,00,00,00,00,00,00,1F,C5,
42001803,00000237,false,Rx,1,8,3B,41,00,00,00,00,00,00,
42002044,00000247,false,Rx,1,8,44,7D,6E,03,00,00,20,00,
42002285,00000717,false,Rx,1,8,17,00,00,40,04,00,00,00,
42011117,00000217,false,Rx,1,8,02,40,81,FC,9C,02,00,04,
42101212,00000367,false,Rx,1,8,00,00,00,00,00,00,00,00,
42101459,00000207,false,Rx,1,8,00,01,40,00,C8,00,04,00,
42101707,00000227,false,Rx,1,8,00,00,00,00,00,00,1F,C5,
42101948,00000237,false,Rx,1,8,3B,41,00,00,00,00,00,00,
42102188,00000247,false,Rx,1,8,44,7D,6E,03,00,00,20,00,
42102436,00000717,false,Rx,1,8,18,00,00,00,00,00,00,00,
42111092,00000217,false,Rx,1,8,02,40,81,FC,9C,02,00,04,
42111339,00000377,false,Rx,1,8,00,00,00,00,00,00,00,00,
42121209,00000347,false,Rx,1,8,00,00,00,00,00,08,00,00,
42131199,00000357,false,Rx,1,8,00,00,00,00,00,00,00,00,
42141189,00000327,false,Rx,1,8,00,00,00,00,00,00,00,00,
42151187,00000337,false,Rx,1,8,00,00,00,00,00,00,00,00,
42201288,00000207,false,Rx,1,8,00,01,40,00,C8,00,04,00,
42201534,00000227,false,Rx,1,8,00,00,00,00,01,00,1F,C5,
42201775,00000237,false,Rx,1,8,3B,41,00,00,00,00,00,00,
42202015,00000247,false,Rx,1,8,44,7D,6E,03,00,00,20,00,
42202264,00000717,false,Rx,1,8,19,00,00,00,00,00,00,00,
42211066,00000217,false,Rx,1,8,02,40,81,FC,9C,02,00,04,
42301243,00000207,false,Rx,1,8,00,01,40,00,C8,00,04,00,
42301491,00000227,false,Rx,1,8,00,00,00,00,00,00,1F,C5,
42301731,00000237,false,Rx,1,8,3B,41,00,00,00,00,00,00,
42301971,00000247,false,Rx,1,8,44,7D,6E,03,00,00,20,00,
42302219,00000717,false,Rx,1,8,01,00,00,00,00,00,00,00,
42311028,00000217,false,Rx,1,8,02,40,81,FC,9C,02,00,04,
42401250,00000207,false,Rx,1,8,00,01,40,00,C8,00,04,00,
42401498,00000227,false,Rx,1,8,00,00,00,00,02,00,1F,C5,
42401745,00000237,false,Rx,1,8,3B,41,00,00,00,00,00,00,
42401977,00000247,false,Rx,1,8,44,7D,6E,03,00,00,20,00,
42402226,00000717,false,Rx,1,8,02,00,00,00,00,00,00,00,
42411035,00000217,false,Rx,1,8,02,40,81,FC,9C,02,00,04,
42501205,00000207,false,Rx,1,8,00,01,40,00,C8,00,04,00,
42501452,00000227,false,Rx,1,8,00,00,00,00,01,00,1F,C5,
42501700,00000237,false,Rx,1,8,3B,41,00,00,00,00,00,00,
42501933,00000247,false,Rx,1,8,44,7D,6E,03,00,00,20,00,
42511008,00000217,false,Rx,1,8,02,40,81,FC,9C,02,00,04,
42601184,00000207,false,Rx,1,8,00,01,40,00,C8,00,04,00,
42601432,00000227,false,Rx,1,8,00,00,00,00,00,00,1F,C5,
42601672,00000237,false,Rx,1,8,3B,41,00,00,00,00,00,00,
42601913,00000247,false,Rx,1,8,44,7D,6E,03,00,00,20,00,
42602161,00000717,false,Rx,1,8,04,00,00,00,00,00,00,00,
42610965,00000217,false,Rx,1,8,02,40,81,FC,9C,02,00,04,
42701187,00000207,false,Rx,1,8,00,01,40,00,C8,00,04,00,
42701435,00000227,false,Rx,1,8,00,00,00,00,02,00,1F,C5,
42701676,00000237,false,Rx,1,8,3B,41,00,00,00,00,00,00,
42701916,00000247,false,Rx,1,8,44,7D,6E,03,00,00,20,00,
42702163,00000717,false,Rx,1,8,05,00,00,00,00,00,00,00,
42710958,00000217,false,Rx,1,8,02,40,81,FC,9C,02,00,04,
42801146,00000207,false,Rx,1,8,00,01,40,00,C8,00,04,00,
42801395,00000227,false,Rx,1,8,00,00,00,00,02,00,1F,C5,
42801642,00000237,false,Rx,1,8,3B,41,00,00,00,00,00,00,
42801874,00000247,false,Rx,1,8,44,7D,6E,03,00,00,20,00,
42802114,00000717,false,Rx,1,8,06,00,6A,43,66,06,00,40,
42810930,00000217,false,Rx,1,8,02,40,81,FC,9C,02,00,04,
42901136,00000207,false,Rx,1,8,00,01,40,00,C8,00,04,00,
42901385,00000227,false,Rx,1,8,00,00,00,00,02,00,1F,C5,
42901632,00000237,false,Rx,1,8,3B,41,00,00,00,00,00,00,
42901872,00000247,false,Rx,1,8,44,7D,6E,03,00,00,20,00,
42902113,00000717,false,Rx,1,8,07,00,00,00,02,0A,00,00,
42910920,00000217,false,Rx,1,8,02,40,81,FC,9C,02,00,04,
43001117,00000207,false,Rx,1,8,00,01,40,00,C8,00,04,00,
43001358,00000227,false,Rx,1,8,01,00,00,00,00,00,1F,C5,
43001605,00000237,false,Rx,1,8,3B,41,00,00,00,00,00,00,
43001846,00000247,false,Rx,1,8,44,7D,6E,03,00,00,20,00,
43002086,00000717,false,Rx,1,8,08,00,00,00,2E,45,00,00,
43010894,00000217,false,Rx,1,8,02,40,81,FC,9C,02,00,04,
43100978,00000367,false,Rx,1,8,00,00,00,00,00,00,00,00,
43101232,00000207,false,Rx,1,8,00,01,40,00,C8,00,04,00,
43101473,00000227,false,Rx,1,8,00,00,00,00,00,00,1F,C5,
43101714,00000237,false,Rx,1,8,3B,41,00,00,00,00,00,00,
43101954,00000247,false,Rx,1,8,44,7D,6E,03,00,00,20,00,
43102194,00000717,false,Rx,1,8,09,00,AE,44,00,00,00,00,
43110856,00000217,false,Rx,1,8,02,40,81,FC,9C,02,00,04,
43111103,00000377,false,Rx,1,8,00,00,00,00,00,00,00,00,
43120973,00000347,false,Rx,1,8,00,00,00,00,00,08,00,00,
43130988,00000357,false,Rx,1,8,00,00,00,00,00,00,00,00,
43141000,00000327,false,Rx,1,8,00,00,00,00,00,00,00,00,
43150998,00000337,false,Rx,1,8,00,00,00,00,00,00,00,00,
43201083,00000207,false,Rx,1,8,00,01,40,00,C8,00,04,00,
43201323,00000227,false,Rx,1,8,00,00,00,00,01,00,1F,C5,
43201572,00000237,false,Rx,1,8,3B,41,00,00,00,00,00,00,
43201812,00000247,false,Rx,1,8,44,7D,6E,03,00,00,20,00,
43202052,00000717,false,Rx,1,8,0A,00,00,00,00,00,00,00,
43210860,00000217,false,Rx,1,8,02,40,81,FC,9C,02,00,04,
43301033,00000207,false,Rx,1,8,00,01,40,00,C8,00,04,00,
43301280,00000227,false,Rx,1,8,00,00,00,00,00,00,1F,C5,
43301521,00000237,false,Rx,1,8,3B,41,00,00,00,00,00,00,
43301761,00000247,false,Rx,1,8,44,7D,6E,03,00,00,20,00,
43302008,00000717,false,Rx,1,8,0B,00,00,00,00,00,00,00,
43310817,00000217,false,Rx,1,8,02,40,81,FC,9C,02,00,04,
43401030,00000207,false,Rx,1,8,00,01,40,00,C8,00,04,00,
43401278,00000227,false,Rx,1,8,00,00,00,00,03,00,1F,C5,
43401518,00000237,false,Rx,1,8,3B,41,00,00,00,00,00,00,
43401758,00000247,false,Rx,1,8,44,7D,6E,03,00,00,20,00,
43401999,00000717,false,Rx,1,8,0C,01,00,04,04,00,01,00,
43410807,00000217,false,Rx,1,8,02,40,81,FC,9C,02,00,04,
43501018,00000207,false,Rx,1,8,00,01,40,00,C8,00,04,00,
43501259,00000227,false,Rx,1,8,00,00,00,00,00,00,1F,C5,
43501506,00000237,false,Rx,1,8,3B,41,00,00,00,00,00,00,
43501746,00000247,false,Rx,1,8,44,7D,6E,03,00,00,20,00,
43501987,00000717,false,Rx,1,8,0E,00,00,02,C6,20,00,00,
43510794,00000217,false,Rx,1,8,02,40,81,FC,9C,02,00,04,
43600979,00000207,false,Rx,1,8,00,01,40,00,C8,00,04,00,
43601217,00000227,false,Rx,1,8,00,00,00,00,00,00,1F,C5,
43601466,00000237,false,Rx,1,8,3B,41,00,00,00,00,00,00,
43601699,00000247,false,Rx,1,8,44,7D,6E,03,00,00,20,00,
43601939,00000717,false,Rx,1,8,0F,00,EB,01,34,0E,00,00,
43610747,00000217,false,Rx,1,8,02,40,81,FC,9C,02,00,04,
43700962,00000207,false,Rx,1,8,00,02,40,00,C8,00,04,00,
43701208,00000227,false,Rx,1,8,00,00,00,00,01,00,1F,C5,
43701457,00000237,false,Rx,1,8,3B,41,00,00,00,00,00,00,
43701691,00000247,false,Rx,1,8,44,7D,6E,03,00,00,20,00,
43701930,00000717,false,Rx,1,8,10,0A,00,FF,03,80,FF,00,
43710747,00000217,false,Rx,1,8,02,40,81,FC,9C,02,00,04,
43800921,00000207,false,Rx,1,8,00,02,40,00,C8,00,04,00,
43801167,00000227,false,Rx,1,8,02,00,00,00,01,00,1F,C5,
43801409,00000237,false,Rx,1,8,3B,41,00,00,00,00,00,00,
43801649,00000247,false,Rx,1,8,44,7D,6E,03,00,00,20,00,
43801889,00000717,false,Rx,1,8,11,00,00,00,00,00,02,02,
43810729,00000217,false,Rx,1,8,02,40,81,FC,9C,02,00,04,
43900911,00000207,false,Rx,1,8,00,02,40,00,C8,00,04,00,
43901157,00000227,false,Rx,1,8,00,00,00,00,00,00,1F,C5,
43901399,00000237,false,Rx,1,8,3B,41,00,00,00,00,00,00,
43901639,00000247,false,Rx,1,8,44,7D,6E,03,00,00,20,00,
43901879,00000717,false,Rx,1,8,12,40,29,00,27,00,16,00,
43910697,00000217,false,Rx,1,8,02,40,81,FC,9C,02,00,04,
44000902,00000207,false,Rx,1,8,00,02,40,00,C8,00,04,00,
44001149,00000227,false,Rx,1,8,00,00,00,00,00,00,1F,C5,
44001390,00000237,false,Rx,1,8,3B,41,00,00,00,00,00,00,
44001630,00000247,false,Rx,1,8,44,7D,6E,03,00,00,20,00,
44001878,00000717,false,Rx,1,8,13,00,00,00,00,00,00,00,
44010685,00000217,false,Rx,1,8,02,40,81,FC,9C,02,00,04,
44100771,00000367,false,Rx,1,8,00,00,00,00,00,00,00,00,
44101018,00000207,false,Rx,1,8,00,02,40,00,C8,00,04,00,
44101260,00000227,false,Rx,1,8,00,00,00,00,00,00,1F,C5,
44101507,00000237,false,Rx,1,8,3B,41,00,00,00,00,00,00,
44101741,00000247,false,Rx,1,8,44,7D,6E,03,00,00,20,00,
44101988,00000717,false,Rx,1,8,14,00,00,00,7F,00,00,00,
44110635,00000217,false,Rx,1,8,02,40,81,FC,9C,02,00,04,
44110883,00000377,false,Rx,1,8,00,00,00,00,00,00,00,00,
44120768,00000347,false,Rx,1,8,00,00,00,00,00,08,00,00,
44130764,00000357,false,Rx,1,8,00,00,00,00,00,00,00,00,
44140761,00000327,false,Rx,1,8,00,00,00,00,00,00,00,00,
44150757,00000337,false,Rx,1,8,00,00,00,00,00,00,00,00,
44200855,00000207,false,Rx,1,8,00,02,40,00,C8,00,04,00,
44201101,00000227,false,Rx,1,8,01,00,00,00,03,00,1F,C5,
44201342,00000237,false,Rx,1,8,3B,41,00,00,00,00,00,00,
44201583,00000247,false,Rx,1,8,44,7D,6E,03,00,00,20,00,
44210637,00000217,false,Rx,1,8,02,40,81,FC,9C,02,00,04,
44300814,00000207,false,Rx,1,8,00,02,40,00,C8,00,04,00,
44301060,00000227,false,Rx,1,8,00,00,00,00,03,00,1F,C5,
44301303,00000237,false,Rx,1,8,3B,41,00,00,00,00,00,00,
44301542,00000247,false,Rx,1,8,44,7D,6E,03,00,00,20,00,
44301782,00000717,false,Rx,1,8,16,00,00,00,00,00,66,45,
44310628,00000217,false,Rx,1,8,02,40,81,FC,9C,02,00,04,
44400797,00000207,false,Rx,1,8,00,02,40,00,C8,00,04,00,
44401043,00000227,false,Rx,1,8,00,00,00,00,00,00,1F,C5,
44401285,00000237,false,Rx,1,8,3B,41,00,00,00,00,00,00,
44401525,00000247,false,Rx,1,8,44,7D,6E,03,00,00,20,00,
44401772,00000717,false,Rx,1,8,17,00,00,40,04,00,00,00,
44410588,00000217,false,Rx,1,8,02,40,81,FC,9C,02,00,04,
44500793,00000207,false,Rx,1,8,00,02,40,00,C8,00,04,00,
44501041,00000227,false,Rx,1,8,00,00,00,00,02,00,1F,C5,
44501283,00000237,false,Rx,1,8,3B,41,00,00,00,00,00,00,
44501522,00000247,false,Rx,1,8,44,7D,6E,03,00,00,20,00,
44501771,00000717,false,Rx,1,8,18,00,00,00,00,00,00,00,
44510580,00000217,false,Rx,1,8,02,40,81,FC,9C,02,00,04,
44600751,00000207,false,Rx,1,8,00,02,40,00,C8,00,04,00,
44600998,00000227,false,Rx,1,8,00,00,00,00,01,00,1F,C5,
44601246,00000237,false,Rx,1,8,3B,41,00,00,00,00,00,00,
44601479,00000247,false,Rx,1,8,44,7D,6E,03,00,00,20,00,
44601727,00000717,false,Rx,1,8,19,00,00,00,00,00,00,00,
44610535,00000217,false,Rx,1,8,02,40,81,FC,9C,02,00,04,
44700759,00000207,false,Rx,1,8,00,01,40,00,C8,00,04,00,
44701005,00000227,false,Rx,1,8,02,00,00,00,02,00,1F,C5,
44701254,00000237,false,Rx,1,8,3B,41,00,00,00,00,00,00,
44701487,00000247,false,Rx,1,8,44,7D,6E,03,00,00,20,00,
44701735,00000717,false,Rx,1,8,01,00,00,00,00,00,00,00,
44710543,00000217,false,Rx,1,8,02,40,81,FC,9C,02,00,04,
44800742,00000207,false,Rx,1,8,00,01,40,00,C8,00,04,00,
44800981,00000227,false,Rx,1,8,00,00,00,00,01,00,1F,C5,
44801228,00000237,false,Rx,1,8,3B,41,00,00,00,00,00,00,
44801464,00000247,false,Rx,1,8,44,7D,6E,03,00,00,20,00,
44801711,00000717,false,Rx,1,8,02,00,00,00,00,00,00,00,
44810522,00000217,false,Rx,1,8,02,40,81,FC,9C,02,00,04,
44900694,00000207,false,Rx,1,8,00,01,40,00,C8,00,04,00,
44900940,00000227,false,Rx,1,8,00,00,00,00,00,00,1F,C5,
44901181,00000237,false,Rx,1,8,3B,41,00,00,00,00,00,00,
44901422,00000247,false,Rx,1,8,44,7D,6E,03,00,00,20,00,
44910477,00000217,false,Rx,1,8,02,40,81,FC,9C,02,00,04,
45000696,00000207,false,Rx,1,8,00,01,40,00,C8,00,04,00,
45000943,00000227,false,Rx,1,8,00,00,00,00,01,00,1F,C5,
45001190,00000237,false,Rx,1,8,3B,41,00,00,00,00,00,00,
45001425,00000247,false,Rx,1,8,44,7D,6E,03,00,00,20,00,
45001672,00000717,false,Rx,1,8,04,00,00,00,00,00,00,00,
45010467,00000217,false,Rx,1,8,02,40,81,FC,9C,02,00,04,
45100568,00000367,false,Rx,1,8,00,00,00,00,00,00,00,00,
45100815,00000207,false,Rx,1,8,00,01,40,00,C8,00,04,00,
45101062,00000227,false,Rx,1,8,00,00,00,00,00,00,1F,C5,
45101303,00000237,false,Rx,1,8,3B,41,00,00,00,00,00,00,
45101543,00000247,false,Rx,1,8,44,7D,6E,03,00,00,20,00,
45101784,00000717,false,Rx,1,8,05,00,00,00,00,00,00,00,
45110454,00000217,false,Rx,1,8,02,40,81,FC,9C,02,00,04,
45110708,00000377,false,Rx,1,8,00,00,00,00,00,00,00,00,
45120555,00000347,false,Rx,1,8,00,00,00,00,00,08,00,00,
45130560,00000357,false,Rx,1,8,00,00,00,00,00,00,00,00,
45140557,00000327,false,Rx,1,8,00,00,00,00,00,00,00,00,
45150554,00000337,false,Rx,1,8,00,00,00,00,00,00,00,00,
45200651,00000207,false,Rx,1,8,00,01,40,00,C8,00,04,00,
45200898,00000227,false,Rx,1,8,00,00,00,00,01,00,1F,C5,
45201137,00000237,false,Rx,1,8,3B,41,00,00,00,00,00,00,
45201378,00000247,false,Rx,1,8,44,7D,6E,03,00,00,20,00,
45201619,00000717,false,Rx,1,8,06,00,1E,46,66,06,00,40,
45210429,00000217,false,Rx,1,8,02,40,81,FC,9C,02,00,04,
45300628,00000207,false,Rx,1,8,00,01,40,00,C8,00,04,00,
45300874,00000227,false,Rx,1,8,00,00,00,00,00,00,1F,C5,
45301114,00000237,false,Rx,1,8,3B,41,00,00,00,00,00,00,
45301356,00000247,false,Rx,1,8,44,7D,6E,03,00,00,20,00,
45301596,00000717,false,Rx,1,8,07,00,00,00,02,0A,00,00,
45310406,00000217,false,Rx,1,8,02,40,81,FC,9C,02,00,04,
45400588,00000207,false,Rx,1,8,00,01,40,00,C8,00,04,00,
45400827,00000227,false,Rx,1,8,00,00,00,00,0E,00,1F,C5,
45401075,00000237,false,Rx,1,8,3B,41,00,00,00,00,00,00,
45401309,00000247,false,Rx,1,8,44,7D,6E,03,00,00,20,00,
45401549,00000717,false,Rx,1,8,08,00,00,00,6E,45,00,00,
45410367,00000217,false,Rx,1,8,02,40,81,FC,9C,02,00,04,
45500595,00000207,false,Rx,1,8,00,01,40,00,C8,00,04,00,
45500834,00000227,false,Rx,1,8,00,00,00,00,00,00,1F,C5,
45501082,00000237,false,Rx,1,8,3B,41,00,00,00,00,00,00,
45501316,00000247,false,Rx,1,8,44,7D,6E,03,00,00,20,00,
45501563,00000717,false,Rx,1,8,09,00,2E,46,00,00,00,00,
45510371,00000217,false,Rx,1,8,02,40,81,FC,9C,02,00,04,
45600547,00000207,false,Rx,1,8,00,01,40,00,C8,00,04,00,
45600795,00000227,false,Rx,1,8,00,00,00,00,00,00,1F,C5,
45601034,00000237,false,Rx,1,8,3B,41,00,00,00,00,00,00,
45601275,00000247,false,Rx,1,8,44,7D,6E,03,00,00,20,00,
45601524,00000717,false,Rx,1,8,0A,00,00,00,00,00,00,00,
45610346,00000217,false,Rx,1,8,02,40,81,FC,9C,02,00,04,
45700527,00000207,false,Rx,1,8,00,01,40,00,C8,00,04,00,
45700774,00000227,false,Rx,1,8,00,00,00,00,00,00,1F,C5,
45701014,00000237,false,Rx,1,8,3B,41,00,00,00,00,00,00,
45701255,00000247,false,Rx,1,8,44,7D,6E,03,00,00,20,00,
45701503,00000717,false,Rx,1,8,0B,00,00,00,00,00,00,00,
45710319,00000217,false,Rx,1,8,02,40,81,FC,9C,02,00,04,
45800530,00000207,false,Rx,1,8,00,01,40,00,C8,00,04,00,
45800777,00000227,false,Rx,1,8,00,00,00,00,02,00,1F,C5,
45801016,00000237,false,Rx,1,8,3B,41,00,00,00,00,00,00,
45801259,00000247,false,Rx,1,8,44,7D,6E,03,00,00,20,00,
45801498,00000717,false,Rx,1,8,0C,01,00,04,04,00,01,00,
45810298,00000217,false,Rx,1,8,02,40,81,FC,9C,02,00,04,
45900490,00000207,false,Rx,1,8,00,01,40,00,C8,00,04,00,
45900737,00000227,false,Rx,1,8,00,00,00,00,00,00,1F,C5,
45900976,00000237,false,Rx,1,8,3B,41,00,00,00,00,00,00,
45901217,00000247,false,Rx,1,8,44,7D,6E,03,00,00,20,00,
45901459,00000537,false,Rx,1,8,0A,01,0E,00,FC,00,3F,00,
45901698,00000717,false,Rx,1,8,0E,00,00,02,26,2A,00,00,
45910264,00000217,false,Rx,1,8,02,40,81,FC,9C,02,00,04,
46000480,00000207,false,Rx,1,8,00,01,40,00,C8,00,04,00,
46000726,00000227,false,Rx,1,8,00,00,00,00,07,00,1F,C5,
46000975,00000237,false,Rx,1,8,3B,41,00,00,00,00,00,00,
46001207,00000247,false,Rx,1,8,44,7D,6E,03,00,00,20,00,
46001448,00000717,false,Rx,1,8,0F,00,EB,01,EE,0D,00,00,
46010264,00000217,false,Rx,1,8,02,40,81,FC,9C,02,00,04,
46100346,00000367,false,Rx,1,8,00,00,00,00,00,00,00,00,
46100593,00000207,false,Rx,1,8,00,01,40,00,C8,00,04,00,
46100841,00000227,false,Rx,1,8,00,00,00,00,02,00,1F,C5,
46101088,00000237,false,Rx,1,8,3B,41,00,00,00,00,00,00,
46101323,00000247,false,Rx,1,8,44,7D,6E,03,00,00,20,00,
46101564,00000717,false,Rx,1,8,10,0A,F0,FE,03,80,FF,00,
46110232,00000217,false,Rx,1,8,02,40,81,FC,9C,02,00,04,
46110487,00000377,false,Rx,1,8,00,00,00,00,00,00,00,00,
46120341,00000347,false,Rx,1,8,00,00,00,00,00,08,00,00,
46130339,00000357,false,Rx,1,8,00,00,00,00,00,00,00,00,
46140336,00000327,false,Rx,1,8,00,00,00,00,00,00,00,00,
46150332,00000337,false,Rx,1,8,00,00,00,00,00,00,00,00,
46200424,00000207,false,Rx,1,8,00,01,40,00,C8,00,04,00,
46200672,00000227,false,Rx,1,8,00,00,00,00,01,00,1F,C5,
46200912,00000237,false,Rx,1,8,3B,41,00,00,00,00,00,00,
46201151,00000247,false,Rx,1,8,44,7D,6E,03,00,00,20,00,
46201394,00000717,false,Rx,1,8,11,00,00,00,00,00,02,02,
46210194,00000217,false,Rx,1,8,02,40,81,FC,9C,02,00,04,
46300416,00000207,false,Rx,1,8,00,02,40,00,C8,00,04,00,
46300662,00000227,false,Rx,1,8,00,00,00,00,00,00,1F,C5,
46300902,00000237,false,Rx,1,8,3B,41,00,00,00,00,00,00,
46301141,00000247,false,Rx,1,8,44,7D,6E,03,00,00,20,00,
46301376,00000717,false,Rx,1,8,12,40,29,00,27,00,17,00,
46310199,00000217,false,Rx,1,8,02,40,81,FC,9C,02,00,04,
46400376,00000207,false,Rx,1,8,00,02,40,00,C8,00,04,00,
46400615,00000227,false,Rx,1,8,00,00,00,00,00,00,1F,C5,
46400863,00000237,false,Rx,1,8,3B,41,00,00,00,00,00,00,
46401104,00000247,false,Rx,1,8,44,7D,6E,03,00,00,20,00,
46401345,00000717,false,Rx,1,8,13,00,00,00,00,00,00,00,
46410159,00000217,false,Rx,1,8,02,40,81,FC,9C,02,00,04,
46500367,00000207,false,Rx,1,8,00,03,40,01,C8,00,04,00,
46500613,00000227,false,Rx,1,8,00,00,00,00,03,00,1F,C5,
46500854,00000237,false,Rx,1,8,3B,41,00,00,00,00,00,00,
46501094,00000247,false,Rx,1,8,44,7D,6E,03,00,00,20,00,
46501335,00000717,false,Rx,1,8,14,00,00,00,BC,FF,00,00,
46510152,00000217,false,Rx,1,8,02,40,81,FC,9C,02,00,04,
46600349,00000207,false,Rx,1,8,01,09,C0,02,C8,00,04,00,
46600595,00000227,false,Rx,1,8,00,00,00,00,00,00,1F,C5,
46600836,00000237,false,Rx,1,8,3B,41,00,00,00,00,00,00,
46601076,00000247,false,Rx,1,8,44,7D,6E,03,00,00,20,00,
46610131,00000217,false,Rx,1,8,02,40,81,FC,9C,02,00,04,
46700313,00000207,false,Rx,1,8,02,0F,80,03,C8,00,04,00,
46700561,00000227,false,Rx,1,8,00,00,00,00,02,00,1F,C5,
46700801,00000237,false,Rx,1,8,3B,41,00,00,00,00,00,00,
46701041,00000247,false,Rx,1,8,44,7D,6E,03,00,00,20,00,
46701283,00000717,false,Rx,1,8,16,00,00,00,00,00,46,3F,
46710094,00000217,false,Rx,1,8,02,40,81,FC,9C,02,00,04,
46800301,00000207,false,Rx,1,8,02,13,C0,03,C8,00,04,00,
46800541,00000227,false,Rx,1,8,00,00,00,00,00,00,1F,C5,
46800788,00000237,false,Rx,1,8,3B,41,00,00,00,00,00,00,
46801028,00000247,false,Rx,1,8,44,7D,6E,03,00,00,20,00,
46801270,00000537,false,Rx,1,8,0B,00,05,06,00,00,00,00,
46801518,00000717,false,Rx,1,8,17,00,00,40,04,00,00,00,
46810089,00000217,false,Rx,1,8,02,40,81,FC,9C,02,00,04,
46900259,00000207,false,Rx,1,8,03,17,40,04,C8,00,04,00,
46900505,00000227,false,Rx,1,8,01,00,00,00,00,00,1F,C5,
46900745,00000237,false,Rx,1,8,3B,41,00,00,00,00,00,00,
46900986,00000247,false,Rx,1,8,44,7D,6E,03,00,00,20,00,
46901234,00000717,false,Rx,1,8,18,00,00,00,00,00,00,00,
46910065,00000217,false,Rx,1,8,02,40,81,FC,9C,02,00,04,
47000248,00000207,false,Rx,1,8,03,1A,80,04,C8,00,04,00,
47000502,00000227,false,Rx,1,8,00,00,00,00,02,00,1F,C5,
47000741,00000237,false,Rx,1,8,3B,41,00,00,00,00,00,00,
47000983,00000247,false,Rx,1,8,44,7D,6E,03,00,00,20,00,
47001230,00000717,false,Rx,1,8,19,00,00,00,00,00,00,00,
47010054,00000217,false,Rx,1,8,02,40,81,FC,9C,02,00,04,
47100139,00000367,false,Rx,1,8,00,00,00,00,00,00,00,00,
47100380,00000207,false,Rx,1,8,03,1D,40,04,C8,00,04,00,
47100620,00000227,false,Rx,1,8,00,00,00,00,00,00,1F,C5,
47100868,00000237,false,Rx,1,8,3B,41,00,00,00,00,00,00,
47101101,00000247,false,Rx,1,8,44,7D,6E,03,00,00,20,00,
47101350,00000717,false,Rx,1,8,01,00,00,00,00,00,00,00,
47110026,00000217,false,Rx,1,8,02,40,81,FC,9C,02,00,04,
47110281,00000377,false,Rx,1,8,00,00,00,00,00,00,00,00,
47120127,00000347,false,Rx,1,8,00,00,00,00,00,08,00,00,
47130131,00000357,false,Rx,1,8,00,00,00,00,00,00,00,00,
47140129,00000327,false,Rx,1,8,00,00,00,00,00,00,00,00,
47150119,00000337,false,Rx,1,8,00,00,00,00,00,00,00,00,
47200196,00000207,false,Rx,1,8,04,1F,40,04,C8,00,04,00,
47200436,00000227,false,Rx,1,8,00,00,00,00,03,00,1F,C5,
47200685,00000237,false,Rx,1,8,3B,41,00,00,00,00,00,00,
47200924,00000247,false,Rx,1,8,44,7D,6E,03,00,00,20,00,
47201164,00000717,false,Rx,1,8,02,00,00,00,00,00,00,00,
47209973,00000217,false,Rx,1,8,02,40,01,FC,9C,02,00,04,
47300194,00000207,false,Rx,1,8,04,1F,C0,03,C8,00,04,00,
47300436,00000227,false,Rx,1,8,00,00,00,00,00,00,1F,C5,
47300683,00000237,false,Rx,1,8,3B,41,00,00,00,00,00,00,
47300923,00000247,false,Rx,1,8,44,7D,6E,03,00,00,20,00,
47309977,00000217,false,Rx,1,8,02,40,01,FC,9C,02,00,04,
47400154,00000207,false,Rx,1,8,04,20,C0,03,C8,00,04,00,
47400395,00000227,false,Rx,1,8,00,00,00,00,00,00,1F,C5,
47400634,00000237,false,Rx,1,8,3B,41,00,00,00,00,00,00,
47400874,00000247,false,Rx,1,8,44,7D,6E,03,00,00,20,00,
47401123,00000717,false,Rx,1,8,04,00,00,00,00,00,00,00,
47409953,00000217,false,Rx,1,8,02,40,01,FC,9C,02,00,04,
47500129,00000207,false,Rx,1,8,04,20,80,03,C8,00,04,00,
47500377,00000227,false,Rx,1,8,00,00,00,00,02,00,1F,C5,
47500624,00000237,false,Rx,1,8,3B,41,00,00,00,00,00,00,
47500858,00000247,false,Rx,1,8,44,7D,6E,03,00,00,20,00,
47501105,00000717,false,Rx,1,8,05,00,00,00,00,00,00,00,
47509928,00000217,false,Rx,1,8,02,40,01,FC,9C,02,00,04,
47600134,00000207,false,Rx,1,8,04,20,40,03,C8,00,04,00,
47600375,00000227,false,Rx,1,8,00,00,00,00,01,00,1F,C5,
47600624,00000237,false,Rx,1,8,3B,41,00,00,00,00,00,00,
47600856,00000247,false,Rx,1,8,44,7D,6E,03,00,00,20,00,
47601096,00000717,false,Rx,1,8,06,00,76,30,66,06,00,40,
47609921,00000217,false,Rx,1,8,02,40,01,FC,9C,02,00,04,
47700078,00000207,false,Rx,1,8,04,20,40,03,C8,00,04,00,
47700326,00000227,false,Rx,1,8,00,00,00,00,01,00,1F,C5,
47700567,00000237,false,Rx,1,8,3B,41,00,00,00,00,00,00,
47700807,00000247,false,Rx,1,8,44,7D,6E,03,00,00,20,00,
47701047,00000537,false,Rx,1,8,0D,00,00,00,7D,F1,02,85,
47701289,00000717,false,Rx,1,8,07,00,00,00,02,0A,00,00,
47709872,00000217,false,Rx,1,8,02,40,01,FC,9C,02,00,04,
47800091,00000207,false,Rx,1,8,04,20,C0,02,C8,00,04,00,
47800339,00000227,false,Rx,1,8,01,00,00,00,00,00,1F,C5,
47800579,00000237,false,Rx,1,8,3B,41,00,00,00,00,00,00,
47800819,00000247,false,Rx,1,8,44,7D,6E,03,00,00,20,00,
47801059,00000717,false,Rx,1,8,08,00,00,00,F6,2C,00,00,
47809870,00000217,false,Rx,1,8,02,40,01,FC,9C,02,00,04,
47900065,00000207,false,Rx,1,8,04,20,00,03,C8,00,04,00,
47900314,00000227,false,Rx,1,8,00,00,00,00,05,00,1F,C5,
47900554,00000237,false,Rx,1,8,3B,41,00,00,00,00,00,00,
47900793,00000247,false,Rx,1,8,44,7D,6E,03,00,00,20,00,
47901035,00000717,false,Rx,1,8,09,00,B2,2C,00,00,00,00,
47909857,00000217,false,Rx,1,8,02,40,01,FC,9C,02,00,04,
48000018,00000207,false,Rx,1,8,04,22,00,03,C8,00,04,00,
48000266,00000227,false,Rx,1,8,00,00,00,00,02,00,1F,C5,
48000513,00000237,false,Rx,1,8,3B,41,00,00,00,00,00,00,
48000754,00000247,false,Rx,1,8,44,7D,6E,03,00,00,20,00,
48000994,00000717,false,Rx,1,8,0A,00,00,00,00,00,00,00,
48009803,00000217,false,Rx,1,8,02,40,01,FC,9C,02,00,04,
48099918,00000367,false,Rx,1,8,00,00,00,00,00,00,00,00,
48100156,00000207,false,Rx,1,8,04,25,00,03,C8,00,04,00,
48100397,00000227,false,Rx,1,8,00,00,00,00,00,00,1F,C5,
48100646,00000237,false,Rx,1,8,3B,41,00,00,00,00,00,00,
48100878,00000247,false,Rx,1,8,44,7D,6E,03,00,00,20,00,
48101126,00000717,false,Rx,1,8,0B,00,00,00,00,00,00,00,
48109807,00000217,false,Rx,1,8,02,40,01,FC,9C,02,00,04,
48110053,00000377,false,Rx,1,8,00,00,00,00,00,00,00,00,
48119908,00000347,false,Rx,1,8,00,00,00,00,00,08,00,00,
48129905,00000357,false,Rx,1,8,00,00,00,00,00,00,00,00,
48139910,00000327,false,Rx,1,8,00,00,00,00,00,00,00,00,
48149900,00000337,false,Rx,1,8,00,00,00,00,00,00,00,00,
48199985,00000207,false,Rx,1,8,05,28,00,03,C8,00,04,00,
48200224,00000227,false,Rx,1,8,00,00,00,00,00,00,1F,C5,
48200474,00000237,false,Rx,1,8,3B,41,00,00,00,00,00,00,
48200706,00000247,false,Rx,1,8,44,7D,6E,03,00,00,20,00,
48200954,00000717,false,Rx,1,8,0C,01,00,04,04,00,01,00,
48209769,00000217,false,Rx,1,8,02,40,01,FC,9C,02,00,04,
48299981,00000207,false,Rx,1,8,05,2A,C0,02,C8,00,04,00,
48300227,00000227,false,Rx,1,8,00,00,00,00,00,00,1F,C5,
48300469,00000237,false,Rx,1,8,3B,41,00,00,00,00,00,00,
48300709,00000247,false,Rx,1,8,44,7D,6E,03,00,00,20,00,
48300941,00000717,false,Rx,1,8,0E,00,00,02,86,33,00,00,
48309772,00000217,false,Rx,1,8,02,40,01,FC,9C,02,00,04,
48399955,00000207,false,Rx,1,8,05,2D,C0,02,C8,00,04,00,
48400202,00000227,false,Rx,1,8,00,00,00,00,00,00,1F,C5,
48400443,00000237,false,Rx,1,8,3B,41,00,00,00,00,00,00,
48400683,00000247,false,Rx,1,8,44,7D,6E,03,00,00,20,00,
48400924,00000717,false,Rx,1,8,0F,00,EB,01,CD,10,00,00,
48409747,00000217,false,Rx,1,8,02,40,01,FC,9C,02,00,04,
48499911,00000207,false,Rx,1,8,06,30,80,02,C8,00,04,00,
48500158,00000227,false,Rx,1,8,00,00,00,00,02,00,1F,C5,
48500407,00000237,false,Rx,1,8,3B,41,00,00,00,00,00,00,
48500639,00000247,false,Rx,1,8,44,7D,6E,03,00,00,20,00,
48500880,00000717,false,Rx,1,8,10,09,D0,FE,03,80,FF,00,
48509703,00000217,false,Rx,1,8,02,40,01,FC,9C,02,00,04,
48599910,00000207,false,Rx,1,8,06,34,40,02,C8,00,04,00,
48600156,00000227,false,Rx,1,8,00,00,00,00,01,00,1F,C5,
48600405,00000237,false,Rx,1,8,3B,41,00,00,00,00,00,00,
48600638,00000247,false,Rx,1,8,44,7D,6E,03,00,00,20,00,
48600886,00000537,false,Rx,1,8,0E,00,00,00,00,00,00,00,
48601133,00000717,false,Rx,1,8,11,00,00,00,00,00,02,02,
48609712,00000217,false,Rx,1,8,02,40,01,FC,9C,02,00,04,
48699871,00000207,false,Rx,1,8,06,38,40,02,C8,00,04,00,
48700117,00000227,false,Rx,1,8,00,00,00,00,02,00,1F,C5,
48700358,00000237,false,Rx,1,8,3B,41,00,00,00,00,00,00,
48700599,00000247,false,Rx,1,8,44,7D,6E,03,00,00,20,00,
48700831,00000717,false,Rx,1,8,12,40,29,00,27,00,17,00,
48709686,00000217,false,Rx,1,8,02,40,01,FC,9C,02,00,04,
48799854,00000207,false,Rx,1,8,07,3B,C0,01,C8,00,04,00,
48800100,00000227,false,Rx,1,8,01,00,00,00,00,00,1F,C5,
48800342,00000237,false,Rx,1,8,3B,41,00,00,00,00,00,00,
48800582,00000247,false,Rx,1,8,44,7D,6E,03,00,00,20,00,
48800830,00000717,false,Rx,1,8,13,00,00,00,00,00,00,00,
48809661,00000217,false,Rx,1,8,02,40,01,FC,9C,02,00,04,
48899852,00000207,false,Rx,1,8,07,3D,80,01,C8,00,04,00,
48900092,00000227,false,Rx,1,8,00,00,00,00,00,00,1F,C5,
48900341,00000237,false,Rx,1,8,3B,41,00,00,00,00,00,00,
48900573,00000247,false,Rx,1,8,44,7D,6E,03,00,00,20,00,
48900820,00000717,false,Rx,1,8,14,00,00,00,2D,EE,00,00,
48909638,00000217,false,Rx,1,8,02,40,01,FC,9C,02,00,04,
48999811,00000207,false,Rx,1,8,07,3F,00,01,C8,00,04,00,
49000059,00000227,false,Rx,1,8,00,00,00,00,00,00,1F,C5,
49000301,00000237,false,Rx,1,8,3B,41,00,00,00,00,00,00,
49000540,00000247,false,Rx,1,8,44,7D,6E,03,00,00,20,00,
49009595,00000217,false,Rx,1,8,02,40,01,FC,9C,02,00,04,
49099710,00000367,false,Rx,1,8,00,00,00,00,00,00,00,00,
49099950,00000207,false,Rx,1,8,08,42,C0,00,C8,00,04,00,
49100198,00000227,false,Rx,1,8,00,00,00,00,00,00,1F,C5,
49100438,00000237,false,Rx,1,8,3B,41,00,00,00,00,00,00,
49100680,00000247,false,Rx,1,8,44,7D,6E,03,00,00,20,00,
49100919,00000717,false,Rx,1,8,16,00,00,00,00,00,96,F5,
49109598,00000217,false,Rx,1,8,02,40,01,FC,9C,02,00,04,
49109845,00000377,false,Rx,1,8,00,00,00,00,00,00,00,00,
49119700,00000347,false,Rx,1,8,00,00,00,00,00,08,00,00,
49129697,00000357,false,Rx,1,8,00,00,00,00,00,00,00,00,
49139696,00000327,false,Rx,1,8,00,00,00,00,00,00,00,00,
49149685,00000337,false,Rx,1,8,00,00,00,00,00,00,00,00,
49199767,00000207,false,Rx,1,8,08,44,40,00,C8,00,04,00,
49200013,00000227,false,Rx,1,8,01,00,00,00,01,00,1F,C5,
49200254,00000237,false,Rx,1,8,3B,41,00,00,00,00,00,00,
49200495,00000247,false,Rx,1,8,44,7D,6E,03,00,00,20,00,
49200735,00000717,false,Rx,1,8,17,00,00,40,04,00,00,00,
49209581,00000217,false,Rx,1,8,02,40,01,FC,9C,02,01,04,
49299742,00000207,false,Rx,1,8,08,46,C0,FF,C8,00,04,00,
49299988,00000227,false,Rx,1,8,00,00,00,00,00,00,1F,C5,
49300236,00000237,false,Rx,1,8,3B,41,00,00,00,00,00,00,
49300470,00000247,false,Rx,1,8,44,7D,6E,03,00,00,20,00,
49300717,00000717,false,Rx,1,8,18,00,00,00,00,00,00,00,
49309533,00000217,false,Rx,1,8,02,40,01,FC,9C,02,01,04,
49399748,00000207,false,Rx,1,8,08,48,40,FF,C8,00,04,00,
49399995,00000227,false,Rx,1,8,00,00,00,00,01,00,1F,C5,
49400244,00000237,false,Rx,1,8,3B,41,00,00,00,00,00,00,
49400477,00000247,false,Rx,1,8,44,7D,6E,03,00,00,20,00,
49400724,00000717,false,Rx,1,8,19,00,00,00,00,00,00,00,
49409540,00000217,false,Rx,1,8,02,40,01,FC,9C,02,01,04,
49499701,00000207,false,Rx,1,8,08,4A,C0,FE,C8,00,04,00,
49499949,00000227,false,Rx,1,8,00,00,00,00,04,00,1F,C5,
49500188,00000237,false,Rx,1,8,3B,41,00,00,00,00,00,00,
49500429,00000247,false,Rx,1,8,44,7D,6E,03,00,00,20,00,
49500663,00000537,false,Rx,1,8,0F,00,00,00,8C,A1,70,0A,
49500910,00000717,false,Rx,1,8,01,00,00,00,00,00,00,00,
49509488,00000217,false,Rx,1,8,02,40,01,FC,9C,02,01,04,
49599698,00000207,false,Rx,1,8,09,4C,00,FE,C8,00,04,00,
49599953,00000227,false,Rx,1,8,00,00,00,00,02,00,1F,C5,
49600192,00000237,false,Rx,1,8,3B,41,00,00,00,00,00,00,
49600433,00000247,false,Rx,1,8,44,7D,6E,03,00,00,20,00,
49600674,00000717,false,Rx,1,8,02,00,00,00,00,00,00,00,
49609492,00000217,false,Rx,1,8,02,40,01,FC,9C,02,01,04,
49699671,00000207,false,Rx,1,8,09,4E,C0,FD,C8,00,04,00,
49699918,00000227,false,Rx,1,8,00,00,00,00,00,00,1F,C5,
49700165,00000237,false,Rx,1,8,3B,41,00,00,00,00,00,00,
49700400,00000247,false,Rx,1,8,44,7D,6E,03,00,00,20,00,
49709470,00000217,false,Rx,1,8,02,40,01,FC,9C,02,01,04,
49799641,00000207,false,Rx,1,8,09,50,00,FD,C8,00,04,00,
49799887,00000227,false,Rx,1,8,00,00,00,00,01,00,1F,C5,
49800127,00000237,false,Rx,1,8,3B,41,00,00,00,00,00,00,
49800369,00000247,false,Rx,1,8,44,7D,6E,03,00,00,20,00,
49800617,00000717,false,Rx,1,8,04,00,00,00,00,00,00,00,
49809425,00000217,false,Rx,1,8,02,40,01,FC,9C,02,01,04,
49899641,00000207,false,Rx,1,8,0A,53,40,FC,C8,00,04,00,
49899880,00000227,false,Rx,1,8,00,00,00,00,00,00,1F,C5,
49900129,00000237,false,Rx,1,8,3B,41,00,00,00,00,00,00,
49900362,00000247,false,Rx,1,8,44,7D,6E,03,00,00,20,00,
49900609,00000717,false,Rx,1,8,05,00,00,00,00,00,00,00,
49909428,00000217,false,Rx,1,8,02,40,01,FC,9C,02,01,04,
49999588,00000207,false,Rx,1,8,0A,55,C0,FB,C8,00,04,00,
49999826,00000227,false,Rx,1,8,01,00,00,00,03,00,1F,C5,
50000075,00000237,false,Rx,1,8,3B,41,00,00,00,00,00,00,
50000308,00000247,false,Rx,1,8,44,7D,6E,03,00,00,20,00,
50000548,00000717,false,Rx,1,8,06,00,66,06,66,06,00,40,
50009379,00000217,false,Rx,1,8,02,40,01,FC,9C,02,01,04,
50099502,00000367,false,Rx,1,8,00,00,00,00,00,00,00,00,
50099749,00000207,false,Rx,1,8,0A,57,00,FB,C8,00,04,00,
50099997,00000227,false,Rx,1,8,00,00,00,00,04,00,1F,C5,
50100236,00000237,false,Rx,1,8,3B,41,00,00,00,00,00,00,
50100478,00000247,false,Rx,1,8,44,7D,6E,03,00,00,20,00,
50100718,00000717,false,Rx,1,8,07,00,00,00,02,0A,00,00,
50109381,00000217,false,Rx,1,8,02,40,01,FC,9C,02,01,04,
50109627,00000377,false,Rx,1,8,00,00,00,00,00,00,00,00,
50119492,00000347,false,Rx,1,8,00,00,00,00,00,08,00,00,
50129480,00000357,false,Rx,1,8,00,00,00,00,00,00,00,00,
50139492,00000327,false,Rx,1,8,00,00,00,00,00,00,00,00,
50149476,00000337,false,Rx,1,8,00,00,00,00,00,00,00,00,
50199576,00000207,false,Rx,1,8,0A,5A,80,FA,C8,00,04,00,
50199822,00000227,false,Rx,1,8,00,00,00,00,02,00,1F,C5,
50200069,00000237,false,Rx,1,8,3B,41,00,00,00,00,00,00,
50200311,00000247,false,Rx,1,8,44,7D,6E,03,00,00,20,00,
50200551,00000717,false,Rx,1,8,08,00,00,00,66,06,00,00,
50209373,00000217,false,Rx,1,8,02,40,01,FC,9C,02,01,04,
50299523,00000207,false,Rx,1,8,0B,5D,C0,F9,C8,00,04,00,
50299769,00000227,false,Rx,1,8,00,00,00,00,00,00,1F,C5,
50300016,00000237,false,Rx,1,8,3B,41,00,00,00,00,00,00,
50300251,00000247,false,Rx,1,8,44,7D,6E,03,00,00,20,00,
50300491,00000717,false,Rx,1,8,09,00,66,06,00,00,00,00,
50309320,00000217,false,Rx,1,8,02,40,01,FC,9C,02,01,04,
50399528,00000207,false,Rx,1,8,0B,60,C0,F8,C8,00,04,00,
50399774,00000227,false,Rx,1,8,00,00,00,00,00,00,1F,C5,
50400015,00000237,false,Rx,1,8,3B,41,00,00,00,00,00,00,
50400256,00000247,false,Rx,1,8,44,7D,6E,03,00,00,20,00,
50400504,00000537,false,Rx,1,8,10,00,00,0A,00,00,00,00,
50400743,00000717,false,Rx,1,8,0A,00,00,00,00,00,00,00,
50409316,00000217,false,Rx,1,8,02,40,01,FC,9C,02,01,04,
50499489,00000207,false,Rx,1,8,0B,62,00,F8,C8,00,04,00,
50499728,00000227,false,Rx,1,8,01,00,00,00,0A,00,1F,C5,
50499969,00000237,false,Rx,1,8,3B,41,00,00,00,00,00,00,
50500209,00000247,false,Rx,1,8,44,7D,6E,03,00,00,20,00,
50500458,00000717,false,Rx,1,8,0B,00,00,00,00,00,00,00,
50509296,00000217,false,Rx,1,8,02,40,01,FC,9C,02,01,04,
50599462,00000207,false,Rx,1,8,0C,66,00,F7,C8,00,04,00,
50599710,00000227,false,Rx,1,8,00,00,00,00,04,00,1F,C5,
50599957,00000237,false,Rx,1,8,3B,41,00,00,00,00,00,00,
50600197,00000247,false,Rx,1,8,44,7D,6E,03,00,00,20,00,
50600439,00000717,false,Rx,1,8,0C,00,00,04,04,00,01,00,
50609269,00000217,false,Rx,1,8,02,40,01,FC,9C,02,01,04,
50699467,00000207,false,Rx,1,8,0C,69,40,F6,C8,00,04,00,
50699714,00000227,false,Rx,1,8,00,00,00,00,03,00,1F,C5,
50699954,00000237,false,Rx,1,8,3B,41,00,00,00,00,00,00,
50700194,00000247,false,Rx,1,8,44,7D,6E,03,00,00,20,00,
50700429,00000717,false,Rx,1,8,0E,00,00,02,E6,3C,00,00,
50709259,00000217,false,Rx,1,8,02,40,01,FC,9C,02,01,04,
50799424,00000207,false,Rx,1,8,0C,6C,40,F5,C8,00,04,00,
50799663,00000227,false,Rx,1,8,00,00,00,00,00,00,1F,C5,
50799910,00000237,false,Rx,1,8,3B,41,00,00,00,00,00,00,
50800144,00000247,false,Rx,1,8,44,7D,6E,03,00,00,20,00,
50800385,00000717,false,Rx,1,8,0F,00,EB,01,02,0E,00,00,
50809214,00000217,false,Rx,1,8,02,40,01,FC,9C,02,01,04,
50899420,00000207,false,Rx,1,8,0D,6E,40,F4,C8,00,04,00,
50899659,00000227,false,Rx,1,8,00,00,00,00,00,00,1F,C5,
50899906,00000237,false,Rx,1,8,3B,41,00,00,00,00,00,00,
50900140,00000247,false,Rx,1,8,44,7D,6E,03,00,00,20,00,
50900381,00000717,false,Rx,1,8,10,09,C0,FE,03,80,FF,00,
50909210,00000217,false,Rx,1,8,02,40,01,FC,9C,02,01,04,
50999382,00000207,false,Rx,1,8,0D,71,80,F3,C8,00,04,00,
50999621,00000227,false,Rx,1,8,00,00,00,00,00,00,1F,C5,
50999869,00000237,false,Rx,1,8,3B,41,00,00,00,00,00,00,
51000102,00000247,false,Rx,1,8,44,7D,6E,03,00,00,20,00,
51000350,00000717,false,Rx,1,8,11,00,00,00,00,00,02,02,
51009197,00000217,false,Rx,1,8,02,40,01,FC,9C,02,01,04,
51099282,00000367,false,Rx,1,8,00,00,00,00,00,00,00,00,
51099513,00000207,false,Rx,1,8,0D,74,40,F2,C8,00,04,00,
51099761,00000227,false,Rx,1,8,00,00,00,00,03,00,1F,C5,
51100009,00000237,false,Rx,1,8,3B,41,00,00,00,00,00,00,
51100250,00000247,false,Rx,1,8,44,7D,6E,03,00,00,20,00,
51100483,00000717,false,Rx,1,8,12,40,29,00,27,00,17,00,
51109151,00000217,false,Rx,1,8,02,40,01,FC,9C,02,01,04,
51109398,00000377,false,Rx,1,8,00,00,00,00,00,00,00,00,
51119275,00000347,false,Rx,1,8,00,00,00,00,00,08,00,00,
51129288,00000357,false,Rx,1,8,00,00,00,00,00,00,00,00,
51139286,00000327,false,Rx,1,8,00,00,00,00,00,00,00,00,
51149268,00000337,false,Rx,1,8,00,00,00,00,00,00,00,00,
51199353,00000207,false,Rx,1,8,0E,77,80,F1,C8,00,04,00,
51199601,00000227,false,Rx,1,8,00,00,00,00,00,00,1F,C5,
51199841,00000237,false,Rx,1,8,3B,41,00,00,00,00,00,00,
51200081,00000247,false,Rx,1,8,44,7D,6E,03,00,00,20,00,
51200330,00000717,false,Rx,1,8,13,00,00,00,00,00,00,00,
51209146,00000217,false,Rx,1,8,02,40,01,FC,9C,02,01,04,
51299317,00000207,false,Rx,1,8,0E,7A,80,F0,C8,00,04,00,
51299556,00000227,false,Rx,1,8,00,00,00,00,00,00,1F,C5,
51299803,00000237,false,Rx,1,8,3B,41,00,00,00,00,00,00,
51300043,00000247,false,Rx,1,8,44,7D,6E,03,00,00,20,00,
51300292,00000537,false,Rx,1,8,11,00,00,00,00,00,00,00,
51300532,00000717,false,Rx,1,8,14,00,00,00,A4,CF,00,00,
51309110,00000217,false,Rx,1,8,02,40,01,FC,9C,02,01,04,
51399321,00000207,false,Rx,1,8,0E,7D,40,EF,C8,00,04,00,
51399568,00000227,false,Rx,1,8,00,00,00,00,00,00,1F,C5,
51399815,00000237,false,Rx,1,8,3B,41,00,00,00,00,00,00,
51400049,00000247,false,Rx,1,8,44,7D,6E,03,00,00,20,00,
51409110,00000217,false,Rx,1,8,02,40,01,FC,9C,02,01,04,
51499296,00000207,false,Rx,1,8,0F,81,00,EE,C8,00,04,00,
51499543,00000227,false,Rx,1,8,00,00,00,00,06,00,1F,C5,
51499791,00000237,false,Rx,1,8,3B,41,00,00,00,00,00,00,
51500031,00000247,false,Rx,1,8,44,7D,6E,03,00,00,20,00,
51500272,00000717,false,Rx,1,8,16,00,00,00,00,00,BE,76,
51509089,00000217,false,Rx,1,8,02,40,01,FC,9C,02,01,04,
51599255,00000207,false,Rx,1,8,0F,85,40,EC,C8,00,04,00,
51599502,00000227,false,Rx,1,8,01,00,00,00,00,00,1F,C5,
51599750,00000237,false,Rx,1,8,3B,41,00,00,00,00,00,00,
51599983,00000247,false,Rx,1,8,44,7D,6E,03,00,00,20,00,
51600230,00000717,false,Rx,1,8,17,00,00,40,04,00,00,00,
51609040,00000217,false,Rx,1,8,02,40,81,FB,9C,02,01,04,
51699260,00000207,false,Rx,1,8,10,89,00,EB,C8,00,04,00,
51699500,00000227,false,Rx,1,8,00,00,00,00,00,00,1F,C5,
51699748,00000237,false,Rx,1,8,3B,41,00,00,00,00,00,00,
51699987,00000247,false,Rx,1,8,44,7D,6E,03,00,00,20,00,
51700236,00000717,false,Rx,1,8,18,00,00,00,00,00,00,00,
51709037,00000217,false,Rx,1,8,02,40,81,FB,9C,02,01,04,
51799212,00000207,false,Rx,1,8,10,8E,80,E9,C8,00,04,00,
51799460,00000227,false,Rx,1,8,00,00,00,00,02,00,1F,C5,
51799700,00000237,false,Rx,1,8,3B,41,00,00,00,00,00,00,
51799940,00000247,false,Rx,1,8,44,7D,6E,03,00,00,20,00,
51800188,00000717,false,Rx,1,8,19,00,00,00,00,00,00,00,
51809027,00000217,false,Rx,1,8,02,40,81,FB,9C,02,01,04,
51899194,00000207,false,Rx,1,8,11,93,C0,E7,C8,00,04,00,
51899442,00000227,false,Rx,1,8,00,00,00,00,01,00,1F,C5,
51899690,00000237,false,Rx,1,8,3B,41,00,00,00,00,00,00,
51899923,00000247,false,Rx,1,8,44,7D,6E,03,00,00,20,00,
51900171,00000717,false,Rx,1,8,01,00,00,00,00,00,00,00,
51908995,00000217,false,Rx,1,8,02,40,81,FB,9C,02,01,04,
51999187,00000207,false,Rx,1,8,12,98,80,E6,C8,00,04,00,
51999427,00000227,false,Rx,1,8,03,00,00,00,0A,00,1F,C5,
51999667,00000237,false,Rx,1,8,3B,41,00,00,00,00,00,00,
51999908,00000247,false,Rx,1,8,44,7D,6E,03,00,00,20,00,
52000155,00000717,false,Rx,1,8,02,00,00,00,00,00,00,00,
52008973,00000217,false,Rx,1,8,02,40,81,FB,9C,02,01,04,
52099061,00000367,false,Rx,1,8,00,00,00,00,00,00,00,00,
52099301,00000207,false,Rx,1,8,12,9D,40,E5,C8,00,04,00,
52099549,00000227,false,Rx,1,8,00,00,00,00,01,00,1F,C5,
52099790,00000237,false,Rx,1,8,3B,41,00,00,00,00,00,00,
52100029,00000247,false,Rx,1,8,44,7D,6E,03,00,00,20,00,
52108936,00000217,false,Rx,1,8,02,40,81,FB,9C,02,01,04,
52109182,00000377,false,Rx,1,8,00,00,00,00,00,00,00,00,
52119053,00000347,false,Rx,1,8,00,00,00,00,00,08,00,00,
52129066,00000357,false,Rx,1,8,00,00,00,00,00,00,00,00,
52139062,00000327,false,Rx,1,8,00,00,00,00,00,00,00,00,
52149058,00000337,false,Rx,1,8,00,00,00,00,00,00,00,00,
52199151,00000207,false,Rx,1,8,12,9F,80,E4,C8,00,04,00,
52199391,00000227,false,Rx,1,8,00,00,00,00,00,00,1F,C5,
52199640,00000237,false,Rx,1,8,3B,41,00,00,00,00,00,00,
52199872,00000247,false,Rx,1,8,44,7D,6E,03,00,00,20,00,
52200105,00000537,false,Rx,1,8,12,03,E9,DA,DC,E1,B0,3F,
52200354,00000717,false,Rx,1,8,04,00,00,00,00,00,00,00,
52208940,00000217,false,Rx,1,8,02,00,81,FB,9C,02,01,04,
52299091,00000207,false,Rx,1,8,13,A1,C0,E3,C8,00,04,00,
52299339,00000227,false,Rx,1,8,00,00,00,00,01,00,6A,C5,
52299579,00000237,false,Rx,1,8,3B,41,00,00,00,00,00,00,
52299819,00000247,false,Rx,1,8,44,7D,6E,03,00,00,20,00,
52300068,00000717,false,Rx,1,8,05,00,00,00,00,00,00,00,
52308920,00000217,false,Rx,1,8,02,00,81,FB,9C,02,01,04,
52399080,00000207,false,Rx,1,8,13,A2,00,E3,C8,00,04,00,
52399321,00000227,false,Rx,1,8,00,00,00,00,00,00,AE,C5,
52399569,00000237,false,Rx,1,8,3B,41,00,00,00,00,00,00,
52399809,00000247,false,Rx,1,8,44,7D,6E,03,00,00,20,00,
52400042,00000717,false,Rx,1,8,06,00,66,06,66,06,00,40,
52408880,00000217,false,Rx,1,8,02,00,81,FB,9C,02,01,04,
52499087,00000207,false,Rx,1,8,13,A2,40,E2,C8,00,04,00,
52499328,00000227,false,Rx,1,8,00,00,00,00,01,00,D0,C5,
52499567,00000237,false,Rx,1,8,3B,41,00,00,00,00,00,00,
52499808,00000247,false,Rx,1,8,44,7D,6E,03,00,00,20,00,
52500056,00000717,false,Rx,1,8,07,00,00,00,02,0A,00,00,
52508879,00000217,false,Rx,1,8,02,00,81,FB,9C,02,01,04,
52599046,00000207,false,Rx,1,8,13,A2,80,E1,C8,00,04,00,
52599285,00000227,false,Rx,1,8,00,00,00,00,01,00,E8,C5,
52599525,00000237,false,Rx,1,8,3B,41,00,00,00,00,00,00,
52599766,00000247,false,Rx,1,8,44,7D,6E,03,00,00,20,00,
52600006,00000717,false,Rx,1,8,08,00,00,00,66,06,00,00,
52608840,00000217,false,Rx,1,8,02,00,81,FB,9C,02,01,04,
52699036,00000207,false,Rx,1,8,13,A3,C0,E0,C8,00,04,00,
52699283,00000227,false,Rx,1,8,00,00,00,00,07,00,07,C6,
52699524,00000237,false,Rx,1,8,3B,41,00,00,00,00,00,00,
52699764,00000247,false,Rx,1,8,44,7D,6E,03,00,00,20,00,
52700004,00000717,false,Rx,1,8,09,00,66,06,00,00,00,00,
52708830,00000217,false,Rx,1,8,02,00,81,FB,9C,02,01,04,
52799015,00000207,false,Rx,1,8,13,A3,40,E0,C8,00,04,00,
52799263,00000227,false,Rx,1,8,05,00,00,00,00,00,02,C6,
52799503,00000237,false,Rx,1,8,3B,41,00,00,00,00,00,00,
52799743,00000247,false,Rx,1,8,44,7D,6E,03,00,00,20,00,
52799992,00000717,false,Rx,1,8,0A,00,00,00,00,00,00,00,
52808807,00000217,false,Rx,1,8,02,00,81,FB,9C,02,01,04,
52898980,00000207,false,Rx,1,8,13,A3,C0,DE,C8,00,04,00,
52899227,00000227,false,Rx,1,8,00,00,00,00,0A,00,31,C6,
52899468,00000237,false,Rx,1,8,3B,41,00,00,00,00,00,00,
52899708,00000247,false,Rx,1,8,44,7D,6E,03,00,00,20,00,
52899956,00000717,false,Rx,1,8,0B,00,00,00,00,00,00,00,
52908774,00000217,false,Rx,1,8,02,00,81,FB,9C,02,01,04,
52998979,00000207,false,Rx,1,8,13,A5,C0,DD,C8,00,04,00,
52999218,00000227,false,Rx,1,8,00,00,00,00,02,00,CA,C6,
52999459,00000237,false,Rx,1,8,3B,41,00,00,00,00,00,00,
52999700,00000247,false,Rx,1,8,44,7D,6E,03,00,00,20,00,
52999939,00000717,false,Rx,1,8,0C,00,00,04,04,00,01,00,
53008771,00000217,false,Rx,1,8,02,00,81,FB,9C,02,01,04,
53098848,00000367,false,Rx,1,8,00,00,00,00,00,00,00,00,
53099087,00000207,false,Rx,1,8,13,A7,80,DC,C8,00,04,00,
53099328,00000227,false,Rx,1,8,00,00,00,00,01,00,6E,C7,
53099576,00000237,false,Rx,1,8,3B,41,00,00,00,00,00,00,
53099809,00000247,false,Rx,1,8,44,7D,6E,03,00,00,20,00,
53100056,00000537,false,Rx,1,8,13,01,FE,00,00,FC,00,00,
53100299,00000717,false,Rx,1,8,0E,00,00,02,46,46,00,00,
53108729,00000217,false,Rx,1,8,02,00,81,FB,9C,02,01,04,
53108975,00000377,false,Rx,1,8,00,00,00,00,00,00,00,00,
53118840,00000347,false,Rx,1,8,00,00,00,00,00,08,00,00,
53128845,00000357,false,Rx,1,8,00,00,00,00,00,00,00,00,
53138842,00000327,false,Rx,1,8,00,00,00,00,00,00,00,00,
53148837,00000337,false,Rx,1,8,00,00,00,00,00,00,00,00,
53198932,00000207,false,Rx,1,8,14,AA,00,DB,C8,00,04,00,
53199171,00000227,false,Rx,1,8,00,00,00,00,01,00,5E,C8,
53199414,00000237,false,Rx,1,8,3B,41,00,00,00,00,00,00,
53199654,00000247,false,Rx,1,8,44,7D,6E,03,00,00,20,00,
53199886,00000717,false,Rx,1,8,0F,00,EB,01,47,0E,00,00,
53208719,00000217,false,Rx,1,8,02,00,81,FB,9C,02,01,04,
53298917,00000207,false,Rx,1,8,14,AD,C0,D9,C8,00,04,00,
53299156,00000227,false,Rx,1,8,00,00,00,00,00,00,4D,C9,
53299405,00000237,false,Rx,1,8,3B,41,00,00,00,00,00,00,
53299645,00000247,false,Rx,1,8,44,7D,6E,03,00,00,20,00,
53299885,00000717,false,Rx,1,8,10,0B,C0,FE,03,80,FF,00,
53308711,00000217,false,Rx,1,8,02,00,81,FB,9C,02,01,04,
53398872,00000207,false,Rx,1,8,14,B0,C0,D8,C8,00,04,00,
53399112,00000227,false,Rx,1,8,00,00,00,00,00,00,39,CA,
53399361,00000237,false,Rx,1,8,3B,41,00,00,00,00,00,00,
53399601,00000247,false,Rx,1,8,44,7D,6E,03,00,00,20,00,
53399842,00000717,false,Rx,1,8,11,00,00,00,00,00,02,02,
53408666,00000217,false,Rx,1,8,02,00,81,FB,9C,02,01,04,
53498871,00000207,false,Rx,1,8,15,B3,C0,D7,C8,00,04,00,
53499117,00000227,false,Rx,1,8,00,00,00,00,04,00,0E,CB,
53499358,00000237,false,Rx,1,8,3B,41,00,00,00,00,00,00,
53499598,00000247,false,Rx,1,8,44,7D,6E,03,00,00,20,00,
53499831,00000717,false,Rx,1,8,12,40,29,00,27,00,17,00,
53508662,00000217,false,Rx,1,8,02,00,81,FB,9C,02,01,04,
53598831,00000207,false,Rx,1,8,15,B4,00,D7,C8,00,04,00,
53599070,00000227,false,Rx,1,8,01,00,00,00,05,00,AB,CB,
53599319,00000237,false,Rx,1,8,3B,41,00,00,00,00,00,00,
53599552,00000247,false,Rx,1,8,44,7D,6E,03,00,00,20,00,
53599800,00000717,false,Rx,1,8,13,00,00,00,00,00,00,00,
53608637,00000217,false,Rx,1,8,02,00,81,FB,9C,02,02,04,
53698822,00000207,false,Rx,1,8,15,B7,C0,D5,C8,00,04,00,
53699060,00000227,false,Rx,1,8,00,00,00,00,03,00,5C,CC,
53699301,00000237,false,Rx,1,8,3B,41,00,00,00,00,00,00,
53699543,00000247,false,Rx,1,8,44,7D,6E,03,00,00,20,00,
53699782,00000717,false,Rx,1,8,14,00,00,00,B7,BE,00,00,
53708613,00000217,false,Rx,1,8,02,00,81,FB,9C,02,02,04,
53798804,00000207,false,Rx,1,8,15,B9,C0,D4,C8,00,04,00,
53799050,00000227,false,Rx,1,8,04,00,00,00,00,00,2B,CD,
53799293,00000237,false,Rx,1,8,3B,41,00,00,00,00,00,00,
53799533,00000247,false,Rx,1,8,44,7D,6E,03,00,00,20,00,
53808601,00000217,false,Rx,1,8,02,00,81,FB,9C,02,02,04,
53898766,00000207,false,Rx,1,8,16,BC,C0,D3,C8,00,04,00,
53899006,00000227,false,Rx,1,8,00,00,00,00,03,00,0F,CE,
53899255,00000237,false,Rx,1,8,3B,41,00,00,00,00,00,00,
53899487,00000247,false,Rx,1,8,44,7D,6E,03,00,00,20,00,
53899727,00000717,false,Rx,1,8,16,00,00,00,00,00,D2,44,
53908558,00000217,false,Rx,1,8,02,00,81,FB,9C,02,02,04,
53998764,00000207,false,Rx,1,8,16,BE,C0,D2,C8,00,04,00,
53999004,00000227,false,Rx,1,8,03,00,00,00,00,00,D6,CE,
53999253,00000237,false,Rx,1,8,3B,41,00,00,00,00,00,00,
53999486,00000247,false,Rx,1,8,44,7D,6E,03,00,00,20,00,
53999727,00000537,false,Rx,1,8,14,05,00,00,00,00,00,00,
53999974,00000717,false,Rx,1,8,17,00,00,40,04,00,00,00,
54008552,00000217,false,Rx,1,8,02,00,81,FB,9C,02,02,04,
54098644,00000367,false,Rx,1,8,00,00,00,00,00,00,00,00,
54098884,00000207,false,Rx,1,8,16,C0,00,D2,C8,00,04,00,
54099124,00000227,false,Rx,1,8,00,00,00,00,01,00,5D,CF,
54099372,00000237,false,Rx,1,8,3B,41,00,00,00,00,00,00,
54099606,00000247,false,Rx,1,8,44,7D,6E,03,00,00,20,00,
54099861,00000717,false,Rx,1,8,18,00,00,00,00,00,00,00,
54108538,00000217,false,Rx,1,8,02,00,81,FB,9C,02,02,04,
54108785,00000377,false,Rx,1,8,00,00,00,00,00,00,00,00,
54118639,00000347,false,Rx,1,8,00,00,00,00,00,08,00,00,
54128636,00000357,false,Rx,1,8,00,00,00,00,00,00,00,00,
54138634,00000327,false,Rx,1,8,00,00,00,00,00,00,00,00,
54148631,00000337,false,Rx,1,8,00,00,00,00,00,00,00,00,
54198704,00000207,false,Rx,1,8,16,C1,80,D1,C8,00,04,00,
54198950,00000227,false,Rx,1,8,00,00,00,00,00,00,D3,CF,
54199190,00000237,false,Rx,1,8,3B,41,00,00,00,00,00,00,
54199432,00000247,false,Rx,1,8,44,7D,6E,03,00,00,20,00,
54199679,00000717,false,Rx,1,8,19,00,00,00,00,00,00,00,
54208495,00000217,false,Rx,1,8,02,00,81,FB,9C,02,02,04,
54298694,00000207,false,Rx,1,8,16,C3,00,D1,C8,00,04,00,
54298933,00000227,false,Rx,1,8,00,00,00,00,01,00,2A,D0,
54299182,00000237,false,Rx,1,8,3B,41,00,00,00,00,00,00,
54299415,00000247,false,Rx,1,8,44,7D,6E,03,00,00,20,00,
54299662,00000717,false,Rx,1,8,01,00,00,00,00,00,00,00,
54308486,00000217,false,Rx,1,8,02,00,81,FB,9C,02,02,04,
54398660,00000207,false,Rx,1,8,16,C4,00,D0,C8,00,04,00,
54398899,00000227,false,Rx,1,8,00,00,00,00,01,00,99,D0,
54399148,00000237,false,Rx,1,8,3B,41,00,00,00,00,00,00,
54399381,00000247,false,Rx,1,8,44,7D,6E,03,00,00,20,00,
54399628,00000717,false,Rx,1,8,02,00,00,00,00,00,00,00,
54408447,00000217,false,Rx,1,8,02,00,81,FB,9C,02,02,04,
54498661,00000207,false,Rx,1,8,17,C6,40,CF,C8,00,04,00,
54498901,00000227,false,Rx,1,8,03,00,00,00,00,00,31,D1,
54499148,00000237,false,Rx,1,8,3B,41,00,00,00,00,00,00,
54499382,00000247,false,Rx,1,8,44,7D,6E,03,00,00,20,00,
54508451,00000217,false,Rx,1,8,02,C0,80,FB,9C,02,02,04,
54598639,00000207,false,Rx,1,8,17,C8,00,CE,C8,00,04,00,
54598878,00000227,false,Rx,1,8,02,00,00,00,02,00,DE,D1,
54599117,00000237,false,Rx,1,8,3B,41,00,00,00,00,00,00,
54599358,00000247,false,Rx,1,8,44,7D,6E,03,00,00,20,00,
54599607,00000717,false,Rx,1,8,04,00,00,00,00,00,00,00,
54608430,00000217,false,Rx,1,8,02,C0,80,FB,9C,02,02,04,
54698593,00000207,false,Rx,1,8,17,CA,00,CD,C8,00,04,00,
54698832,00000227,false,Rx,1,8,01,00,00,00,04,00,EC,D1,
54699079,00000237,false,Rx,1,8,3B,41,00,00,00,00,00,00,
54699314,00000247,false,Rx,1,8,44,7D,6E,03,00,00,20,00,
54699561,00000717,false,Rx,1,8,05,00,00,00,00,00,00,00,
54708386,00000217,false,Rx,1,8,02,C0,80,FB,9C,02,02,04,
54798598,00000207,false,Rx,1,8,17,CD,C0,CC,C8,00,04,00,
54798837,00000227,false,Rx,1,8,04,00,00,00,00,00,EC,D1,
54799085,00000237,false,Rx,1,8,3B,41,00,00,00,00,00,00,
54799319,00000247,false,Rx,1,8,44,7D,6E,03,00,00,20,00,
54799559,00000717,false,Rx,1,8,06,00,66,06,66,06,00,40,
54808389,00000217,false,Rx,1,8,02,C0,80,FB,9C,02,02,04,
54898557,00000207,false,Rx,1,8,18,CE,00,CC,C8,00,04,00,
54898796,00000227,false,Rx,1,8,01,00,00,00,02,00,EC,D1,
54899037,00000237,false,Rx,1,8,3B,41,00,00,00,00,00,00,
54899278,00000247,false,Rx,1,8,44,7D,6E,03,00,00,20,00,
54899525,00000717,false,Rx,1,8,07,00,00,00,02,0A,00,00,
54908341,00000217,false,Rx,1,8,02,C0,80,FB,9C,02,02,04,
54998547,00000207,false,Rx,1,8,18,D0,C0,CB,C8,00,04,00,
54998794,00000227,false,Rx,1,8,00,00,00,00,04,00,EC,D1,
54999034,00000237,false,Rx,1,8,3B,41,00,00,00,00,00,00,
54999275,00000247,false,Rx,1,8,44,7D,6E,03,00,00,20,00,
54999515,00000717,false,Rx,1,8,08,00,00,00,66,06,00,00,
55008339,00000217,false,Rx,1,8,02,C0,80,FB,9C,02,02,04,
55098426,00000367,false,Rx,1,8,00,00,00,00,00,00,00,00,
55098659,00000207,false,Rx,1,8,18,D1,80,CB,C8,00,04,00,
55098906,00000227,false,Rx,1,8,00,00,00,00,00,00,EC,D1,
55099146,00000237,false,Rx,1,8,3B,41,00,00,00,00,00,00,
55099389,00000247,false,Rx,1,8,44,7D,6E,03,00,00,20,00,
55099628,00000717,false,Rx,1,8,09,00,66,06,00,00,00,00,
55108320,00000217,false,Rx,1,8,02,C0,80,FB,9C,02,02,04,
55108566,00000377,false,Rx,1,8,00,00,00,00,00,00,00,00,
55118414,00000347,false,Rx,1,8,00,00,00,00,00,08,00,00,
55128419,00000357,false,Rx,1,8,00,00,00,00,00,00,00,00,
55138415,00000327,false,Rx,1,8,00,00,00,00,00,00,00,00,
55148412,00000337,false,Rx,1,8,00,00,00,00,00,00,00,00,
55198483,00000207,false,Rx,1,8,18,D3,00,CB,C8,00,04,00,
55198729,00000227,false,Rx,1,8,00,00,00,00,00,00,EC,D1,
55198976,00000237,false,Rx,1,8,3B,41,00,00,00,00,00,00,
55199209,00000247,false,Rx,1,8,44,7D,6E,03,00,00,20,00,
55199458,00000717,false,Rx,1,8,0A,00,00,00,00,00,00,00,
55208281,00000217,false,Rx,1,8,02,C0,80,FB,9C,02,02,04,
55298485,00000207,false,Rx,1,8,18,D3,40,CB,C8,00,04,00,
55298731,00000227,false,Rx,1,8,02,00,00,00,00,00,EC,D1,
55298971,00000237,false,Rx,1,8,3B,41,00,00,00,00,00,00,
55299212,00000247,false,Rx,1,8,44,7D,6E,03,00,00,20,00,
55299461,00000717,false,Rx,1,8,0B,00,00,00,00,00,00,00,
55308284,00000217,false,Rx,1,8,02,C0,80,FB,9C,02,02,04,
55398444,00000207,false,Rx,1,8,18,D4,C0,CA,C8,00,04,00,
55398683,00000227,false,Rx,1,8,00,00,00,00,03,00,EC,D1,
55398932,00000237,false,Rx,1,8,3B,41,00,00,00,00,00,00,
55399172,00000247,false,Rx,1,8,44,7D,6E,03,00,00,20,00,
55399412,00000717,false,Rx,1,8,0C,00,00,04,04,00,01,00,
55408259,00000217,false,Rx,1,8,02,C0,80,FB,9C,02,02,04,
55498425,00000207,false,Rx,1,8,18,D5,C0,CA,C8,00,04,00,
55498663,00000227,false,Rx,1,8,01,00,00,00,00,00,EC,D1,
55498912,00000237,false,Rx,1,8,3B,41,00,00,00,00,00,00,
55499144,00000247,false,Rx,1,8,44,7D,6E,03,00,00,20,00,
55499385,00000717,false,Rx,1,8,0E,00,00,02,A6,4F,00,00,
55508230,00000217,false,Rx,1,8,02,C0,80,FB,9C,02,02,04,
55598426,00000207,false,Rx,1,8,19,D6,C0,CA,C8,00,04,00,
55598666,00000227,false,Rx,1,8,03,00,00,00,02,00,EC,D1,
55598905,00000237,false,Rx,1,8,3B,41,00,00,00,00,00,00,
55599145,00000247,false,Rx,1,8,44,7D,6E,03,00,00,20,00,
55599381,00000717,false,Rx,1,8,0F,00,EB,01,19,11,00,00,
55608215,00000217,false,Rx,1,8,02,C0,80,FB,9C,02,02,04,
55698384,00000207,false,Rx,1,8,19,D7,40,CA,C8,00,04,00,
55698624,00000227,false,Rx,1,8,01,00,00,00,02,00,EC,D1,
55698871,00000237,false,Rx,1,8,3B,41,00,00,00,00,00,00,
55699111,00000247,false,Rx,1,8,44,7D,6E,03,00,00,20,00,
55699346,00000717,false,Rx,1,8,10,0D,C0,FE,03,80,FF,00,
55708176,00000217,false,Rx,1,8,02,C0,80,FB,9C,02,02,04,
55798375,00000207,false,Rx,1,8,19,D8,C0,CA,C8,00,04,00,
55798621,00000227,false,Rx,1,8,01,00,00,00,00,00,EC,D1,
55798861,00000237,false,Rx,1,8,3B,41,00,00,00,00,00,00,
55799102,00000247,false,Rx,1,8,44,7D,6E,03,00,00,20,00,
55799343,00000537,false,Rx,1,8,0A,01,0E,00,FC,00,3F,00,
55799590,00000717,false,Rx,1,8,11,00,00,00,00,00,02,02,
55808168,00000217,false,Rx,1,8,02,C0,80,FB,9C,02,02,04,
55898354,00000207,false,Rx,1,8,19,D9,80,CA,C8,00,04,00,
55898593,00000227,false,Rx,1,8,02,00,00,00,00,00,EC,D1,
55898840,00000237,false,Rx,1,8,3B,41,00,00,00,00,00,00,
55899081,00000247,false,Rx,1,8,44,7D,6E,03,00,00,20,00,
55899315,00000717,false,Rx,1,8,12,40,29,00,27,00,17,00,
55908148,00000217,false,Rx,1,8,02,C0,80,FB,9C,02,02,04,
55998314,00000207,false,Rx,1,8,19,DA,C0,CA,C8,00,04,00,
55998553,00000227,false,Rx,1,8,03,00,00,00,02,00,EC,D1,
55998794,00000237,false,Rx,1,8,3B,41,00,00,00,00,00,00,
55999034,00000247,false,Rx,1,8,44,7D,6E,03,00,00,20,00,
55999283,00000717,false,Rx,1,8,13,00,00,00,00,00,00,00,
56008107,00000217,false,Rx,1,8,02,C0,80,FB,9C,02,02,04,
56098220,00000367,false,Rx,1,8,00,00,00,00,00,00,00,00,
56098452,00000207,false,Rx,1,8,19,DB,00,CB,C8,00,04,00,
56098693,00000227,false,Rx,1,8,00,00,00,00,03,00,EC,D1,
56098940,00000237,false,Rx,1,8,3B,41,00,00,00,00,00,00,
56099180,00000247,false,Rx,1,8,44,7D,6E,03,00,00,20,00,
56099415,00000717,false,Rx,1,8,14,00,00,00,3A,DB,00,00,
56108108,00000217,false,Rx,1,8,02,C0,80,FB,9C,02,02,04,
56108355,00000377,false,Rx,1,8,00,00,00,00,00,00,00,00,
56118209,00000347,false,Rx,1,8,00,00,00,00,00,08,00,00,
56128209,00000357,false,Rx,1,8,00,00,00,00,00,00,00,00,
56138207,00000327,false,Rx,1,8,00,00,00,00,00,00,00,00,
56148203,00000337,false,Rx,1,8,00,00,00,00,00,00,00,00,
56198276,00000207,false,Rx,1,8,19,DC,00,CB,C8,00,04,00,
56198516,00000227,false,Rx,1,8,07,00,00,00,00,00,EC,D1,
56198763,00000237,false,Rx,1,8,3B,41,00,00,00,00,00,00,
56198995,00000247,false,Rx,1,8,44,7D,6E,03,00,00,20,00,
56208057,00000217,false,Rx,1,8,02,C0,80,FB,9C,02,02,04,
56298269,00000207,false,Rx,1,8,19,DD,80,CB,C8,00,04,00,
56298507,00000227,false,Rx,1,8,03,00,00,00,03,00,EC,D1,
56298747,00000237,false,Rx,1,8,3B,41,00,00,00,00,00,00,
56298988,00000247,false,Rx,1,8,44,7D,6E,03,00,00,20,00,
56299228,00000717,false,Rx,1,8,16,00,00,00,00,00,D6,C0,
56308061,00000217,false,Rx,1,8,02,C0,80,FB,9C,02,02,04,
56398254,00000207,false,Rx,1,8,19,DD,C0,CB,C8,00,04,00,
56398492,00000227,false,Rx,1,8,03,00,00,00,01,00,EC,D1,
56398740,00000237,false,Rx,1,8,3B,41,00,00,00,00,00,00,
56398973,00000247,false,Rx,1,8,44,7D,6E,03,00,00,20,00,
56399221,00000717,false,Rx,1,8,17,00,00,40,04,00,00,00,
56408046,00000217,false,Rx,1,8,02,C0,80,FB,9C,02,02,04,
56498214,00000207,false,Rx,1,8,19,DE,40,CC,C8,00,04,00,
56498454,00000227,false,Rx,1,8,05,00,00,00,00,00,EC,D1,
56498695,00000237,false,Rx,1,8,3B,41,00,00,00,00,00,00,
56498935,00000247,false,Rx,1,8,44,7D,6E,03,00,00,20,00,
56499183,00000717,false,Rx,1,8,18,00,00,00,00,00,00,00,
56507999,00000217,false,Rx,1,8,02,C0,80,FB,9C,02,02,04,
56598204,00000207,false,Rx,1,8,1A,DE,00,CD,C8,00,04,00,
56598444,00000227,false,Rx,1,8,03,00,00,00,00,00,EC,D1,
56598693,00000237,false,Rx,1,8,3B,41,00,00,00,00,00,00,
56598925,00000247,false,Rx,1,8,44,7D,6E,03,00,00,20,00,
56599172,00000717,false,Rx,1,8,19,00,00,00,00,00,00,00,
56607998,00000217,false,Rx,1,8,02,C0,80,FB,9C,02,02,04,
56698166,00000207,false,Rx,1,8,1A,DF,80,CD,C8,00,04,00,
56698407,00000227,false,Rx,1,8,04,00,00,00,00,00,EC,D1,
56698654,00000237,false,Rx,1,8,3B,41,00,00,00,00,00,00,
56698894,00000247,false,Rx,1,8,44,7D,6E,03,00,00,20,00,
56699135,00000537,false,Rx,1,8,0B,00,05,06,00,00,00,00,
56699384,00000717,false,Rx,1,8,01,00,00,00,00,00,00,00,
56707975,00000217,false,Rx,1,8,02,C0,80,FB,9C,02,02,04,
56798156,00000207,false,Rx,1,8,1A,DF,40,CE,C8,00,04,00,
56798397,00000227,false,Rx,1,8,01,00,00,00,00,00,EC,D1,
56798645,00000237,false,Rx,1,8,3B,41,00,00,00,00,00,00,
56798877,00000247,false,Rx,1,8,44,7D,6E,03,00,00,20,00,
56799126,00000717,false,Rx,1,8,02,00,00,00,00,00,00,00,
56807965,00000217,false,Rx,1,8,02,C0,80,FB,9C,02,02,04,
56898147,00000207,false,Rx,1,8,1A,DF,C0,CE,C8,00,04,00,
56898380,00000227,false,Rx,1,8,03,00,00,00,05,00,EC,D1,
56898627,00000237,false,Rx,1,8,3B,41,00,00,00,00,00,00,
56898860,00000247,false,Rx,1,8,44,7D,6E,03,00,00,20,00,
56907937,00000217,false,Rx,1,8,02,C0,80,FB,9C,02,02,04,
56998107,00000207,false,Rx,1,8,1A,E1,40,CF,C8,00,04,00,
56998347,00000227,false,Rx,1,8,02,00,00,00,00,00,EC,D1,
56998586,00000237,false,Rx,1,8,3B,41,00,00,00,00,00,00,
56998828,00000247,false,Rx,1,8,44,7D,6E,03,00,00,20,00,
56999075,00000717,false,Rx,1,8,04,00,00,00,00,00,00,00,
57007893,00000217,false,Rx,1,8,02,C0,80,FB,9C,02,02,04,
57097998,00000367,false,Rx,1,8,00,00,00,00,00,00,00,00,
57098237,00000207,false,Rx,1,8,1A,E2,40,D0,C8,00,04,00,
57098480,00000227,false,Rx,1,8,02,00,00,00,00,00,EC,D1,
57098727,00000237,false,Rx,1,8,3B,41,00,00,00,00,00,00,
57098959,00000247,false,Rx,1,8,44,7D,6E,03,00,00,20,00,
57099207,00000717,false,Rx,1,8,05,00,00,00,00,00,00,00,
57107892,00000217,false,Rx,1,8,02,C0,80,FB,9C,02,02,04,
57108138,00000377,false,Rx,1,8,00,00,00,00,00,00,00,00,
57117993,00000347,false,Rx,1,8,00,00,00,00,00,08,00,00,
57127991,00000357,false,Rx,1,8,00,00,00,00,00,00,00,00,
57137988,00000327,false,Rx,1,8,00,00,00,00,00,00,00,00,
57147985,00000337,false,Rx,1,8,00,00,00,00,00,00,00,00,
57198066,00000207,false,Rx,1,8,1A,E3,00,D1,C8,00,04,00,
57198305,00000227,false,Rx,1,8,07,00,00,00,00,00,EC,D1,
57198554,00000237,false,Rx,1,8,3B,41,00,00,00,00,00,00,
57198787,00000247,false,Rx,1,8,44,7D,6E,03,00,00,20,00,
57199026,00000717,false,Rx,1,8,06,00,76,2B,66,06,00,40,
57207880,00000217,false,Rx,1,8,02,C0,80,FB,9C,02,02,04,
57298045,00000207,false,Rx,1,8,1A,E4,40,D2,C8,00,04,00,
57298279,00000227,false,Rx,1,8,06,00,00,00,04,00,EC,D1,
57298526,00000237,false,Rx,1,8,3B,41,00,00,00,00,00,00,
57298766,00000247,false,Rx,1,8,44,7D,6E,03,00,00,20,00,
57299007,00000717,false,Rx,1,8,07,00,00,00,02,0A,00,00,
57307837,00000217,false,Rx,1,8,02,C0,80,FB,9C,02,02,04,
57398034,00000207,false,Rx,1,8,1A,E4,40,D3,C8,00,04,00,
57398274,00000227,false,Rx,1,8,05,00,00,00,00,00,EC,D1,
57398521,00000237,false,Rx,1,8,3B,41,00,00,00,00,00,00,
57398761,00000247,false,Rx,1,8,44,7D,6E,03,00,00,20,00,
57399002,00000717,false,Rx,1,8,08,00,00,00,56,41,00,00,
57407831,00000217,false,Rx,1,8,02,C0,80,FB,9C,02,02,04,
57497994,00000207,false,Rx,1,8,1A,E5,80,D4,C8,00,04,00,
57498232,00000227,false,Rx,1,8,07,00,00,00,00,00,EC,D1,
57498481,00000237,false,Rx,1,8,3B,41,00,00,00,00,00,00,
57498714,00000247,false,Rx,1,8,44,7D,6E,03,00,00,20,00,
57498954,00000717,false,Rx,1,8,09,00,96,32,00,00,00,00,
57507786,00000217,false,Rx,1,8,02,C0,80,FB,9C,02,02,04,
57598000,00000207,false,Rx,1,8,1A,E5,40,D6,C8,00,04,00,
57598239,00000227,false,Rx,1,8,02,00,00,00,00,00,EC,D1,
57598489,00000237,false,Rx,1,8,3B,41,00,00,00,00,00,00,
57598721,00000247,false,Rx,1,8,44,7D,6E,03,00,00,20,00,
57598961,00000537,false,Rx,1,8,0D,00,00,00,7D,F1,02,85,
57599208,00000717,false,Rx,1,8,0A,00,00,00,00,00,00,00,
57607795,00000217,false,Rx,1,8,02,C0,80,FB,9C,02,02,04,
57697978,00000207,false,Rx,1,8,1A,E6,40,D7,C8,00,04,00,
57698216,00000227,false,Rx,1,8,04,00,00,00,02,00,EC,D1,
57698466,00000237,false,Rx,1,8,3B,41,00,00,00,00,00,00,
57698698,00000247,false,Rx,1,8,44,7D,6E,03,00,00,20,00,
57698946,00000717,false,Rx,1,8,0B,00,00,00,00,00,00,00,
57707769,00000217,false,Rx,1,8,02,C0,80,FB,9C,02,02,04,
57797928,00000207,false,Rx,1,8,1A,E6,C0,D8,C8,00,04,00,
57798175,00000227,false,Rx,1,8,07,00,00,00,00,00,EC,D1,
57798416,00000237,false,Rx,1,8,3B,41,00,00,00,00,00,00,
57798656,00000247,false,Rx,1,8,44,7D,6E,03,00,00,20,00,
57798897,00000717,false,Rx,1,8,0C,00,00,04,04,00,01,00,
57807713,00000217,false,Rx,1,8,02,C0,80,FB,9C,02,02,04,
57897925,00000207,false,Rx,1,8,1A,E6,40,DA,C8,00,04,00,
57898165,00000227,false,Rx,1,8,09,00,00,00,01,00,EC,D1,
57898413,00000237,false,Rx,1,8,3B,41,00,00,00,00,00,00,
57898653,00000247,false,Rx,1,8,44,7D,6E,03,00,00,20,00,
57898894,00000717,false,Rx,1,8,0E,00,00,02,06,59,00,00,
57907717,00000217,false,Rx,1,8,02,C0,80,FB,9C,02,02,04,
57997896,00000207,false,Rx,1,8,1A,E6,00,DC,C8,00,04,00,
57998135,00000227,false,Rx,1,8,05,00,00,00,00,00,EC,D1,
57998383,00000237,false,Rx,1,8,3B,41,00,00,00,00,00,00,
57998616,00000247,false,Rx,1,8,44,7D,6E,03,00,00,20,00,
57998856,00000717,false,Rx,1,8,0F,00,EB,01,81,0E,00,00,
58007703,00000217,false,Rx,1,8,02,C0,80,FB,9C,02,02,04,
58097802,00000367,false,Rx,1,8,00,00,00,00,00,00,00,00,
58098049,00000207,false,Rx,1,8,1A,E6,00,DE,C8,00,04,00,
58098290,00000227,false,Rx,1,8,07,00,00,00,00,00,EC,D1,
58098531,00000237,false,Rx,1,8,3B,41,00,00,00,00,00,00,
58098771,00000247,false,Rx,1,8,44,7D,6E,03,00,00,20,00,
58099011,00000717,false,Rx,1,8,10,0E,C0,FE,03,80,FF,00,
58107681,00000217,false,Rx,1,8,00,C0,80,FB,9C,02,02,04,
58107927,00000377,false,Rx,1,8,00,00,00,00,00,00,00,00,
58117781,00000347,false,Rx,1,8,00,00,00,00,00,08,00,00,
58127777,00000357,false,Rx,1,8,00,00,00,00,00,00,00,00,
58137780,00000327,false,Rx,1,8,00,00,00,00,00,00,00,00,
58147769,00000337,false,Rx,1,8,00,00,00,00,00,00,00,00,
58197862,00000207,false,Rx,1,8,1A,E6,80,DF,C8,00,04,00,
58198108,00000227,false,Rx,1,8,0A,00,00,00,00,00,EC,D1,
58198351,00000237,false,Rx,1,8,3B,41,00,00,00,00,00,00,
58198591,00000247,false,Rx,1,8,44,7D,6E,03,00,00,20,00,
58198831,00000717,false,Rx,1,8,11,00,00,00,00,00,02,02,
58207656,00000217,false,Rx,1,8,00,C0,80,FB,9C,02,02,04,
58297820,00000207,false,Rx,1,8,1A,E6,C0,E1,C8,00,04,00,
58298066,00000227,false,Rx,1,8,02,00,00,00,00,00,EC,D1,
58298308,00000237,false,Rx,1,8,3B,41,00,00,00,00,00,00,
58298548,00000247,false,Rx,1,8,44,7D,6E,03,00,00,20,00,
58298780,00000717,false,Rx,1,8,12,40,29,00,27,00,17,00,
58307619,00000217,false,Rx,1,8,00,C0,80,FB,9C,02,02,04,
58397829,00000207,false,Rx,1,8,1A,E6,00,E4,C8,00,04,00,
58398069,00000227,false,Rx,1,8,07,00,00,00,08,00,EC,D1,
58398310,00000237,false,Rx,1,8,3B,41,00,00,00,00,00,00,
58398550,00000247,false,Rx,1,8,44,7D,6E,03,00,00,20,00,
58398798,00000717,false,Rx,1,8,13,00,00,00,00,00,00,00,
58407623,00000217,false,Rx,1,8,00,C0,80,FB,9C,02,02,04,
58497787,00000207,false,Rx,1,8,1A,E6,C0,E5,C8,00,04,00,
58498025,00000227,false,Rx,1,8,04,00,00,00,01,00,EC,D1,
58498266,00000237,false,Rx,1,8,3B,41,00,00,00,00,00,00,
58498506,00000247,false,Rx,1,8,44,7D,6E,03,00,00,20,00,
58498747,00000537,false,Rx,1,8,0E,00,00,00,00,00,00,00,
58498995,00000717,false,Rx,1,8,14,00,00,00,6E,24,00,00,
58507595,00000217,false,Rx,1,8,00,C0,80,FB,9C,02,02,04,
58597765,00000207,false,Rx,1,8,1A,E5,00,E8,C8,00,04,00,
58598003,00000227,false,Rx,1,8,0A,00,00,00,03,00,EC,D1,
58598244,00000237,false,Rx,1,8,3B,41,00,00,00,00,00,00,
58598485,00000247,false,Rx,1,8,44,7D,6E,03,00,00,20,00,
58607567,00000217,false,Rx,1,8,00,C0,80,FB,9C,02,02,04,
58697759,00000207,false,Rx,1,8,1A,E6,80,E9,C8,00,04,00,
58698005,00000227,false,Rx,1,8,04,00,00,00,00,00,EC,D1,
58698248,00000237,false,Rx,1,8,3B,41,00,00,00,00,00,00,
58698488,00000247,false,Rx,1,8,44,7D,6E,03,00,00,20,00,
58698728,00000717,false,Rx,1,8,16,00,00,00,00,00,36,9A,
58707560,00000217,false,Rx,1,8,00,C0,80,FB,9C,02,02,04,
58797729,00000207,false,Rx,1,8,1A,E6,00,EC,C8,00,04,00,
58797968,00000227,false,Rx,1,8,07,00,00,00,03,00,EC,D1,
58798209,00000237,false,Rx,1,8,3B,41,00,00,00,00,00,00,
58798450,00000247,false,Rx,1,8,44,7D,6E,03,00,00,20,00,
58798690,00000717,false,Rx,1,8,17,00,00,40,04,00,00,00,
58807505,00000217,false,Rx,1,8,00,C0,80,FB,9C,02,02,04,
58897719,00000207,false,Rx,1,8,1A,E5,40,EE,C8,00,04,00,
58897958,00000227,false,Rx,1,8,0E,00,00,00,00,00,EC,D1,
58898198,00000237,false,Rx,1,8,3B,41,00,00,00,00,00,00,
58898439,00000247,false,Rx,1,8,44,7D,6E,03,00,00,20,00,
58898688,00000717,false,Rx,1,8,18,00,00,00,00,00,00,00,
58907510,00000217,false,Rx,1,8,00,C0,80,FB,9C,02,02,04,
58997673,00000207,false,Rx,1,8,1A,E5,00,F0,C8,00,04,00,
58997913,00000227,false,Rx,1,8,0B,00,00,00,02,00,EC,D1,
58998160,00000237,false,Rx,1,8,3B,41,00,00,00,00,00,00,
58998393,00000247,false,Rx,1,8,44,7D,6E,03,00,00,20,00,
58998642,00000717,false,Rx,1,8,19,00,00,00,00,00,00,00,
59007487,00000217,false,Rx,1,8,00,C0,80,FB,9C,02,02,04,
59097569,00000367,false,Rx,1,8,00,00,00,00,00,00,00,00,
59097809,00000207,false,Rx,1,8,1A,E5,C0,F2,C8,00,04,00,
59098049,00000227,false,Rx,1,8,05,00,00,00,00,00,EC,D1,
59098290,00000237,false,Rx,1,8,3B,41,00,00,00,00,00,00,
59098531,00000247,false,Rx,1,8,44,7D,6E,03,00,00,20,00,
59098778,00000717,false,Rx,1,8,01,00,00,00,00,00,00,00,
59107447,00000217,false,Rx,1,8,00,C0,80,FB,9C,02,02,04,
59107695,00000377,false,Rx,1,8,00,00,00,00,00,00,00,00,
59117573,00000347,false,Rx,1,8,00,00,00,00,00,08,00,00,
59127586,00000357,false,Rx,1,8,00,00,00,00,00,00,00,00,
59137590,00000327,false,Rx,1,8,00,00,00,00,00,00,00,00,
59147573,00000337,false,Rx,1,8,00,00,00,00,00,00,00,00,
59197658,00000207,false,Rx,1,8,1A,E5,C0,F4,C8,00,04,00,
59197897,00000227,false,Rx,1,8,0A,00,00,00,00,00,EC,D1,
59198137,00000237,false,Rx,1,8,3B,41,00,00,00,00,00,00,
59198380,00000247,false,Rx,1,8,44,7D,6E,03,00,00,20,00,
59198627,00000717,false,Rx,1,8,02,00,00,00,00,00,00,00,
59207453,00000217,false,Rx,1,8,00,C0,80,FB,9C,02,02,04,
59297613,00000207,false,Rx,1,8,1A,E5,00,F7,C8,00,04,00,
59297852,00000227,false,Rx,1,8,0C,00,00,00,05,00,EC,D1,
59298100,00000237,false,Rx,1,8,3B,41,00,00,00,00,00,00,
59298335,00000247,false,Rx,1,8,44,7D,6E,03,00,00,20,00,
59307405,00000217,false,Rx,1,8,00,C0,80,FB,9C,02,02,04,
59397608,00000207,false,Rx,1,8,1A,E5,80,F9,C8,00,04,00,
59397847,00000227,false,Rx,1,8,09,00,00,00,00,00,EC,D1,
59398095,00000237,false,Rx,1,8,3B,41,00,00,00,00,00,00,
59398329,00000247,false,Rx,1,8,44,7D,6E,03,00,00,20,00,
59398569,00000537,false,Rx,1,8,0F,00,00,00,8C,A1,70,0A,
59398817,00000717,false,Rx,1,8,04,00,00,00,00,00,00,00,
59407397,00000217,false,Rx,1,8,00,C0,80,FB,9C,02,02,04,
59497595,00000207,false,Rx,1,8,1A,E6,80,FB,C8,00,04,00,
59497835,00000227,false,Rx,1,8,07,00,00,00,00,00,EC,D1,
59498082,00000237,false,Rx,1,8,3B,41,00,00,00,00,00,00,
59498316,00000247,false,Rx,1,8,44,7D,6E,03,00,00,20,00,
59498564,00000717,false,Rx,1,8,05,00,00,00,00,00,00,00,
59507387,00000217,false,Rx,1,8,00,C0,80,FB,9C,02,02,04,
59597556,00000207,false,Rx,1,8,1A,E5,00,FE,C8,00,04,00,
59597794,00000227,false,Rx,1,8,05,00,00,00,02,00,EC,D1,
59598034,00000237,false,Rx,1,8,3B,41,00,00,00,00,00,00,
59598275,00000247,false,Rx,1,8,44,7D,6E,03,00,00,20,00,
59598516,00000717,false,Rx,1,8,06,00,66,06,66,06,00,40,
59607349,00000217,false,Rx,1,8,00,C0,80,FB,9C,02,02,04,
59697545,00000207,false,Rx,1,8,1A,E5,80,00,C8,00,04,00,
59697792,00000227,false,Rx,1,8,06,00,00,00,00,00,EC,D1,
59698031,00000237,false,Rx,1,8,3B,41,00,00,00,00,00,00,
59698274,00000247,false,Rx,1,8,44,7D,6E,03,00,00,20,00,
59698513,00000717,false,Rx,1,8,07,00,00,00,00,0A,00,00,
59707336,00000217,false,Rx,1,8,00,C0,80,FB,9C,02,02,04,
59797507,00000207,false,Rx,1,8,1A,E5,C0,02,C8,00,04,00,
59797746,00000227,false,Rx,1,8,09,00,00,00,00,00,EC,D1,
59797995,00000237,false,Rx,1,8,3B,41,00,00,00,00,00,00,
59798227,00000247,false,Rx,1,8,44,7D,6E,03,00,00,20,00,
59798468,00000717,false,Rx,1,8,08,00,00,00,66,06,00,00,
59807321,00000217,false,Rx,1,8,00,00,81,FB,9C,02,02,04,
59897502,00000207,false,Rx,1,8,1A,E5,80,05,C8,00,04,00,
59897741,00000227,false,Rx,1,8,09,00,00,00,00,00,EC,D1,
59897982,00000237,false,Rx,1,8,3B,41,00,00,00,00,00,00,
59898222,00000247,false,Rx,1,8,44,7D,6E,03,00,00,20,00,
59898463,00000717,false,Rx,1,8,09,00,66,06,00,00,00,00,
59907303,00000217,false,Rx,1,8,00,00,81,FB,9C,02,02,04,
59997487,00000207,false,Rx,1,8,1A,E5,80,07,C8,00,04,00,
59997727,00000227,false,Rx,1,8,0A,00,00,00,01,00,EC,D1,
59997966,00000237,false,Rx,1,8,3B,41,00,00,00,00,00,00,
59998206,00000247,false,Rx,1,8,44,7D,6E,03,00,00,20,00,
59998456,00000717,false,Rx,1,8,0A,00,00,00,00,00,00,00,
60007278,00000217,false,Rx,1,8,00,00,81,FB,9C,02,02,04,
60097356,00000367,false,Rx,1,8,00,00,00,00,00,00,00,00,
60097596,00000207,false,Rx,1,8,1A,E5,00,0A,C8,00,04,00,
60097836,00000227,false,Rx,1,8,0B,00,00,00,02,00,EC,D1,
60098083,00000237,false,Rx,1,8,3B,41,00,00,00,00,00,00,
60098318,00000247,false,Rx,1,8,44,7D,6E,03,00,00,20,00,
60098565,00000717,false,Rx,1,8,0B,00,00,00,00,00,00,00,
60107232,00000217,false,Rx,1,8,00,00,81,FB,9C,02,02,04,
60107480,00000377,false,Rx,1,8,00,00,00,00,00,00,00,00,
60117349,00000347,false,Rx,1,8,00,00,00,00,00,08,00,00,
60127354,00000357,false,Rx,1,8,00,00,00,00,00,00,00,00,
60137351,00000327,false,Rx,1,8,00,00,00,00,00,00,00,00,
60147346,00000337,false,Rx,1,8,00,00,00,00,00,00,00,00,
60197440,00000207,false,Rx,1,8,1A,E5,40,0C,C8,00,04,00,
60197679,00000227,false,Rx,1,8,09,00,00,00,00,00,EC,D1,
60197926,00000237,false,Rx,1,8,3B,41,00,00,00,00,00,00,
60198160,00000247,false,Rx,1,8,44,7D,6E,03,00,00,20,00,
60198401,00000717,false,Rx,1,8,0C,00,00,04,04,00,01,00,
60207237,00000217,false,Rx,1,8,00,00,81,FB,9C,02,02,04,
60297399,00000207,false,Rx,1,8,1A,E6,40,0E,C8,00,04,00,
60297638,00000227,false,Rx,1,8,0A,00,00,00,06,00,EC,D1,
60297885,00000237,false,Rx,1,8,3B,41,00,00,00,00,00,00,
60298119,00000247,false,Rx,1,8,44,7D,6E,03,00,00,20,00,
60298367,00000537,false,Rx,1,8,10,00,00,0A,00,00,00,00,
60298607,00000717,false,Rx,1,8,0E,00,00,02,66,62,00,00,
60307223,00000217,false,Rx,1,8,00,00,81,FB,9C,02,02,04,
60397382,00000207,false,Rx,1,8,1A,E6,C0,10,C8,00,04,00,
60397621,00000227,false,Rx,1,8,09,00,00,00,02,00,EC,D1,
60397869,00000237,false,Rx,1,8,3B,41,00,00,00,00,00,00,
60398102,00000247,false,Rx,1,8,44,7D,6E,03,00,00,20,00,
60398343,00000717,false,Rx,1,8,0F,00,EA,01,3E,0E,00,00,
60407182,00000217,false,Rx,1,8,00,00,81,FB,9C,02,02,04,
60497372,00000207,false,Rx,1,8,1A,E6,C0,12,C8,00,04,00,
60497610,00000227,false,Rx,1,8,07,00,00,00,01,00,EC,D1,
60497859,00000237,false,Rx,1,8,3B,41,00,00,00,00,00,00,
60498092,00000247,false,Rx,1,8,44,7D,6E,03,00,00,20,00,
60498332,00000717,false,Rx,1,8,10,0B,B0,FE,03,80,FF,00,
60507170,00000217,false,Rx,1,8,00,00,81,FB,9C,02,02,04,
60597333,00000207,false,Rx,1,8,1A,E5,00,15,C8,00,04,00,
60597572,00000227,false,Rx,1,8,0A,00,00,00,00,00,EC,D1,
60597820,00000237,false,Rx,1,8,3B,41,00,00,00,00,00,00,
60598052,00000247,false,Rx,1,8,44,7D,6E,03,00,00,20,00,
60598302,00000717,false,Rx,1,8,11,00,00,00,00,00,02,02,
60607132,00000217,false,Rx,1,8,00,00,81,FB,9C,02,02,04,
60697337,00000207,false,Rx,1,8,1A,E6,40,17,C8,00,04,00,
60697576,00000227,false,Rx,1,8,10,00,00,00,01,00,EC,D1,
60697823,00000237,false,Rx,1,8,3B,41,00,00,00,00,00,00,
60698063,00000247,false,Rx,1,8,44,7D,6E,03,00,00,20,00,
60698298,00000717,false,Rx,1,8,12,40,29,00,27,00,17,00,
60707136,00000217,false,Rx,1,8,00,00,81,FB,9C,02,02,04,
60797313,00000207,false,Rx,1,8,1A,E6,80,19,C8,00,04,00,
60797559,00000227,false,Rx,1,8,0C,00,00,00,00,00,EC,D1,
60797799,00000237,false,Rx,1,8,3B,41,00,00,00,00,00,00,
60798040,00000247,false,Rx,1,8,44,7D,6E,03,00,00,20,00,
60798289,00000717,false,Rx,1,8,13,00,00,00,00,00,00,00,
60807113,00000217,false,Rx,1,8,00,00,81,FB,9C,02,02,04,
60897276,00000207,false,Rx,1,8,1A,E6,80,1B,C8,00,04,00,
60897514,00000227,false,Rx,1,8,0D,00,00,00,00,00,EC,D1,
60897762,00000237,false,Rx,1,8,3B,41,00,00,00,00,00,00,
60897995,00000247,false,Rx,1,8,44,7D,6E,03,00,00,20,00,
60898235,00000717,false,Rx,1,8,14,00,00,00,F4,57,00,00,
60907069,00000217,false,Rx,1,8,00,00,81,FB,9C,02,02,04,
60997266,00000207,false,Rx,1,8,1A,E6,40,1D,C8,00,04,00,
60997505,00000227,false,Rx,1,8,0B,00,00,00,02,00,EC,D1,
60997753,00000237,false,Rx,1,8,3B,41,00,00,00,00,00,00,
60997993,00000247,false,Rx,1,8,44,7D,6E,03,00,00,20,00,
61007063,00000217,false,Rx,1,8,00,00,81,FB,9C,02,02,04,
61097154,00000367,false,Rx,1,8,00,00,00,00,00,00,00,00,
61097393,00000207,false,Rx,1,8,1A,E6,80,1F,C8,00,04,00,
61097634,00000227,false,Rx,1,8,12,00,00,00,05,00,EC,D1,
61097874,00000237,false,Rx,1,8,3B,41,00,00,00,00,00,00,
61098114,00000247,false,Rx,1,8,44,7D,6E,03,00,00,20,00,
61098356,00000717,false,Rx,1,8,16,00,00,00,00,00,32,E2,
61107023,00000217,false,Rx,1,8,00,00,81,FB,9C,02,02,04,
61107271,00000377,false,Rx,1,8,00,00,00,00,00,00,00,00,
61117142,00000347,false,Rx,1,8,00,00,00,00,00,08,00,00,
61127146,00000357,false,Rx,1,8,00,00,00,00,00,00,00,00,
61137144,00000327,false,Rx,1,8,00,00,00,00,00,00,00,00,
61147134,00000337,false,Rx,1,8,00,00,00,00,00,00,00,00,
61197234,00000207,false,Rx,1,8,1A,E6,40,21,C8,00,04,00,
61197468,00000227,false,Rx,1,8,0E,00,00,00,01,00,EC,D1,
61197715,00000237,false,Rx,1,8,3B,41,00,00,00,00,00,00,
61197948,00000247,false,Rx,1,8,44,7D,6E,03,00,00,20,00,
61198196,00000537,false,Rx,1,8,11,00,00,00,00,00,00,00,
61198445,00000717,false,Rx,1,8,17,00,00,40,04,00,00,00,
61207023,00000217,false,Rx,1,8,00,00,81,FB,9C,02,02,04,
61297204,00000207,false,Rx,1,8,1A,E6,00,23,C8,00,04,00,
61297444,00000227,false,Rx,1,8,15,00,00,00,00,00,EC,D1,
61297692,00000237,false,Rx,1,8,3B,41,00,00,00,00,00,00,
61297925,00000247,false,Rx,1,8,44,7D,6E,03,00,00,20,00,
61298172,00000717,false,Rx,1,8,18,00,00,00,00,00,00,00,
61306995,00000217,false,Rx,1,8,00,40,81,FB,9C,02,02,04,
61397164,00000207,false,Rx,1,8,1A,E6,00,25,C8,00,04,00,
61397405,00000227,false,Rx,1,8,09,00,00,00,02,00,EC,D1,
61397653,00000237,false,Rx,1,8,3B,41,00,00,00,00,00,00,
61397886,00000247,false,Rx,1,8,44,7D,6E,03,00,00,20,00,
61398134,00000717,false,Rx,1,8,19,00,00,00,00,00,00,00,
61406958,00000217,false,Rx,1,8,00,40,81,FB,9C,02,02,04,
61497169,00000207,false,Rx,1,8,1A,E6,C0,26,C8,00,04,00,
61497410,00000227,false,Rx,1,8,0F,00,00,00,08,00,EC,D1,
61497651,00000237,false,Rx,1,8,3B,41,00,00,00,00,00,00,
61497891,00000247,false,Rx,1,8,44,7D,6E,03,00,00,20,00,
61498139,00000717,false,Rx,1,8,01,00,00,00,00,00,00,00,
61506962,00000217,false,Rx,1,8,00,40,81,FB,9C,02,02,04,
61597124,00000207,false,Rx,1,8,1A,E6,80,28,C8,00,04,00,
61597371,00000227,false,Rx,1,8,0B,00,00,00,00,00,EC,D1,
61597612,00000237,false,Rx,1,8,3B,41,00,00,00,00,00,00,
61597852,00000247,false,Rx,1,8,44,7D,6E,03,00,00,20,00,
61598099,00000717,false,Rx,1,8,02,00,00,00,00,00,00,00,
61606932,00000217,false,Rx,1,8,00,40,81,FB,9C,02,02,04,
61697116,00000207,false,Rx,1,8,1A,E7,40,2A,C8,00,04,00,
61697357,00000227,false,Rx,1,8,0C,00,00,00,05,00,EC,D1,
61697596,00000237,false,Rx,1,8,3B,41,00,00,00,00,00,00,
