Time Stamp,ID,Extended,Dir,Bus,LEN,D1,D2,D3,D4,D5,D6,D7,D8
9426166,0000045C,false,Rx,1,8,00,00,09,3E,00,00,00,00,
9434786,0000042C,false,Rx,1,8,45,60,00,00,20,01,00,00,
9435027,0000043C,false,Rx,1,8,45,60,00,00,20,01,00,00,
9435268,0000044C,false,Rx,1,8,45,60,00,00,20,01,00,00,
9444806,0000042C,false,Rx,1,8,4B,60,00,00,20,00,00,00,
9445046,0000043C,false,Rx,1,8,4B,60,00,00,20,00,00,00,
9445295,0000044C,false,Rx,1,8,4B,60,00,00,20,00,00,00,
9515881,0000042C,false,Rx,1,8,6A,60,00,00,20,00,00,00,
9516120,0000043C,false,Rx,1,8,6A,60,00,00,20,00,00,00,
9516368,0000044C,false,Rx,1,8,6A,60,00,00,20,00,00,00,
9526145,0000045C,false,Rx,1,8,00,00,09,3E,00,00,00,00,
9526279,0000010C,false,Rx,1,2,01,00,00,00,00,00,00,00,
9615886,0000042C,false,Rx,1,8,8E,60,00,00,20,00,00,00,
9616125,0000043C,false,Rx,1,8,8E,60,00,00,20,00,00,00,
9616372,0000044C,false,Rx,1,8,8E,60,00,00,20,00,00,00,
9626120,0000045C,false,Rx,1,8,00,00,09,3E,00,00,00,00,
9715886,0000042C,false,Rx,1,8,96,60,00,00,20,00,00,00,
9716132,0000043C,false,Rx,1,8,96,60,00,00,20,00,00,00,
9716373,0000044C,false,Rx,1,8,96,60,00,00,20,00,00,00,
9726119,0000045C,false,Rx,1,8,00,00,09,3E,00,00,00,00,
9726253,0000010C,false,Rx,1,2,02,00,00,00,00,00,00,00,
9815888,0000042C,false,Rx,1,8,96,60,00,00,20,00,00,00,
9816127,0000043C,false,Rx,1,8,96,60,00,00,20,00,00,00,
9816368,0000044C,false,Rx,1,8,96,60,00,00,20,00,00,00,
9826119,0000045C,false,Rx,1,8,00,00,09,3E,00,00,00,00,
9915886,0000042C,false,Rx,1,8,96,60,00,00,20,00,00,00,
9916133,0000043C,false,Rx,1,8,96,60,00,00,20,00,00,00,
9916373,0000044C,false,Rx,1,8,96,60,00,00,20,00,00,00,
9926150,0000045C,false,Rx,1,8,00,00,09,3E,00,00,00,00,
9926277,0000010C,false,Rx,1,2,03,00,00,00,00,00,00,00,
10015914,0000042C,false,Rx,1,8,96,60,00,00,20,00,00,00,
10016160,0000043C,false,Rx,1,8,96,60,00,00,20,00,00,00,
10016400,0000044C,false,Rx,1,8,96,60,00,00,20,00,00,00,
10026147,0000045C,false,Rx,1,8,00,00,09,3E,00,00,00,00,
10115916,0000042C,false,Rx,1,8,96,60,00,00,20,00,00,00,
10116155,0000043C,false,Rx,1,8,96,60,00,00,20,00,00,00,
10116402,0000044C,false,Rx,1,8,96,60,00,00,20,00,00,00,
10126149,0000045C,false,Rx,1,8,00,00,09,3E,00,00,00,00,
10126283,0000010C,false,Rx,1,2,04,00,00,00,00,00,00,00,
10144004,000005EB,false,Rx,1,8,00,3F,05,06,00,00,00,01,
10215916,0000042C,false,Rx,1,8,96,60,00,00,20,00,00,00,
10216162,0000043C,false,Rx,1,8,96,60,00,00,20,00,00,00,
10216403,0000044C,false,Rx,1,8,96,60,00,00,20,00,00,00,
10226149,0000045C,false,Rx,1,8,00,00,09,3E,00,00,00,00,
10265378,0000021B,false,Rx,1,8,00,C0,FF,FF,7D,02,00,04,
10315921,0000042C,false,Rx,1,8,96,60,00,00,20,00,00,00,
10316160,0000043C,false,Rx,1,8,96,60,00,00,20,00,00,00,
10316400,0000044C,false,Rx,1,8,96,60,00,00,20,00,00,00,
10326155,0000045C,false,Rx,1,8,00,00,09,3E,00,00,00,00,
10326289,0000010C,false,Rx,1,2,05,00,00,00,00,00,00,00,
10326453,0000054B,false,Rx,1,2,05,FF,00,00,00,00,00,00,
10355615,0000020B,false,Rx,1,8,00,00,00,00,00,02,04,00,
10355862,0000022B,false,Rx,1,8,00,00,00,00,61,00,1F,C5,
10356111,0000023B,false,Rx,1,8,3C,41,00,00,00,00,00,00,
10356351,0000024B,false,Rx,1,8,00,7D,6E,03,00,00,20,00,
10356598,0000071B,false,Rx,1,8,02,00,00,00,00,00,00,00,
10365387,0000021B,false,Rx,1,8,00,C0,FF,FF,9C,02,00,04,
10365625,0000050B,false,Rx,1,8,74,00,96,00,00,00,00,C0,
10365874,0000036B,false,Rx,1,8,00,00,00,00,00,00,00,00,
10366115,0000050B,false,Rx,1,8,75,00,96,00,00,00,00,C0,
10375477,0000037B,false,Rx,1,8,00,00,00,00,00,00,00,00,
10385474,0000034B,false,Rx,1,8,00,00,00,00,00,00,00,00,
10395479,0000035B,false,Rx,1,8,00,00,00,00,00,00,18,00,
10405475,0000032B,false,Rx,1,8,00,00,00,00,00,00,00,00,
10415473,0000033B,false,Rx,1,8,00,00,00,00,00,00,00,00,
10415959,0000042C,false,Rx,1,8,96,60,00,00,20,00,00,00,
10416200,0000043C,false,Rx,1,8,96,60,00,00,20,00,00,00,
10416448,0000044C,false,Rx,1,8,96,60,00,00,20,00,00,00,
10425473,0000036B,false,Rx,1,8,00,00,00,00,00,00,00,00,
10426200,0000045C,false,Rx,1,8,00,00,09,3E,00,00,00,00,
10435475,0000037B,false,Rx,1,8,00,00,00,00,00,00,00,00,
10445472,0000034B,false,Rx,1,8,00,00,00,00,00,00,00,00,
10455462,0000035B,false,Rx,1,8,00,00,00,00,00,00,18,00,
10455709,0000020B,false,Rx,1,8,00,00,00,00,C8,02,14,00,
10455951,0000022B,false,Rx,1,8,00,00,00,00,55,00,1F,C5,
10456198,0000023B,false,Rx,1,8,3C,41,00,00,00,00,00,00,
10456438,0000024B,false,Rx,1,8,44,7D,6E,03,00,00,20,00,
10465361,0000021B,false,Rx,1,8,02,C0,FF,FF,9C,02,00,04,
10465614,0000032B,false,Rx,1,8,00,00,00,00,00,00,00,00,
10475462,0000033B,false,Rx,1,8,00,00,00,00,00,00,00,00,
10515924,0000042C,false,Rx,1,8,96,60,00,00,20,00,00,00,
10516162,0000043C,false,Rx,1,8,96,60,00,00,20,00,00,00,
10516402,0000044C,false,Rx,1,8,96,60,00,00,20,00,00,00,
10526150,0000045C,false,Rx,1,8,00,00,09,3E,00,00,00,00,
10526284,0000010C,false,Rx,1,2,06,00,00,00,00,00,00,00,
10526440,0000054B,false,Rx,1,2,06,FF,00,00,00,00,00,00,
10555539,0000020B,false,Rx,1,8,00,00,00,00,C8,02,14,00,
10555779,0000022B,false,Rx,1,8,00,00,00,00,3C,00,1F,C5,
10556027,0000023B,false,Rx,1,8,3C,41,00,00,00,00,00,00,
10556267,0000024B,false,Rx,1,8,44,7D,6E,03,00,00,20,00,
10556516,0000071B,false,Rx,1,8,04,00,00,00,00,00,00,00,
10565334,0000021B,false,Rx,1,8,02,C0,FF,FF,9C,02,00,04,
10615921,0000042C,false,Rx,1,8,96,60,00,00,20,00,00,00,
10616167,0000043C,false,Rx,1,8,96,60,00,00,20,00,00,00,
10616407,0000044C,false,Rx,1,8,96,60,00,00,20,00,00,00,
10626152,0000045C,false,Rx,1,8,00,00,09,3E,00,00,00,00,
10655524,0000020B,false,Rx,1,8,00,00,C0,FF,C8,02,14,00,
10655763,0000022B,false,Rx,1,8,00,00,00,00,39,00,1F,C5,
10656012,0000023B,false,Rx,1,8,3C,41,00,00,00,00,00,00,
10656252,0000024B,false,Rx,1,8,44,7D,6E,03,00,00,20,00,
10656493,0000071B,false,Rx,1,8,05,00,00,00,00,00,00,00,
10665315,0000021B,false,Rx,1,8,02,C0,7F,FF,9C,02,00,04,
10715922,0000042C,false,Rx,1,8,96,60,00,00,20,00,00,00,
10716169,0000043C,false,Rx,1,8,96,60,00,00,20,00,00,00,
10716410,0000044C,false,Rx,1,8,96,60,00,00,20,00,00,00,
10726147,0000045C,false,Rx,1,8,00,00,09,3E,00,00,00,00,
10726283,0000010C,false,Rx,1,2,07,00,00,00,00,00,00,00,
10726439,0000054B,false,Rx,1,2,07,FF,00,00,00,00,00,00,
10755483,0000020B,false,Rx,1,8,00,00,C0,FF,C8,02,14,00,
10755722,0000022B,false,Rx,1,8,00,00,00,00,39,00,1F,C5,
10755970,0000023B,false,Rx,1,8,3C,41,00,00,00,00,00,00,
10756211,0000024B,false,Rx,1,8,44,7D,6E,03,00,00,20,00,
10756443,0000071B,false,Rx,1,8,06,00,5A,46,66,06,00,40,
10765275,0000021B,false,Rx,1,8,02,C0,7F,FF,9C,02,00,04,
10815927,0000042C,false,Rx,1,8,96,60,00,00,20,00,00,00,
10816167,0000043C,false,Rx,1,8,96,60,00,00,20,00,00,00,
10816407,0000044C,false,Rx,1,8,96,60,00,00,20,00,00,00,
10826152,0000045C,false,Rx,1,8,00,00,09,3E,00,00,00,00,
10855488,0000020B,false,Rx,1,8,00,00,00,00,C8,02,14,00,
10855726,0000022B,false,Rx,1,8,00,00,00,00,2B,00,1F,C5,
10855975,0000023B,false,Rx,1,8,3C,41,00,00,00,00,00,00,
10856215,0000024B,false,Rx,1,8,44,7D,6E,03,00,00,20,00,
10856455,0000071B,false,Rx,1,8,07,00,00,00,02,0A,00,00,
10865281,0000021B,false,Rx,1,8,02,C0,7F,FF,9C,02,00,04,
10915927,0000042C,false,Rx,1,8,96,60,00,00,20,00,00,00,
10916167,0000043C,false,Rx,1,8,96,60,00,00,20,00,00,00,
10916407,0000044C,false,Rx,1,8,96,60,00,00,20,00,00,00,
10926152,0000045C,false,Rx,1,8,00,00,09,3E,00,00,00,00,
10926286,0000010C,false,Rx,1,2,08,00,00,00,00,00,00,00,
10926443,0000054B,false,Rx,1,2,08,FF,00,00,00,00,00,00,
10955431,0000020B,false,Rx,1,8,00,00,00,00,C8,02,14,00,
10955678,0000022B,false,Rx,1,8,00,00,00,00,2B,00,1F,C5,
10955927,0000023B,false,Rx,1,8,3C,41,00,00,00,00,00,00,
10956160,0000024B,false,Rx,1,8,44,7D,6E,03,00,00,20,00,
10956400,0000071B,false,Rx,1,8,08,00,00,00,DA,45,00,00,
10965253,0000021B,false,Rx,1,8,02,C0,7F,FF,9C,02,00,04,
11015928,0000042C,false,Rx,1,8,96,60,00,00,20,00,00,00,
11016167,0000043C,false,Rx,1,8,96,60,00,00,20,00,00,00,
11016414,0000044C,false,Rx,1,8,96,60,00,00,20,00,00,00,
11026151,0000045C,false,Rx,1,8,00,00,09,3E,00,00,00,00,
11055416,0000020B,false,Rx,1,8,00,00,C0,FF,C8,02,14,00,
11055662,0000022B,false,Rx,1,8,00,00,00,00,22,00,1F,C5,
11055912,0000023B,false,Rx,1,8,3C,41,00,00,00,00,00,00,
11056144,0000024B,false,Rx,1,8,44,7D,6E,03,00,00,20,00,
11056384,0000071B,false,Rx,1,8,09,00,DA,45,00,00,00,00,
11065223,0000021B,false,Rx,1,8,02,C0,7F,FF,9C,02,00,04,
11115926,0000042C,false,Rx,1,8,96,60,00,00,20,00,00,00,
11116164,0000043C,false,Rx,1,8,96,60,00,00,20,00,00,00,
11116413,0000044C,false,Rx,1,8,96,60,00,00,20,00,00,00,
11126158,0000045C,false,Rx,1,8,00,00,09,3E,00,00,00,00,
11126284,0000010C,false,Rx,1,2,09,00,00,00,00,00,00,00,
11126464,0000054B,false,Rx,1,2,09,FF,00,00,00,00,00,00,
11155413,0000020B,false,Rx,1,8,00,00,00,00,C8,00,14,00,
11155661,0000022B,false,Rx,1,8,00,00,00,00,29,00,1F,C5,
11155909,0000023B,false,Rx,1,8,3C,41,00,00,00,00,00,00,
11156149,0000024B,false,Rx,1,8,44,7D,6E,03,00,00,20,00,
11156390,0000071B,false,Rx,1,8,0A,00,00,00,00,00,00,00,
11165212,0000021B,false,Rx,1,8,02,C0,7F,FF,9C,02,00,04,
11215929,0000042C,false,Rx,1,8,96,60,00,00,20,00,00,00,
11216167,0000043C,false,Rx,1,8,96,60,00,00,20,00,00,00,
11216416,0000044C,false,Rx,1,8,96,60,00,00,20,00,00,00,
11226154,0000045C,false,Rx,1,8,00,00,09,3E,00,00,00,00,
11255300,0000036B,false,Rx,1,8,00,00,00,00,00,00,00,00,
11255540,0000020B,false,Rx,1,8,00,00,C0,FF,C8,00,14,00,
11255787,0000022B,false,Rx,1,8,00,00,00,00,35,00,1F,C5,
11256037,0000023B,false,Rx,1,8,3C,41,00,00,00,00,00,00,
11256270,0000024B,false,Rx,1,8,44,7D,6E,03,00,00,20,00,
11256518,0000071B,false,Rx,1,8,0B,00,00,00,00,00,00,00,
11265172,0000021B,false,Rx,1,8,02,C0,7F,FF,9C,02,00,04,
11265420,0000050B,false,Rx,1,8,2C,00,05,00,00,00,00,C0,
11265667,0000037B,false,Rx,1,8,00,00,00,00,00,00,00,00,
11275290,0000034B,false,Rx,1,8,00,00,00,00,00,08,00,00,
11285287,0000035B,false,Rx,1,8,00,00,00,00,00,00,18,00,
11295285,0000032B,false,Rx,1,8,00,00,00,00,00,00,00,00,
11305283,0000033B,false,Rx,1,8,00,00,00,00,00,00,00,00,
11315280,0000036B,false,Rx,1,8,00,00,00,00,00,00,00,00,
11315932,0000042C,false,Rx,1,8,96,60,00,00,20,00,00,00,
11316173,0000043C,false,Rx,1,8,96,60,00,00,20,00,00,00,
11316413,0000044C,false,Rx,1,8,96,60,00,00,20,00,00,00,
11325281,0000037B,false,Rx,1,8,00,00,00,00,00,00,00,00,
11326166,0000045C,false,Rx,1,8,00,00,09,3E,00,00,00,00,
11326301,0000010C,false,Rx,1,2,0A,00,00,00,00,00,00,00,
11326457,0000054B,false,Rx,1,2,0A,FF,00,00,00,00,00,00,
11335301,0000034B,false,Rx,1,8,00,00,00,00,00,08,00,00,
11345289,0000035B,false,Rx,1,8,00,00,00,00,00,00,18,00,
11355278,0000032B,false,Rx,1,8,00,00,00,00,00,00,00,00,
11355532,0000020B,false,Rx,1,8,00,00,00,00,C8,00,14,00,
11355772,0000022B,false,Rx,1,8,00,00,00,00,20,00,1F,C5,
11356021,0000023B,false,Rx,1,8,3C,41,00,00,00,00,00,00,
11356261,0000024B,false,Rx,1,8,44,7D,6E,03,00,00,20,00,
11356501,0000071B,false,Rx,1,8,0C,01,00,04,04,00,01,00,
11365169,0000021B,false,Rx,1,8,02,C0,7F,FF,9C,02,00,04,
11365417,0000033B,false,Rx,1,8,00,00,00,00,00,00,00,00,
11415931,0000042C,false,Rx,1,8,96,60,00,00,20,00,00,00,
11416170,0000043C,false,Rx,1,8,96,60,00,00,20,00,00,00,
11416417,0000044C,false,Rx,1,8,96,60,00,00,20,00,00,00,
11426165,0000045C,false,Rx,1,8,00,00,09,3E,00,00,00,00,
11455356,0000020B,false,Rx,1,8,00,00,00,00,C8,00,14,00,
11455594,0000022B,false,Rx,1,8,00,00,00,00,0B,00,1F,C5,
11455844,0000023B,false,Rx,1,8,3C,41,00,00,00,00,00,00,
11456084,0000024B,false,Rx,1,8,44,7D,6E,03,00,00,20,00,
11456324,0000071B,false,Rx,1,8,0E,00,00,02,A6,04,00,00,
11465140,0000021B,false,Rx,1,8,02,C0,7F,FF,9C,02,00,04,
11514931,0000042C,false,Rx,1,8,96,60,00,00,20,00,00,00,
11515170,0000043C,false,Rx,1,8,96,60,00,00,20,00,00,00,
11515418,0000044C,false,Rx,1,8,96,60,00,00,20,00,00,00,
11526154,0000045C,false,Rx,1,8,00,00,09,3E,00,00,00,00,
11526288,0000010C,false,Rx,1,2,0B,00,00,00,00,00,00,00,
11526437,0000054B,false,Rx,1,2,0B,FF,00,00,00,00,00,00,
11555313,0000020B,false,Rx,1,8,00,00,C0,FF,C8,00,14,00,
11555552,0000022B,false,Rx,1,8,00,00,00,00,1B,00,1F,C5,
11555800,0000023B,false,Rx,1,8,3C,41,00,00,00,00,00,00,
11556041,0000024B,false,Rx,1,8,44,7D,6E,03,00,00,20,00,
11556274,0000071B,false,Rx,1,8,0F,00,EB,01,AC,0E,00,00,
11565112,0000021B,false,Rx,1,8,02,C0,FF,FE,9C,02,00,04,
11614923,0000042C,false,Rx,1,8,96,60,00,00,21,00,00,00,
11615162,0000043C,false,Rx,1,8,96,60,00,00,21,00,00,00,
11615402,0000044C,false,Rx,1,8,96,60,00,00,21,00,00,00,
11626152,0000045C,false,Rx,1,8,00,00,09,3E,00,00,00,00,
11655313,0000020B,false,Rx,1,8,00,00,C0,FF,C8,00,14,00,
11655561,0000022B,false,Rx,1,8,00,00,00,00,11,00,1F,C5,
11655808,0000023B,false,Rx,1,8,3C,41,00,00,00,00,00,00,
11656041,0000024B,false,Rx,1,8,44,7D,6E,03,00,00,20,00,
11656281,0000071B,false,Rx,1,8,10,FF,BF,FF,05,00,00,00,
11665105,0000021B,false,Rx,1,8,02,C0,FF,FE,9C,02,00,04,
11714919,0000042C,false,Rx,1,8,96,60,00,00,21,00,00,00,
11715165,0000043C,false,Rx,1,8,96,60,00,00,21,00,00,00,
11715405,0000044C,false,Rx,1,8,96,60,00,00,21,00,00,00,
11726157,0000045C,false,Rx,1,8,00,00,09,3E,00,00,00,00,
11726284,0000010C,false,Rx,1,2,0C,00,00,00,00,00,00,00,
11726448,0000054B,false,Rx,1,2,0C,FF,00,00,00,00,00,00,
11755262,0000020B,false,Rx,1,8,00,00,00,00,C8,00,14,00,
11755509,0000022B,false,Rx,1,8,00,00,00,00,20,00,1F,C5,
11755757,0000023B,false,Rx,1,8,3C,41,00,00,00,00,00,00,
11755998,0000024B,false,Rx,1,8,44,7D,6E,03,00,00,20,00,
11756239,0000071B,false,Rx,1,8,11,00,00,00,00,00,02,02,
11765079,0000021B,false,Rx,1,8,02,C0,FF,FE,9C,02,00,04,
11814922,0000042C,false,Rx,1,8,96,60,00,00,21,00,00,00,
11815161,0000043C,false,Rx,1,8,96,60,00,00,21,00,00,00,
11815402,0000044C,false,Rx,1,8,96,60,00,00,21,00,00,00,
11826153,0000045C,false,Rx,1,8,00,00,09,3E,00,00,00,00,
11855261,0000020B,false,Rx,1,8,00,00,C0,FF,C8,00,14,00,
11855507,0000022B,false,Rx,1,8,00,00,00,00,12,00,1F,C5,
11855755,0000023B,false,Rx,1,8,3C,41,00,00,00,00,00,00,
11855997,0000024B,false,Rx,1,8,44,7D,6E,03,00,00,20,00,
11856237,0000071B,false,Rx,1,8,12,3F,25,00,27,00,15,00,
11865066,0000021B,false,Rx,1,8,02,C0,FF,FE,9C,02,00,04,
11914918,0000042C,false,Rx,1,8,96,60,00,00,21,00,00,00,
11915166,0000043C,false,Rx,1,8,96,60,00,00,21,00,00,00,
11915406,0000044C,false,Rx,1,8,96,60,00,00,21,00,00,00,
11926158,0000045C,false,Rx,1,8,00,00,09,3E,00,00,00,00,
11926292,0000010C,false,Rx,1,2,0D,00,00,00,00,00,00,00,
11926441,0000054B,false,Rx,1,2,0D,FF,00,00,00,00,00,00,
11955251,0000020B,false,Rx,1,8,00,00,00,00,C8,00,14,00,
11955497,0000022B,false,Rx,1,8,00,00,00,00,1D,00,1F,C5,
11955744,0000023B,false,Rx,1,8,3C,41,00,00,00,00,00,00,
11955979,0000024B,false,Rx,1,8,44,7D,6E,03,00,00,20,00,
11956226,0000071B,false,Rx,1,8,13,00,00,00,00,00,00,00,
11965043,0000021B,false,Rx,1,8,02,C0,FF,FE,9C,02,00,04,
12013925,0000042C,false,Rx,1,8,96,60,00,00,21,00,00,00,
12014164,0000043C,false,Rx,1,8,96,60,00,00,21,00,00,00,
12014405,0000044C,false,Rx,1,8,96,60,00,00,21,00,00,00,
12014923,0000042C,false,Rx,1,8,96,60,00,00,21,00,00,00,
12015164,0000043C,false,Rx,1,8,96,60,00,00,21,00,00,00,
12015404,0000044C,false,Rx,1,8,96,60,00,00,21,00,00,00,
12026167,0000045C,false,Rx,1,8,00,00,09,3E,00,00,00,00,
12055200,0000020B,false,Rx,1,8,00,00,C0,FF,C8,00,14,00,
12055446,0000022B,false,Rx,1,8,00,00,00,00,0D,00,1F,C5,
12055694,0000023B,false,Rx,1,8,3C,41,00,00,00,00,00,00,
12055935,0000024B,false,Rx,1,8,44,7D,6E,03,00,00,20,00,
12056175,0000071B,false,Rx,1,8,14,00,00,00,1B,00,00,00,
12064999,0000021B,false,Rx,1,8,02,C0,FF,FE,9C,02,00,04,
12114930,0000042C,false,Rx,1,8,96,60,00,00,21,00,00,00,
12115176,0000043C,false,Rx,1,8,96,60,00,00,21,00,00,00,
12115416,0000044C,false,Rx,1,8,96,60,00,00,21,00,00,00,
12126167,0000045C,false,Rx,1,8,00,00,09,3E,00,00,00,00,
12126301,0000010C,false,Rx,1,2,0E,00,00,00,00,00,00,00,
12126473,0000054B,false,Rx,1,2,0E,FF,00,00,00,00,00,00,
12155200,0000020B,false,Rx,1,8,00,00,00,00,C8,00,14,00,
12155446,0000022B,false,Rx,1,8,00,00,00,00,09,00,1F,C5,
12155695,0000023B,false,Rx,1,8,3C,41,00,00,00,00,00,00,
12155936,0000024B,false,Rx,1,8,44,7D,6E,03,00,00,20,00,
12164992,0000021B,false,Rx,1,8,02,C0,FF,FE,9C,02,00,04,
12214931,0000042C,false,Rx,1,8,96,60,00,00,21,00,00,00,
12215170,0000043C,false,Rx,1,8,96,60,00,00,21,00,00,00,
12215411,0000044C,false,Rx,1,8,96,60,00,00,21,00,00,00,
12226163,0000045C,false,Rx,1,8,00,00,09,3E,00,00,00,00,
12255069,0000036B,false,Rx,1,8,00,00,00,00,00,00,00,00,
12255315,0000020B,false,Rx,1,8,00,00,C0,FF,C8,00,14,00,
12255564,0000022B,false,Rx,1,8,00,00,00,00,10,00,1F,C5,
12255811,0000023B,false,Rx,1,8,3C,41,00,00,00,00,00,00,
12256044,0000024B,false,Rx,1,8,44,7D,6E,03,00,00,20,00,
12256285,0000071B,false,Rx,1,8,16,00,00,00,00,00,3A,46,
12264976,0000021B,false,Rx,1,8,02,C0,FF,FE,9C,02,00,04,
12265222,0000037B,false,Rx,1,8,00,00,00,00,00,00,00,00,
12275077,0000034B,false,Rx,1,8,00,00,00,00,00,08,00,00,
12285074,0000035B,false,Rx,1,8,00,00,00,00,00,00,18,00,
12295071,0000032B,false,Rx,1,8,00,00,00,00,00,00,00,00,
12305060,0000033B,false,Rx,1,8,00,00,00,00,00,00,00,00,
12314935,0000042C,false,Rx,1,8,96,60,00,00,21,00,00,00,
12315174,0000043C,false,Rx,1,8,96,60,00,00,21,00,00,00,
12315415,0000044C,false,Rx,1,8,96,60,00,00,21,00,00,00,
12326168,0000045C,false,Rx,1,8,00,00,09,3E,00,00,00,00,
12326302,0000010C,false,Rx,1,2,0F,00,00,00,00,00,00,00,
12326458,0000054B,false,Rx,1,2,0F,FF,00,00,00,00,00,00,
12355147,0000020B,false,Rx,1,8,00,00,C0,FF,C8,00,14,00,
12355395,0000022B,false,Rx,1,8,00,00,00,00,15,00,1F,C5,
12355642,0000023B,false,Rx,1,8,3C,41,00,00,00,00,00,00,
12355875,0000024B,false,Rx,1,8,44,7D,6E,03,00,00,20,00,
12356124,0000071B,false,Rx,1,8,17,00,00,C0,03,00,50,00,
12364948,0000021B,false,Rx,1,8,02,C0,FF,FE,9C,02,00,04,
12414935,0000042C,false,Rx,1,8,96,60,00,00,21,00,00,00,
12415175,0000043C,false,Rx,1,8,96,60,00,00,21,00,00,00,
12415415,0000044C,false,Rx,1,8,96,60,00,00,21,00,00,00,
12426174,0000045C,false,Rx,1,8,00,00,09,3E,00,00,00,00,
12455143,0000020B,false,Rx,1,8,00,00,C0,FF,C8,00,14,00,
12455381,0000022B,false,Rx,1,8,00,00,00,00,21,00,1F,C5,
12455636,0000023B,false,Rx,1,8,3C,41,00,00,00,00,00,00,
12455871,0000024B,false,Rx,1,8,44,7D,6E,03,00,00,20,00,
12456118,0000071B,false,Rx,1,8,18,00,00,00,00,00,00,00,
12464928,0000021B,false,Rx,1,8,02,C0,FF,FE,9C,02,00,04,
12514931,0000042C,false,Rx,1,8,96,60,00,00,21,00,00,00,
12515177,0000043C,false,Rx,1,8,96,60,00,00,21,00,00,00,
12515417,0000044C,false,Rx,1,8,96,60,00,00,21,00,00,00,
12526168,0000045C,false,Rx,1,8,00,00,09,3E,00,00,00,00,
12526302,0000010C,false,Rx,1,2,10,00,00,00,00,00,00,00,
12526452,0000054B,false,Rx,1,2,10,FF,00,00,00,00,00,00,
12555094,0000020B,false,Rx,1,8,00,00,00,00,C8,00,14,00,
12555333,0000022B,false,Rx,1,8,00,00,00,00,0C,00,1F,C5,
12555580,0000023B,false,Rx,1,8,3C,41,00,00,00,00,00,00,
12555821,0000024B,false,Rx,1,8,44,7D,6E,03,00,00,20,00,
12556070,0000071B,false,Rx,1,8,19,00,00,00,00,00,00,00,
12564886,0000021B,false,Rx,1,8,02,C0,FF,FE,9C,02,00,04,
12614933,0000042C,false,Rx,1,8,96,60,00,00,21,00,00,00,
12615180,0000043C,false,Rx,1,8,96,60,00,00,21,00,00,00,
12615419,0000044C,false,Rx,1,8,96,60,00,00,21,00,00,00,
12626169,0000045C,false,Rx,1,8,00,00,09,3E,00,00,00,00,
12655096,0000020B,false,Rx,1,8,00,00,00,00,C8,00,14,00,
12655335,0000022B,false,Rx,1,8,00,00,00,00,1D,00,1F,C5,
12655584,0000023B,false,Rx,1,8,3C,41,00,00,00,00,00,00,
12655824,0000024B,false,Rx,1,8,44,7D,6E,03,00,00,20,00,
12656072,0000071B,false,Rx,1,8,01,00,00,00,00,00,00,00,
12664889,0000021B,false,Rx,1,8,02,C0,FF,FE,9C,02,00,04,
12714938,0000042C,false,Rx,1,8,96,60,00,00,21,00,00,00,
12715177,0000043C,false,Rx,1,8,96,60,00,00,21,00,00,00,
12715418,0000044C,false,Rx,1,8,96,60,00,00,21,00,00,00,
12726168,0000045C,false,Rx,1,8,00,00,09,3E,00,00,00,00,
12726302,0000010C,false,Rx,1,2,11,00,00,00,00,00,00,00,
12726458,0000054B,false,Rx,1,2,11,FF,00,00,00,00,00,00,
12755049,0000020B,false,Rx,1,8,00,00,C0,FF,C8,00,14,00,
12755296,0000022B,false,Rx,1,8,00,00,00,00,16,00,1F,C5,
12755543,0000023B,false,Rx,1,8,3C,41,00,00,00,00,00,00,
12755783,0000024B,false,Rx,1,8,44,7D,6E,03,00,00,20,00,
12756032,0000071B,false,Rx,1,8,02,00,00,00,00,00,00,00,
12764870,0000021B,false,Rx,1,8,02,C0,FF,FE,9C,02,00,04,
12814935,0000042C,false,Rx,1,8,96,60,00,00,21,00,00,00,
12815182,0000043C,false,Rx,1,8,96,60,00,00,21,00,00,00,
12815423,0000044C,false,Rx,1,8,96,60,00,00,21,00,00,00,
12826173,0000045C,false,Rx,1,8,00,00,09,3E,00,00,00,00,
12855028,0000020B,false,Rx,1,8,00,00,C0,FF,C8,00,14,00,
12855268,0000022B,false,Rx,1,8,00,00,00,00,13,00,1F,C5,
12855515,0000023B,false,Rx,1,8,3C,41,00,00,00,00,00,00,
12855755,0000024B,false,Rx,1,8,44,7D,6E,03,00,00,20,00,
12864833,0000021B,false,Rx,1,8,02,C0,FF,FE,9C,02,00,04,
12914940,0000042C,false,Rx,1,8,96,60,00,00,21,00,00,00,
12915180,0000043C,false,Rx,1,8,96,60,00,00,21,00,00,00,
12915420,0000044C,false,Rx,1,8,96,60,00,00,21,00,00,00,
12926173,0000045C,false,Rx,1,8,00,00,09,3E,00,00,00,00,
12926307,0000010C,false,Rx,1,2,12,00,00,00,00,00,00,00,
12926464,0000054B,false,Rx,1,2,12,FF,00,00,00,00,00,00,
12955032,0000020B,false,Rx,1,8,00,00,00,00,C8,00,14,00,
12955278,0000022B,false,Rx,1,8,00,00,00,00,0F,00,1F,C5,
12955526,0000023B,false,Rx,1,8,3C,41,00,00,00,00,00,00,
12955767,0000024B,false,Rx,1,8,44,7D,6E,03,00,00,20,00,
12956008,0000071B,false,Rx,1,8,04,00,00,00,00,00,00,00,
12964821,0000021B,false,Rx,1,8,02,C0,FF,FE,9C,02,00,04,
13014947,0000042C,false,Rx,1,8,96,60,00,00,20,00,00,00,
13015186,0000043C,false,Rx,1,8,96,60,00,00,20,00,00,00,
13015426,0000044C,false,Rx,1,8,96,60,00,00,20,00,00,00,
13026177,0000045C,false,Rx,1,8,00,00,09,3E,00,00,00,00,
13054984,0000020B,false,Rx,1,8,00,00,C0,FF,C8,00,14,00,
13055230,0000022B,false,Rx,1,8,00,00,00,00,0C,00,1F,C5,
13055477,0000023B,false,Rx,1,8,3C,41,00,00,00,00,00,00,
13055718,0000024B,false,Rx,1,8,44,7D,6E,03,00,00,20,00,
13055967,0000071B,false,Rx,1,8,05,00,00,00,00,00,00,00,
13064774,0000021B,false,Rx,1,8,02,C0,FF,FE,9C,02,00,04,
13114946,0000042C,false,Rx,1,8,96,60,00,00,20,00,00,00,
13115185,0000043C,false,Rx,1,8,96,60,00,00,20,00,00,00,
13115432,0000044C,false,Rx,1,8,96,60,00,00,20,00,00,00,
13126177,0000045C,false,Rx,1,8,00,00,09,3E,00,00,00,00,
13126312,0000010C,false,Rx,1,2,13,00,00,00,00,00,00,00,
13126476,0000054B,false,Rx,1,2,13,FF,00,00,00,00,00,00,
13154989,0000020B,false,Rx,1,8,00,00,C0,FF,C8,00,14,00,
13155235,0000022B,false,Rx,1,8,00,00,00,00,08,00,1F,C5,
13155484,0000023B,false,Rx,1,8,3C,41,00,00,00,00,00,00,
13155724,0000024B,false,Rx,1,8,44,7D,6E,03,00,00,20,00,
13155957,0000071B,false,Rx,1,8,06,00,4E,46,66,06,00,40,
13164780,0000021B,false,Rx,1,8,02,C0,FF,FE,9C,02,00,04,
13214943,0000042C,false,Rx,1,8,96,60,00,00,20,00,00,00,
13215189,0000043C,false,Rx,1,8,96,60,00,00,20,00,00,00,
13215430,0000044C,false,Rx,1,8,96,60,00,00,20,00,00,00,
13226176,0000045C,false,Rx,1,8,00,00,09,3E,00,00,00,00,
13254860,0000036B,false,Rx,1,8,00,00,00,00,00,00,00,00,
13255106,0000020B,false,Rx,1,8,00,00,C0,FF,C8,00,14,00,
13255355,0000022B,false,Rx,1,8,00,00,00,00,20,00,1F,C5,
13255602,0000023B,false,Rx,1,8,3C,41,00,00,00,00,00,00,
13255843,0000024B,false,Rx,1,8,44,7D,6E,03,00,00,20,00,
13256084,0000071B,false,Rx,1,8,07,00,00,00,02,0A,00,00,
13264754,0000021B,false,Rx,1,8,02,C0,FF,FE,9C,02,00,04,
13265008,0000037B,false,Rx,1,8,00,00,00,00,00,00,00,00,
13274856,0000034B,false,Rx,1,8,00,00,00,00,00,08,00,00,
13284853,0000035B,false,Rx,1,8,00,00,00,00,00,00,18,00,
13294850,0000032B,false,Rx,1,8,00,00,00,00,00,00,00,00,
13304846,0000033B,false,Rx,1,8,00,00,00,00,00,00,00,00,
13314949,0000042C,false,Rx,1,8,96,60,00,00,20,00,00,00,
13315189,0000043C,false,Rx,1,8,96,60,00,00,20,00,00,00,
13315429,0000044C,false,Rx,1,8,96,60,00,00,20,00,00,00,
13326180,0000045C,false,Rx,1,8,00,00,09,3E,00,00,00,00,
13326314,0000010C,false,Rx,1,2,14,00,00,00,00,00,00,00,
13326485,0000054B,false,Rx,1,2,14,FF,00,00,00,00,00,00,
13354916,0000020B,false,Rx,1,8,00,00,00,00,C8,00,14,00,
13355163,0000022B,false,Rx,1,8,00,00,00,00,10,00,1F,C5,
13355410,0000023B,false,Rx,1,8,3C,41,00,00,00,00,00,00,
13355650,0000024B,false,Rx,1,8,44,7D,6E,03,00,00,20,00,
13355886,0000071B,false,Rx,1,8,08,00,00,00,3E,46,00,00,
13364715,0000021B,false,Rx,1,8,02,C0,FF,FE,9C,02,00,04,
13414943,0000042C,false,Rx,1,8,96,60,00,00,20,00,00,00,
13415190,0000043C,false,Rx,1,8,96,60,00,00,20,00,00,00,
13415430,0000044C,false,Rx,1,8,96,60,00,00,20,00,00,00,
13426182,0000045C,false,Rx,1,8,00,00,09,3E,00,00,00,00,
13454916,0000020B,false,Rx,1,8,00,00,C0,FF,C8,00,14,00,
13455163,0000022B,false,Rx,1,8,00,00,00,00,13,00,1F,C5,
13455410,0000023B,false,Rx,1,8,3C,41,00,00,00,00,00,00,
13455650,0000024B,false,Rx,1,8,44,7D,6E,03,00,00,20,00,
13455892,0000071B,false,Rx,1,8,09,00,3A,46,00,00,00,00,
13464715,0000021B,false,Rx,1,8,02,C0,FF,FE,9C,02,00,04,
13514949,0000042C,false,Rx,1,8,96,60,00,00,20,00,00,00,
13515188,0000043C,false,Rx,1,8,96,60,00,00,20,00,00,00,
13515435,0000044C,false,Rx,1,8,96,60,00,00,20,00,00,00,
13526179,0000045C,false,Rx,1,8,00,00,09,3E,00,00,00,00,
13526313,0000010C,false,Rx,1,2,15,00,00,00,00,00,00,00,
13526471,0000054B,false,Rx,1,2,15,FF,00,00,00,00,00,00,
13554886,0000020B,false,Rx,1,8,00,00,C0,FF,C8,00,14,00,
13555132,0000022B,false,Rx,1,8,00,00,00,00,04,00,1F,C5,
13555379,0000023B,false,Rx,1,8,3C,41,00,00,00,00,00,00,
13555620,0000024B,false,Rx,1,8,44,7D,6E,03,00,00,20,00,
13555862,0000071B,false,Rx,1,8,0A,00,00,00,00,00,00,00,
13564700,0000021B,false,Rx,1,8,02,C0,FF,FE,9C,02,00,04,
13614948,0000042C,false,Rx,1,8,96,60,00,00,20,00,00,00,
13615195,0000043C,false,Rx,1,8,96,60,00,00,20,00,00,00,
13615435,0000044C,false,Rx,1,8,96,60,00,00,20,00,00,00,
13626176,0000045C,false,Rx,1,8,00,00,09,3E,00,00,00,00,
13654893,0000020B,false,Rx,1,8,00,00,C0,FF,C8,00,14,00,
13655139,0000022B,false,Rx,1,8,00,00,00,00,19,00,1F,C5,
13655387,0000023B,false,Rx,1,8,3C,41,00,00,00,00,00,00,
13655628,0000024B,false,Rx,1,8,44,7D,6E,03,00,00,20,00,
13655869,0000071B,false,Rx,1,8,0B,00,00,00,00,00,00,00,
13664671,0000021B,false,Rx,1,8,02,C0,FF,FE,9C,02,00,04,
13714947,0000042C,false,Rx,1,8,96,60,00,00,20,00,00,00,
13715193,0000043C,false,Rx,1,8,96,60,00,00,20,00,00,00,
13715434,0000044C,false,Rx,1,8,96,60,00,00,20,00,00,00,
13726185,0000045C,false,Rx,1,8,00,00,09,3E,00,00,00,00,
13726311,0000010C,false,Rx,1,2,16,00,00,00,00,00,00,00,
13726468,0000054B,false,Rx,1,2,16,FF,00,00,00,00,00,00,
13754853,0000020B,false,Rx,1,8,00,00,C0,FF,C8,00,14,00,
13755099,0000022B,false,Rx,1,8,00,00,00,00,0C,00,1F,C5,
13755347,0000023B,false,Rx,1,8,3C,41,00,00,00,00,00,00,
13755587,0000024B,false,Rx,1,8,44,7D,6E,03,00,00,20,00,
13755829,0000071B,false,Rx,1,8,0C,01,00,04,04,00,01,00,
13764644,0000021B,false,Rx,1,8,02,C0,FF,FE,9C,02,00,04,
13814949,0000042C,false,Rx,1,8,96,60,00,00,20,00,00,00,
13815196,0000043C,false,Rx,1,8,96,60,00,00,20,00,00,00,
13815436,0000044C,false,Rx,1,8,96,60,00,00,20,00,00,00,
13826180,0000045C,false,Rx,1,8,00,00,09,3E,00,00,00,00,
13854821,0000020B,false,Rx,1,8,00,00,00,00,C8,00,14,00,
13855061,0000022B,false,Rx,1,8,00,00,00,00,09,00,1F,C5,
13855309,0000023B,false,Rx,1,8,3C,41,00,00,00,00,00,00,
13855549,0000024B,false,Rx,1,8,44,7D,6E,03,00,00,20,00,
13855789,0000071B,false,Rx,1,8,0E,00,00,02,06,0E,00,00,
13864612,0000021B,false,Rx,1,8,02,C0,FF,FE,9C,02,00,04,
13914953,0000042C,false,Rx,1,8,96,60,00,00,20,00,00,00,
13915193,0000043C,false,Rx,1,8,96,60,00,00,20,00,00,00,
13915441,0000044C,false,Rx,1,8,96,60,00,00,20,00,00,00,
13926183,0000045C,false,Rx,1,8,00,00,09,3E,00,00,00,00,
13926317,0000010C,false,Rx,1,2,17,00,00,00,00,00,00,00,
13926466,0000054B,false,Rx,1,2,17,FF,00,00,00,00,00,00,
13954822,0000020B,false,Rx,1,8,00,00,00,00,C8,00,14,00,
13955063,0000022B,false,Rx,1,8,00,00,00,00,06,00,1F,C5,
13955318,0000023B,false,Rx,1,8,3C,41,00,00,00,00,00,00,
13955550,0000024B,false,Rx,1,8,44,7D,6E,03,00,00,20,00,
13955784,0000071B,false,Rx,1,8,0F,00,EB,01,65,0E,00,00,
13964614,0000021B,false,Rx,1,8,02,C0,FF,FE,9C,02,00,04,
14013950,0000042C,false,Rx,1,8,96,60,00,00,20,00,00,00,
14014197,0000043C,false,Rx,1,8,96,60,00,00,20,00,00,00,
14014437,0000044C,false,Rx,1,8,96,60,00,00,20,00,00,00,
14015953,0000042C,false,Rx,1,8,96,60,00,00,20,00,00,00,
14016196,0000043C,false,Rx,1,8,96,60,00,00,20,00,00,00,
14016444,0000044C,false,Rx,1,8,96,60,00,00,20,00,00,00,
14026189,0000045C,false,Rx,1,8,00,00,09,3E,00,00,00,00,
14054787,0000020B,false,Rx,1,8,00,00,00,00,C8,00,14,00,
14055035,0000022B,false,Rx,1,8,00,00,00,00,0D,00,1F,C5,
14055282,0000023B,false,Rx,1,8,3C,41,00,00,00,00,00,00,
14055514,0000024B,false,Rx,1,8,44,7D,6E,03,00,00,20,00,
14055763,0000071B,false,Rx,1,8,10,FF,9F,FF,06,00,00,00,
14064587,0000021B,false,Rx,1,8,02,C0,FF,FE,9C,02,00,04,
14115960,0000042C,false,Rx,1,8,96,60,00,00,20,00,00,00,
14116200,0000043C,false,Rx,1,8,96,60,00,00,20,00,00,00,
14116440,0000044C,false,Rx,1,8,96,60,00,00,20,00,00,00,
14126192,0000045C,false,Rx,1,8,00,00,09,3E,00,00,00,00,
14126326,0000010C,false,Rx,1,2,18,00,00,00,00,00,00,00,
14126483,0000054B,false,Rx,1,2,18,FF,00,00,00,00,00,00,
14154756,0000020B,false,Rx,1,8,00,00,C0,FF,C8,00,14,00,
14154997,0000022B,false,Rx,1,8,00,00,00,00,03,00,1F,C5,
14155244,0000023B,false,Rx,1,8,3C,41,00,00,00,00,00,00,
14155486,0000024B,false,Rx,1,8,44,7D,6E,03,00,00,20,00,
14155733,0000071B,false,Rx,1,8,11,00,00,00,00,00,02,02,
14164557,0000021B,false,Rx,1,8,02,C0,FF,FE,9C,02,00,04,
14215961,0000042C,false,Rx,1,8,96,60,00,00,20,00,00,00,
14216201,0000043C,false,Rx,1,8,96,60,00,00,20,00,00,00,
14216440,0000044C,false,Rx,1,8,96,60,00,00,20,00,00,00,
14226187,0000045C,false,Rx,1,8,00,00,09,3E,00,00,00,00,
14254648,0000036B,false,Rx,1,8,00,00,00,00,00,00,00,00,
14254895,0000020B,false,Rx,1,8,00,00,C0,FF,C8,00,14,00,
14255143,0000022B,false,Rx,1,8,00,00,00,00,0A,00,1F,C5,
14255391,0000023B,false,Rx,1,8,3C,41,00,00,00,00,00,00,
14255623,0000024B,false,Rx,1,8,44,7D,6E,03,00,00,20,00,
14255864,0000071B,false,Rx,1,8,12,3F,26,00,27,00,15,00,
14264548,0000021B,false,Rx,1,8,02,C0,FF,FE,9C,02,00,04,
14264794,0000037B,false,Rx,1,8,00,00,00,00,00,00,00,00,
14274643,0000034B,false,Rx,1,8,00,00,00,00,00,08,00,00,
14284643,0000035B,false,Rx,1,8,00,00,00,00,00,00,18,00,
14294641,0000032B,false,Rx,1,8,00,00,00,00,00,00,00,00,
14304638,0000033B,false,Rx,1,8,00,00,00,00,00,00,00,00,
14315959,0000042C,false,Rx,1,8,96,60,00,00,20,00,00,00,
14316198,0000043C,false,Rx,1,8,96,60,00,00,20,00,00,00,
14316445,0000044C,false,Rx,1,8,96,60,00,00,20,00,00,00,
14326191,0000045C,false,Rx,1,8,00,00,09,3E,00,00,00,00,
14326325,0000010C,false,Rx,1,2,19,00,00,00,00,00,00,00,
14326481,0000054B,false,Rx,1,2,19,FF,00,00,00,00,00,00,
14354708,0000020B,false,Rx,1,8,00,00,C0,FF,C8,00,14,00,
14354948,0000022B,false,Rx,1,8,00,00,00,00,0A,00,1F,C5,
14355196,0000023B,false,Rx,1,8,3C,41,00,00,00,00,00,00,
14355436,0000024B,false,Rx,1,8,44,7D,6E,03,00,00,20,00,
14355684,0000071B,false,Rx,1,8,13,00,00,00,00,00,00,00,
14364507,0000021B,false,Rx,1,8,02,C0,FF,FE,9C,02,00,04,
14415959,0000042C,false,Rx,1,8,96,60,00,00,20,00,00,00,
14416198,0000043C,false,Rx,1,8,96,60,00,00,20,00,00,00,
14416445,0000044C,false,Rx,1,8,96,60,00,00,20,00,00,00,
14426200,0000045C,false,Rx,1,8,00,00,09,3E,00,00,00,00,
14454711,0000020B,false,Rx,1,8,00,00,C0,FF,C8,00,14,00,
14454953,0000022B,false,Rx,1,8,00,00,00,00,06,00,1F,C5,
14455200,0000023B,false,Rx,1,8,3C,41,00,00,00,00,00,00,
14455440,0000024B,false,Rx,1,8,44,7D,6E,03,00,00,20,00,
14455681,0000071B,false,Rx,1,8,14,00,00,00,1D,00,00,00,
14464499,0000021B,false,Rx,1,8,02,C0,FF,FE,9C,02,00,04,
14515958,0000042C,false,Rx,1,8,96,60,00,00,20,00,00,00,
14516204,0000043C,false,Rx,1,8,96,60,00,00,20,00,00,00,
14516445,0000044C,false,Rx,1,8,96,60,00,00,20,00,00,00,
14526189,0000045C,false,Rx,1,8,00,00,09,3E,00,00,00,00,
14526317,0000010C,false,Rx,1,2,1A,00,00,00,00,00,00,00,
14526466,0000054B,false,Rx,1,2,1A,FF,00,00,00,00,00,00,
14554652,0000020B,false,Rx,1,8,00,00,C0,FF,C8,00,14,00,
14554900,0000022B,false,Rx,1,8,00,00,00,00,15,00,1F,C5,
14555148,0000023B,false,Rx,1,8,3C,41,00,00,00,00,00,00,
14555380,0000024B,false,Rx,1,8,44,7D,6E,03,00,00,20,00,
14564471,0000021B,false,Rx,1,8,02,C0,FF,FE,9C,02,00,04,
14615964,0000042C,false,Rx,1,8,96,60,00,00,20,00,00,00,
14616203,0000043C,false,Rx,1,8,96,60,00,00,20,00,00,00,
14616443,0000044C,false,Rx,1,8,96,60,00,00,20,00,00,00,
14626191,0000045C,false,Rx,1,8,00,00,09,3E,00,00,00,00,
14654641,0000020B,false,Rx,1,8,00,00,C0,FF,C8,00,14,00,
14654888,0000022B,false,Rx,1,8,00,00,00,00,09,00,1F,C5,
14655135,0000023B,false,Rx,1,8,3C,41,00,00,00,00,00,00,
14655376,0000024B,false,Rx,1,8,44,7D,6E,03,00,00,20,00,
14655616,0000071B,false,Rx,1,8,16,00,00,00,00,00,5A,46,
14664432,0000021B,false,Rx,1,8,02,C0,FF,FE,9C,02,00,04,
14715960,0000042C,false,Rx,1,8,96,60,00,00,20,00,00,00,
14716208,0000043C,false,Rx,1,8,96,60,00,00,20,00,00,00,
14716447,0000044C,false,Rx,1,8,96,60,00,00,20,00,00,00,
14726187,0000045C,false,Rx,1,8,00,00,09,3E,00,00,00,00,
14726321,0000010C,false,Rx,1,2,1B,00,00,00,00,00,00,00,
14726478,0000054B,false,Rx,1,2,1B,FF,00,00,00,00,00,00,
14754645,0000020B,false,Rx,1,8,00,00,C0,FF,C8,00,14,00,
14754893,0000022B,false,Rx,1,8,00,00,00,00,15,00,1F,C5,
14755140,0000023B,false,Rx,1,8,3C,41,00,00,00,00,00,00,
14755374,0000024B,false,Rx,1,8,44,7D,6E,03,00,00,20,00,
14755621,0000071B,false,Rx,1,8,17,00,00,40,04,00,60,00,
14764439,0000021B,false,Rx,1,8,02,C0,FF,FE,9C,02,00,04,
14815959,0000042C,false,Rx,1,8,96,60,00,00,20,00,00,00,
14816206,0000043C,false,Rx,1,8,96,60,00,00,20,00,00,00,
14816445,0000044C,false,Rx,1,8,96,60,00,00,20,00,00,00,
14826192,0000045C,false,Rx,1,8,00,00,09,3E,00,00,00,00,
14854597,0000020B,false,Rx,1,8,00,00,C0,FF,C8,00,14,00,
14854837,0000022B,false,Rx,1,8,00,00,00,00,0A,00,1F,C5,
14855086,0000023B,false,Rx,1,8,3C,41,00,00,00,00,00,00,
14855325,0000024B,false,Rx,1,8,44,7D,6E,03,00,00,20,00,
14855573,0000071B,false,Rx,1,8,18,00,00,00,00,00,00,00,
14864389,0000021B,false,Rx,1,8,02,C0,FF,FE,9C,02,00,04,
14915963,0000042C,false,Rx,1,8,96,60,00,00,20,00,00,00,
14916202,0000043C,false,Rx,1,8,96,60,00,00,20,00,00,00,
14916451,0000044C,false,Rx,1,8,96,60,00,00,20,00,00,00,
14926195,0000045C,false,Rx,1,8,00,00,09,3E,00,00,00,00,
14926329,0000010C,false,Rx,1,2,1C,00,00,00,00,00,00,00,
14926486,0000054B,false,Rx,1,2,1C,FF,00,00,00,00,00,00,
14954598,0000020B,false,Rx,1,8,00,00,C0,FF,C8,00,14,00,
14954838,0000022B,false,Rx,1,8,00,00,00,00,0A,00,1F,C5,
14955087,0000023B,false,Rx,1,8,3C,41,00,00,00,00,00,00,
14955326,0000024B,false,Rx,1,8,44,7D,6E,03,00,00,20,00,
14955574,0000071B,false,Rx,1,8,19,00,00,00,00,00,00,00,
14964391,0000021B,false,Rx,1,8,02,C0,FF,FE,9C,02,00,04,
15015966,0000042C,false,Rx,1,8,96,60,00,00,20,00,00,00,
15016212,0000043C,false,Rx,1,8,96,60,00,00,20,00,00,00,
15016453,0000044C,false,Rx,1,8,96,60,00,00,20,00,00,00,
15026192,0000045C,false,Rx,1,8,00,00,09,3E,00,00,00,00,
15054574,0000020B,false,Rx,1,8,00,00,C0,FF,C8,00,14,00,
15054822,0000022B,false,Rx,1,8,00,00,00,00,0B,00,1F,C5,
15055070,0000023B,false,Rx,1,8,3C,41,00,00,00,00,00,00,
15055310,0000024B,false,Rx,1,8,44,7D,6E,03,00,00,20,00,
15055559,0000071B,false,Rx,1,8,01,00,00,00,00,00,00,00,
15064374,0000021B,false,Rx,1,8,02,C0,FF,FE,9C,02,00,04,
15115966,0000042C,false,Rx,1,8,96,60,00,00,20,00,00,00,
15116206,0000043C,false,Rx,1,8,96,60,00,00,20,00,00,00,
15116453,0000044C,false,Rx,1,8,96,60,00,00,20,00,00,00,
15126193,0000045C,false,Rx,1,8,00,00,09,3E,00,00,00,00,
15126327,0000010C,false,Rx,1,2,1D,00,00,00,00,00,00,00,
15126483,0000054B,false,Rx,1,2,1D,FF,00,00,00,00,00,00,
15154545,0000020B,false,Rx,1,8,00,00,00,00,C8,00,14,00,
15154791,0000022B,false,Rx,1,8,00,00,00,00,07,00,1F,C5,
15155040,0000023B,false,Rx,1,8,3C,41,00,00,00,00,00,00,
15155272,0000024B,false,Rx,1,8,44,7D,6E,03,00,00,20,00,
15155520,0000071B,false,Rx,1,8,02,00,00,00,00,00,00,00,
15164335,0000021B,false,Rx,1,8,02,C0,FF,FE,9C,02,00,04,
15215972,0000042C,false,Rx,1,8,96,60,00,00,20,00,00,00,
15216211,0000043C,false,Rx,1,8,96,60,00,00,20,00,00,00,
15216451,0000044C,false,Rx,1,8,96,60,00,00,20,00,00,00,
15226191,0000045C,false,Rx,1,8,00,00,09,3E,00,00,00,00,
15254432,0000036B,false,Rx,1,8,00,00,00,00,00,00,00,00,
15254678,0000020B,false,Rx,1,8,00,00,C0,FF,C8,00,14,00,
15254919,0000022B,false,Rx,1,8,00,00,00,00,05,00,1F,C5,
15255168,0000023B,false,Rx,1,8,3C,41,00,00,00,00,00,00,
15255408,0000024B,false,Rx,1,8,44,7D,6E,03,00,00,20,00,
15264322,0000021B,false,Rx,1,8,02,C0,FF,FE,9C,02,00,04,
15264577,0000037B,false,Rx,1,8,00,00,00,00,00,00,00,00,
15274426,0000034B,false,Rx,1,8,00,00,00,00,00,08,00,00,
15284422,0000035B,false,Rx,1,8,00,00,00,00,00,00,18,00,
15294419,0000032B,false,Rx,1,8,00,00,00,00,00,00,00,00,
15304415,0000033B,false,Rx,1,8,00,00,00,00,00,00,00,00,
15315969,0000042C,false,Rx,1,8,96,60,00,00,20,00,00,00,
15316208,0000043C,false,Rx,1,8,96,60,00,00,20,00,00,00,
15316455,0000044C,false,Rx,1,8,96,60,00,00,20,00,00,00,
15326194,0000045C,false,Rx,1,8,00,00,09,3E,00,00,00,00,
15326328,0000010C,false,Rx,1,2,1E,00,00,00,00,00,00,00,
15326477,0000054B,false,Rx,1,2,1E,FF,00,00,00,00,00,00,
15354497,0000020B,false,Rx,1,8,00,00,00,00,C8,00,14,00,
15354735,0000022B,false,Rx,1,8,00,00,00,00,06,00,1F,C5,
15354986,0000023B,false,Rx,1,8,3C,41,00,00,00,00,00,00,
15355225,0000024B,false,Rx,1,8,44,7D,6E,03,00,00,20,00,
15355473,0000071B,false,Rx,1,8,04,00,00,00,00,00,00,00,
15364297,0000021B,false,Rx,1,8,02,C0,FF,FE,9C,02,00,04,
15415968,0000042C,false,Rx,1,8,96,60,00,00,20,00,00,00,
15416207,0000043C,false,Rx,1,8,96,60,00,00,20,00,00,00,
15416456,0000044C,false,Rx,1,8,96,60,00,00,20,00,00,00,
15426203,0000045C,false,Rx,1,8,00,00,09,3E,00,00,00,00,
15454487,0000020B,false,Rx,1,8,00,00,C0,FF,C8,00,14,00,
15454733,0000022B,false,Rx,1,8,00,00,00,00,07,00,1F,C5,
15454975,0000023B,false,Rx,1,8,3C,41,00,00,00,00,00,00,
15455215,0000024B,false,Rx,1,8,44,7D,6E,03,00,00,20,00,
15455462,0000071B,false,Rx,1,8,05,00,00,00,00,00,00,00,
15464288,0000021B,false,Rx,1,8,02,C0,FF,FE,9C,02,00,04,
15515969,0000042C,false,Rx,1,8,96,60,00,00,20,00,00,00,
15516215,0000043C,false,Rx,1,8,96,60,00,00,20,00,00,00,
15516456,0000044C,false,Rx,1,8,96,60,00,00,20,00,00,00,
15526194,0000045C,false,Rx,1,8,00,00,09,3E,00,00,00,00,
15526329,0000010C,false,Rx,1,2,1F,00,00,00,00,00,00,00,
15526493,0000054B,false,Rx,1,2,1F,FF,00,00,00,00,00,00,
15554482,0000020B,false,Rx,1,8,00,00,00,00,C8,00,14,00,
15554721,0000022B,false,Rx,1,8,00,00,00,00,15,00,1F,C5,
15554970,0000023B,false,Rx,1,8,3C,41,00,00,00,00,00,00,
15555210,0000024B,false,Rx,1,8,44,7D,6E,03,00,00,20,00,
15555443,0000071B,false,Rx,1,8,06,00,2E,46,66,06,00,40,
15564260,0000021B,false,Rx,1,8,02,C0,FF,FE,9C,02,00,04,
15615975,0000042C,false,Rx,1,8,96,60,00,00,20,00,00,00,
15616215,0000043C,false,Rx,1,8,96,60,00,00,20,00,00,00,
15616455,0000044C,false,Rx,1,8,96,60,00,00,20,00,00,00,
15626200,0000045C,false,Rx,1,8,00,00,09,3E,00,00,00,00,
15654428,0000020B,false,Rx,1,8,00,00,C0,FF,C8,00,14,00,
15654676,0000022B,false,Rx,1,8,00,00,00,00,0A,00,1F,C5,
15654924,0000023B,false,Rx,1,8,3C,41,00,00,00,00,00,00,
15655157,0000024B,false,Rx,1,8,44,7D,6E,03,00,00,20,00,
15655405,0000071B,false,Rx,1,8,07,00,00,00,02,0A,00,00,
15664220,0000021B,false,Rx,1,8,02,C0,FF,FE,9C,02,00,04,
15715974,0000042C,false,Rx,1,8,96,60,00,00,20,00,00,00,
15716212,0000043C,false,Rx,1,8,96,60,00,00,20,00,00,00,
15716460,0000044C,false,Rx,1,8,96,60,00,00,20,00,00,00,
15726200,0000045C,false,Rx,1,8,00,00,09,3E,00,00,00,00,
15726334,0000010C,false,Rx,1,2,20,00,00,00,00,00,00,00,
15726490,0000054B,false,Rx,1,2,20,FF,00,00,00,00,00,00,
15754429,0000020B,false,Rx,1,8,00,00,C0,FF,C8,00,14,00,
15754668,0000022B,false,Rx,1,8,00,00,00,00,09,00,1F,C5,
15754917,0000023B,false,Rx,1,8,3C,41,00,00,00,00,00,00,
15755158,0000024B,false,Rx,1,8,44,7D,6E,03,00,00,20,00,
15755398,0000071B,false,Rx,1,8,08,00,00,00,DE,45,00,00,
15764222,0000021B,false,Rx,1,8,02,C0,FF,FE,9C,02,00,04,
15815971,0000042C,false,Rx,1,8,96,60,00,00,20,00,00,00,
15816217,0000043C,false,Rx,1,8,96,60,00,00,20,00,00,00,
15816457,0000044C,false,Rx,1,8,96,60,00,00,20,00,00,00,
15826197,0000045C,false,Rx,1,8,00,00,09,3E,00,00,00,00,
15854384,0000020B,false,Rx,1,8,00,00,C0,FF,C8,00,14,00,
15854630,0000022B,false,Rx,1,8,00,00,00,00,07,00,1F,C5,
15854880,0000023B,false,Rx,1,8,3C,41,00,00,00,00,00,00,
15855114,0000024B,false,Rx,1,8,44,7D,6E,03,00,00,20,00,
15855353,0000071B,false,Rx,1,8,09,00,2A,46,00,00,00,00,
15864201,0000021B,false,Rx,1,8,02,C0,FF,FE,9C,02,00,04,
15915971,0000042C,false,Rx,1,8,96,60,00,00,20,00,00,00,
15916217,0000043C,false,Rx,1,8,96,60,00,00,20,00,00,00,
15916458,0000044C,false,Rx,1,8,96,60,00,00,20,00,00,00,
15926203,0000045C,false,Rx,1,8,00,00,09,3E,00,00,00,00,
15926330,0000010C,false,Rx,1,2,21,00,00,00,00,00,00,00,
15926480,0000054B,false,Rx,1,2,21,FF,00,00,00,00,00,00,
15954361,0000020B,false,Rx,1,8,00,00,C0,FF,C8,00,14,00,
15954607,0000022B,false,Rx,1,8,00,00,00,00,0B,00,1F,C5,
15954857,0000023B,false,Rx,1,8,3C,41,00,00,00,00,00,00,
15955097,0000024B,false,Rx,1,8,44,7D,6E,03,00,00,20,00,
15955337,0000071B,false,Rx,1,8,0A,00,00,00,00,00,00,00,
15964162,0000021B,false,Rx,1,8,02,C0,FF,FE,9C,02,00,04,
16014976,0000042C,false,Rx,1,8,96,60,00,00,20,00,00,00,
16015215,0000043C,false,Rx,1,8,96,60,00,00,20,00,00,00,
16015463,0000044C,false,Rx,1,8,96,60,00,00,20,00,00,00,
16026190,0000045C,false,Rx,1,8,00,00,09,3E,00,00,00,00,
16054366,0000020B,false,Rx,1,8,00,00,00,00,C8,00,14,00,
16054612,0000022B,false,Rx,1,8,00,00,00,00,17,00,1F,C5,
16054854,0000023B,false,Rx,1,8,3C,41,00,00,00,00,00,00,
16055094,0000024B,false,Rx,1,8,44,7D,6E,03,00,00,20,00,
16055342,0000071B,false,Rx,1,8,0B,00,00,00,00,00,00,00,
16064150,0000021B,false,Rx,1,8,02,00,80,FE,9C,02,00,04,
16114960,0000042C,false,Rx,1,8,96,60,00,00,21,00,00,00,
16115207,0000043C,false,Rx,1,8,96,60,00,00,21,00,00,00,
16115448,0000044C,false,Rx,1,8,96,60,00,00,21,00,00,00,
16126192,0000045C,false,Rx,1,8,00,00,09,3E,00,00,00,00,
16126319,0000010C,false,Rx,1,2,22,00,00,00,00,00,00,00,
16126475,0000054B,false,Rx,1,2,22,FF,00,00,00,00,00,00,
16154323,0000020B,false,Rx,1,8,00,00,C0,FF,C8,00,14,00,
16154563,0000022B,false,Rx,1,8,00,00,00,00,08,00,1F,C5,
16154817,0000023B,false,Rx,1,8,3C,41,00,00,00,00,00,00,
16155052,0000024B,false,Rx,1,8,44,7D,6E,03,00,00,20,00,
16155293,0000071B,false,Rx,1,8,0C,01,00,04,04,00,01,00,
16164107,0000021B,false,Rx,1,8,02,00,80,FE,9C,02,00,04,
16214964,0000042C,false,Rx,1,8,96,60,00,00,21,00,00,00,
16215204,0000043C,false,Rx,1,8,96,60,00,00,21,00,00,00,
16215451,0000044C,false,Rx,1,8,96,60,00,00,21,00,00,00,
16226195,0000045C,false,Rx,1,8,00,00,09,3E,00,00,00,00,
16254237,0000036B,false,Rx,1,8,00,00,00,00,00,00,00,00,
16254484,0000020B,false,Rx,1,8,00,00,C0,FF,C8,00,14,00,
16254724,0000022B,false,Rx,1,8,00,00,00,00,11,00,1F,C5,
16254972,0000023B,false,Rx,1,8,3C,41,00,00,00,00,00,00,
16255214,0000024B,false,Rx,1,8,44,7D,6E,03,00,00,20,00,
16255453,0000071B,false,Rx,1,8,0E,00,00,02,66,17,00,00,
16264117,0000021B,false,Rx,1,8,02,00,80,FE,9C,02,00,04,
16264364,0000037B,false,Rx,1,8,00,00,00,00,00,00,00,00,
16274217,0000034B,false,Rx,1,8,00,00,00,00,00,08,00,00,
16284214,0000035B,false,Rx,1,8,00,00,00,00,00,00,18,00,
16294210,0000032B,false,Rx,1,8,00,00,00,00,00,00,00,00,
16304209,0000033B,false,Rx,1,8,00,00,00,00,00,00,00,00,
16314963,0000042C,false,Rx,1,8,96,60,00,00,21,00,00,00,
16315210,0000043C,false,Rx,1,8,96,60,00,00,21,00,00,00,
16315450,0000044C,false,Rx,1,8,96,60,00,00,21,00,00,00,
16326187,0000045C,false,Rx,1,8,00,00,09,3E,00,00,00,00,
16326321,0000010C,false,Rx,1,2,23,00,00,00,00,00,00,00,
16326478,0000054B,false,Rx,1,2,23,FF,00,00,00,00,00,00,
16354304,0000020B,false,Rx,1,8,00,00,C0,FF,C8,00,14,00,
16354543,0000022B,false,Rx,1,8,00,00,00,00,12,00,1F,C5,
16354790,0000023B,false,Rx,1,8,3C,41,00,00,00,00,00,00,
16355032,0000024B,false,Rx,1,8,44,7D,6E,03,00,00,20,00,
16355265,0000071B,false,Rx,1,8,0F,00,EB,01,3D,11,00,00,
16364088,0000021B,false,Rx,1,8,02,00,80,FE,9C,02,00,04,
16414968,0000042C,false,Rx,1,8,96,60,00,00,21,00,00,00,
16415207,0000043C,false,Rx,1,8,96,60,00,00,21,00,00,00,
16415447,0000044C,false,Rx,1,8,96,60,00,00,21,00,00,00,
16426192,0000045C,false,Rx,1,8,00,00,09,3E,00,00,00,00,
16454258,0000020B,false,Rx,1,8,00,00,C0,FF,C8,00,14,00,
16454504,0000022B,false,Rx,1,8,00,00,00,00,0D,00,1F,C5,
16454753,0000023B,false,Rx,1,8,3C,41,00,00,00,00,00,00,
16454994,0000024B,false,Rx,1,8,44,7D,6E,03,00,00,20,00,
16455233,0000071B,false,Rx,1,8,10,00,90,FF,06,00,00,00,
16464043,0000021B,false,Rx,1,8,02,00,80,FE,9C,02,00,04,
16513971,0000042C,false,Rx,1,8,96,60,00,00,21,00,00,00,
16514210,0000043C,false,Rx,1,8,96,60,00,00,21,00,00,00,
16514450,0000044C,false,Rx,1,8,96,60,00,00,21,00,00,00,
16514970,0000042C,false,Rx,1,8,96,60,00,00,21,00,00,00,
16515209,0000043C,false,Rx,1,8,96,60,00,00,21,00,00,00,
16515450,0000044C,false,Rx,1,8,96,60,00,00,21,00,00,00,
16526201,0000045C,false,Rx,1,8,00,00,09,3E,00,00,00,00,
16526335,0000010C,false,Rx,1,2,24,00,00,00,00,00,00,00,
16526499,0000054B,false,Rx,1,2,24,FF,00,00,00,00,00,00,
16554250,0000020B,false,Rx,1,8,00,00,C0,FF,C8,00,14,00,
16554496,0000022B,false,Rx,1,8,00,00,00,00,08,00,1F,C5,
16554745,0000023B,false,Rx,1,8,3C,41,00,00,00,00,00,00,
16554986,0000024B,false,Rx,1,8,44,7D,6E,03,00,00,20,00,
16555233,0000071B,false,Rx,1,8,11,00,00,00,00,00,02,02,
16564051,0000021B,false,Rx,1,8,02,00,80,FE,9C,02,00,04,
16614975,0000042C,false,Rx,1,8,96,60,00,00,21,00,00,00,
16615214,0000043C,false,Rx,1,8,96,60,00,00,21,00,00,00,
16615455,0000044C,false,Rx,1,8,96,60,00,00,21,00,00,00,
16626200,0000045C,false,Rx,1,8,00,00,09,3E,00,00,00,00,
16654212,0000020B,false,Rx,1,8,00,00,C0,FF,C8,00,14,00,
16654460,0000022B,false,Rx,1,8,00,00,00,00,12,00,1F,C5,
16654707,0000023B,false,Rx,1,8,3C,41,00,00,00,00,00,00,
16654940,0000024B,false,Rx,1,8,44,7D,6E,03,00,00,20,00,
16655180,0000071B,false,Rx,1,8,12,3F,27,00,27,00,15,00,
16664026,0000021B,false,Rx,1,8,02,00,80,FE,9C,02,00,04,
16714973,0000042C,false,Rx,1,8,96,60,00,00,21,00,00,00,
16715220,0000043C,false,Rx,1,8,96,60,00,00,21,00,00,00,
16715460,0000044C,false,Rx,1,8,96,60,00,00,21,00,00,00,
16726206,0000045C,false,Rx,1,8,00,00,09,3E,00,00,00,00,
16726332,0000010C,false,Rx,1,2,25,00,00,00,00,00,00,00,
16726481,0000054B,false,Rx,1,2,25,FF,00,00,00,00,00,00,
16754216,0000020B,false,Rx,1,8,00,00,C0,FF,C8,00,14,00,
16754456,0000022B,false,Rx,1,8,00,00,00,00,05,00,1F,C5,
16754711,0000023B,false,Rx,1,8,3C,41,00,00,00,00,00,00,
16754945,0000024B,false,Rx,1,8,44,7D,6E,03,00,00,20,00,
16755193,0000071B,false,Rx,1,8,13,00,00,00,00,00,00,00,
16764004,0000021B,false,Rx,1,8,02,00,80,FE,9C,02,00,04,
16814977,0000042C,false,Rx,1,8,96,60,00,00,21,00,00,00,
16815223,0000043C,false,Rx,1,8,96,60,00,00,21,00,00,00,
16815463,0000044C,false,Rx,1,8,96,60,00,00,21,00,00,00,
16826206,0000045C,false,Rx,1,8,00,00,09,3E,00,00,00,00,
16854195,0000020B,false,Rx,1,8,00,00,00,00,C8,00,14,00,
16854434,0000022B,false,Rx,1,8,00,00,00,00,10,00,1F,C5,
16854681,0000023B,false,Rx,1,8,3C,41,00,00,00,00,00,00,
16854923,0000024B,false,Rx,1,8,44,7D,6E,03,00,00,20,00,
16855163,0000071B,false,Rx,1,8,14,00,00,00,F0,FF,00,00,
16863980,0000021B,false,Rx,1,8,02,00,80,FE,9C,02,00,04,
16914975,0000042C,false,Rx,1,8,96,60,00,00,21,00,00,00,
16915222,0000043C,false,Rx,1,8,96,60,00,00,21,00,00,00,
16915461,0000044C,false,Rx,1,8,96,60,00,00,21,00,00,00,
16926204,0000045C,false,Rx,1,8,00,00,09,3E,00,00,00,00,
16926340,0000010C,false,Rx,1,2,26,00,00,00,00,00,00,00,
16926489,0000054B,false,Rx,1,2,26,FF,00,00,00,00,00,00,
16954148,0000020B,false,Rx,1,8,00,00,C0,FF,C8,00,14,00,
16954394,0000022B,false,Rx,1,8,00,00,00,00,1C,00,1F,C5,
16954641,0000023B,false,Rx,1,8,3C,41,00,00,00,00,00,00,
16954876,0000024B,false,Rx,1,8,44,7D,6E,03,00,00,20,00,
16963939,0000021B,false,Rx,1,8,02,00,80,FE,9C,02,00,04,
17014976,0000042C,false,Rx,1,8,96,60,00,00,21,00,00,00,
17015222,0000043C,false,Rx,1,8,96,60,00,00,21,00,00,00,
17015463,0000044C,false,Rx,1,8,96,60,00,00,21,00,00,00,
17026206,0000045C,false,Rx,1,8,00,00,09,3E,00,00,00,00,
17054172,0000020B,false,Rx,1,8,00,00,C0,FF,C8,00,14,00,
17054418,0000022B,false,Rx,1,8,00,00,00,00,0B,00,1F,C5,
17054667,0000023B,false,Rx,1,8,3C,41,00,00,00,00,00,00,
17054901,0000024B,false,Rx,1,8,44,7D,6E,03,00,00,20,00,
17055148,0000071B,false,Rx,1,8,16,00,00,00,00,00,2A,46,
17063943,0000021B,false,Rx,1,8,02,00,80,FE,9C,02,00,04,
17114981,0000042C,false,Rx,1,8,96,60,00,00,21,00,00,00,
17115220,0000043C,false,Rx,1,8,96,60,00,00,21,00,00,00,
17115461,0000044C,false,Rx,1,8,96,60,00,00,21,00,00,00,
17126210,0000045C,false,Rx,1,8,00,00,09,3E,00,00,00,00,
17126337,0000010C,false,Rx,1,2,27,00,00,00,00,00,00,00,
17126486,0000054B,false,Rx,1,2,27,FF,00,00,00,00,00,00,
17154117,0000020B,false,Rx,1,8,00,00,C0,FF,C8,00,14,00,
17154363,0000022B,false,Rx,1,8,00,00,00,00,03,00,1F,C5,
17154611,0000023B,false,Rx,1,8,3C,41,00,00,00,00,00,00,
17154845,0000024B,false,Rx,1,8,44,7D,6E,03,00,00,20,00,
17155085,0000071B,false,Rx,1,8,17,00,00,50,04,00,60,00,
17163916,0000021B,false,Rx,1,8,02,00,80,FE,9C,02,00,04,
17214978,0000042C,false,Rx,1,8,96,60,00,00,21,00,00,00,
17215225,0000043C,false,Rx,1,8,96,60,00,00,21,00,00,00,
17215465,0000044C,false,Rx,1,8,96,60,00,00,21,00,00,00,
17226208,0000045C,false,Rx,1,8,00,00,09,3E,00,00,00,00,
17254008,0000036B,false,Rx,1,8,00,00,00,00,00,00,00,00,
17254263,0000020B,false,Rx,1,8,00,00,00,00,C8,00,14,00,
17254503,0000022B,false,Rx,1,8,00,00,00,00,05,00,1F,C5,
17254750,0000023B,false,Rx,1,8,3C,41,00,00,00,00,00,00,
17254992,0000024B,false,Rx,1,8,44,7D,6E,03,00,00,20,00,
17255241,0000071B,false,Rx,1,8,18,00,00,00,00,00,00,00,
17263888,0000021B,false,Rx,1,8,02,00,80,FE,9C,02,00,04,
17264142,0000037B,false,Rx,1,8,00,00,00,00,00,00,00,00,
17274011,0000034B,false,Rx,1,8,00,00,00,00,00,08,00,00,
17284001,0000035B,false,Rx,1,8,00,00,00,00,00,00,18,00,
17294005,0000032B,false,Rx,1,8,00,00,00,00,00,00,00,00,
17303986,0000033B,false,Rx,1,8,00,00,00,00,00,00,00,00,
17314981,0000042C,false,Rx,1,8,96,60,00,00,21,00,00,00,
17315220,0000043C,false,Rx,1,8,96,60,00,00,21,00,00,00,
17315467,0000044C,false,Rx,1,8,96,60,00,00,21,00,00,00,
17326205,0000045C,false,Rx,1,8,00,00,09,3E,00,00,00,00,
17326339,0000010C,false,Rx,1,2,28,00,00,00,00,00,00,00,
17326496,0000054B,false,Rx,1,2,28,FF,00,00,00,00,00,00,
17354082,0000020B,false,Rx,1,8,00,00,C0,FF,C8,00,14,00,
17354321,0000022B,false,Rx,1,8,00,00,00,00,0A,00,1F,C5,
17354568,0000023B,false,Rx,1,8,3C,41,00,00,00,00,00,00,
17354808,0000024B,false,Rx,1,8,44,7D,6E,03,00,00,20,00,
17355058,0000071B,false,Rx,1,8,19,00,00,00,00,00,00,00,
17363881,0000021B,false,Rx,1,8,02,00,80,FE,9C,02,00,04,
17414979,0000042C,false,Rx,1,8,96,60,00,00,21,00,00,00,
17415225,0000043C,false,Rx,1,8,96,60,00,00,21,00,00,00,
17415465,0000044C,false,Rx,1,8,96,60,00,00,21,00,00,00,
17426215,0000045C,false,Rx,1,8,00,00,09,3E,00,00,00,00,
17454047,0000020B,false,Rx,1,8,00,00,C0,FF,C8,00,14,00,
17454293,0000022B,false,Rx,1,8,00,00,00,00,0A,00,1F,C5,
17454540,0000023B,false,Rx,1,8,3C,41,00,00,00,00,00,00,
17454774,0000024B,false,Rx,1,8,44,7D,6E,03,00,00,20,00,
17455030,0000071B,false,Rx,1,8,01,00,00,00,00,00,00,00,
17463837,0000021B,false,Rx,1,8,02,00,80,FE,9C,02,00,04,
17514984,0000042C,false,Rx,1,8,96,60,00,00,20,00,00,00,
17515230,0000043C,false,Rx,1,8,96,60,00,00,20,00,00,00,
17515471,0000044C,false,Rx,1,8,96,60,00,00,20,00,00,00,
17526215,0000045C,false,Rx,1,8,00,00,09,3E,00,00,00,00,
17526349,0000010C,false,Rx,1,2,29,00,00,00,00,00,00,00,
17526506,0000054B,false,Rx,1,2,29,FF,00,00,00,00,00,00,
17554044,0000020B,false,Rx,1,8,00,00,C0,FF,C8,00,14,00,
17554290,0000022B,false,Rx,1,8,00,00,00,00,0F,00,1F,C5,
17554539,0000023B,false,Rx,1,8,3C,41,00,00,00,00,00,00,
17554771,0000024B,false,Rx,1,8,44,7D,6E,03,00,00,20,00,
17555020,0000071B,false,Rx,1,8,02,00,00,00,00,00,00,00,
17563827,0000021B,false,Rx,1,8,02,00,80,FE,9C,02,00,04,
17614989,0000042C,false,Rx,1,8,96,60,00,00,20,00,00,00,
17615229,0000043C,false,Rx,1,8,96,60,00,00,20,00,00,00,
17615476,0000044C,false,Rx,1,8,96,60,00,00,20,00,00,00,
17626213,0000045C,false,Rx,1,8,00,00,09,3E,00,00,00,00,
17654001,0000020B,false,Rx,1,8,00,00,C0,FF,C8,00,14,00,
17654240,0000022B,false,Rx,1,8,00,00,00,00,08,00,1F,C5,
17654489,0000023B,false,Rx,1,8,3C,41,00,00,00,00,00,00,
17654729,0000024B,false,Rx,1,8,44,7D,6E,03,00,00,20,00,
17663805,0000021B,false,Rx,1,8,02,00,80,FE,9C,02,00,04,
17714993,0000042C,false,Rx,1,8,96,60,00,00,20,00,00,00,
17715233,0000043C,false,Rx,1,8,96,60,00,00,20,00,00,00,
17715473,0000044C,false,Rx,1,8,96,60,00,00,20,00,00,00,
17726218,0000045C,false,Rx,1,8,00,00,09,3E,00,00,00,00,
17726344,0000010C,false,Rx,1,2,2A,00,00,00,00,00,00,00,
17726501,0000054B,false,Rx,1,2,2A,FF,00,00,00,00,00,00,
17753974,0000020B,false,Rx,1,8,00,00,C0,FF,C8,00,14,00,
17754221,0000022B,false,Rx,1,8,00,00,00,00,17,00,1F,C5,
17754468,0000023B,false,Rx,1,8,3C,41,00,00,00,00,00,00,
17754708,0000024B,false,Rx,1,8,44,7D,6E,03,00,00,20,00,
17754956,0000071B,false,Rx,1,8,04,00,00,00,00,00,00,00,
17763774,0000021B,false,Rx,1,8,02,00,80,FE,9C,02,00,04,
17814986,0000042C,false,Rx,1,8,96,60,00,00,20,00,00,00,
17815233,0000043C,false,Rx,1,8,96,60,00,00,20,00,00,00,
17815472,0000044C,false,Rx,1,8,96,60,00,00,20,00,00,00,
17826217,0000045C,false,Rx,1,8,00,00,09,3E,00,00,00,00,
17853980,0000020B,false,Rx,1,8,00,00,C0,FF,C8,00,14,00,
17854234,0000022B,false,Rx,1,8,00,00,00,00,0D,00,1F,C5,
17854476,0000023B,false,Rx,1,8,3C,41,00,00,00,00,00,00,
17854716,0000024B,false,Rx,1,8,44,7D,6E,03,00,00,20,00,
17854958,0000071B,false,Rx,1,8,05,00,00,00,00,00,00,00,
17863766,0000021B,false,Rx,1,8,02,00,80,FE,9C,02,00,04,
17914989,0000042C,false,Rx,1,8,96,60,00,00,20,00,00,00,
17915235,0000043C,false,Rx,1,8,96,60,00,00,20,00,00,00,
17915475,0000044C,false,Rx,1,8,96,60,00,00,20,00,00,00,
17926217,0000045C,false,Rx,1,8,00,00,09,3E,00,00,00,00,
17926345,0000010C,false,Rx,1,2,2B,00,00,00,00,00,00,00,
17926516,0000054B,false,Rx,1,2,2B,FF,00,00,00,00,00,00,
17953934,0000020B,false,Rx,1,8,00,00,C0,FF,C8,00,14,00,
17954181,0000022B,false,Rx,1,8,00,00,00,00,13,00,1F,C5,
17954428,0000023B,false,Rx,1,8,3C,41,00,00,00,00,00,00,
17954669,0000024B,false,Rx,1,8,44,7D,6E,03,00,00,20,00,
17954902,0000071B,false,Rx,1,8,06,00,2E,46,66,06,00,40,
17963724,0000021B,false,Rx,1,8,02,00,80,FE,9C,02,00,04,
18014988,0000042C,false,Rx,1,8,96,60,00,00,20,00,00,00,
18015235,0000043C,false,Rx,1,8,96,60,00,00,20,00,00,00,
18015476,0000044C,false,Rx,1,8,96,60,00,00,20,00,00,00,
18026218,0000045C,false,Rx,1,8,00,00,09,3E,00,00,00,00,
18053929,0000020B,false,Rx,1,8,00,00,C0,FF,C8,00,14,00,
18054175,0000022B,false,Rx,1,8,00,00,00,00,0B,00,1F,C5,
18054422,0000023B,false,Rx,1,8,3C,41,00,00,00,00,00,00,
18054663,0000024B,false,Rx,1,8,44,7D,6E,03,00,00,20,00,
18054904,0000071B,false,Rx,1,8,07,00,00,00,02,0A,00,00,
18063721,0000021B,false,Rx,1,8,02,00,80,FE,9C,02,00,04,
18114993,0000042C,false,Rx,1,8,96,60,00,00,20,00,00,00,
18115233,0000043C,false,Rx,1,8,96,60,00,00,20,00,00,00,
18115480,0000044C,false,Rx,1,8,96,60,00,00,20,00,00,00,
18126218,0000045C,false,Rx,1,8,00,00,09,3E,00,00,00,00,
18126352,0000010C,false,Rx,1,2,2C,00,00,00,00,00,00,00,
18126500,0000054B,false,Rx,1,2,2C,FF,00,00,00,00,00,00,
18153906,0000020B,false,Rx,1,8,00,00,C0,FF,C8,00,14,00,
18154152,0000022B,false,Rx,1,8,00,00,00,00,04,00,1F,C5,
18154401,0000023B,false,Rx,1,8,3C,41,00,00,00,00,00,00,
18154641,0000024B,false,Rx,1,8,44,7D,6E,03,00,00,20,00,
18154882,0000071B,false,Rx,1,8,08,00,00,00,22,46,00,00,
18163706,0000021B,false,Rx,1,8,02,00,80,FE,9C,02,00,04,
18214994,0000042C,false,Rx,1,8,96,60,00,00,20,00,00,00,
18215234,0000043C,false,Rx,1,8,96,60,00,00,20,00,00,00,
18215481,0000044C,false,Rx,1,8,96,60,00,00,20,00,00,00,
18226220,0000045C,false,Rx,1,8,00,00,09,3E,00,00,00,00,
18253786,0000036B,false,Rx,1,8,00,00,00,00,00,00,00,00,
18254034,0000020B,false,Rx,1,8,00,00,C0,FF,C8,00,14,00,
18254283,0000022B,false,Rx,1,8,00,00,00,00,0B,00,1F,C5,
18254530,0000023B,false,Rx,1,8,3C,41,00,00,00,00,00,00,
18254770,0000024B,false,Rx,1,8,44,7D,6E,03,00,00,20,00,
18255005,0000071B,false,Rx,1,8,09,00,E2,45,00,00,00,00,
18263666,0000021B,false,Rx,1,8,02,00,80,FE,9C,02,00,04,
18263913,0000037B,false,Rx,1,8,00,00,00,00,00,00,00,00,
18273781,0000034B,false,Rx,1,8,00,00,00,00,00,08,00,00,
18283786,0000035B,false,Rx,1,8,00,00,00,00,00,00,18,00,
18293797,0000032B,false,Rx,1,8,00,00,00,00,00,00,00,00,
18303794,0000033B,false,Rx,1,8,00,00,00,00,00,00,00,00,
18314995,0000042C,false,Rx,1,8,96,60,00,00,20,00,00,00,
18315241,0000043C,false,Rx,1,8,96,60,00,00,20,00,00,00,
18315481,0000044C,false,Rx,1,8,96,60,00,00,20,00,00,00,
18326225,0000045C,false,Rx,1,8,00,00,09,3E,00,00,00,00,
18326351,0000010C,false,Rx,1,2,2D,00,00,00,00,00,00,00,
18326509,0000054B,false,Rx,1,2,2D,FF,00,00,00,00,00,00,
18353872,0000020B,false,Rx,1,8,00,00,C0,FF,C8,00,14,00,
18354112,0000022B,false,Rx,1,8,00,00,00,00,03,00,1F,C5,
18354360,0000023B,false,Rx,1,8,3C,41,00,00,00,00,00,00,
18354599,0000024B,false,Rx,1,8,44,7D,6E,03,00,00,20,00,
18354850,0000071B,false,Rx,1,8,0A,00,00,00,00,00,00,00,
18363658,0000021B,false,Rx,1,8,02,00,80,FE,9C,02,00,04,
18414993,0000042C,false,Rx,1,8,96,60,00,00,20,00,00,00,
18415240,0000043C,false,Rx,1,8,96,60,00,00,20,00,00,00,
18415481,0000044C,false,Rx,1,8,96,60,00,00,20,00,00,00,
18426225,0000045C,false,Rx,1,8,00,00,09,3E,00,00,00,00,
18453832,0000020B,false,Rx,1,8,00,00,00,00,C8,00,14,00,
18454072,0000022B,false,Rx,1,8,00,00,00,00,13,00,1F,C5,
18454319,0000023B,false,Rx,1,8,3C,41,00,00,00,00,00,00,
18454559,0000024B,false,Rx,1,8,44,7D,6E,03,00,00,20,00,
18454800,0000071B,false,Rx,1,8,0B,00,00,00,00,00,00,00,
18463631,0000021B,false,Rx,1,8,02,00,80,FE,9C,02,00,04,
18514001,0000042C,false,Rx,1,8,96,60,00,00,20,00,00,00,
18514240,0000043C,false,Rx,1,8,96,60,00,00,20,00,00,00,
18514480,0000044C,false,Rx,1,8,96,60,00,00,20,00,00,00,
18516004,0000042C,false,Rx,1,8,96,60,00,00,20,00,00,00,
18516241,0000043C,false,Rx,1,8,96,60,00,00,20,00,00,00,
18516488,0000044C,false,Rx,1,8,96,60,00,00,20,00,00,00,
18526229,0000045C,false,Rx,1,8,00,00,09,3E,00,00,00,00,
18526355,0000010C,false,Rx,1,2,2E,00,00,00,00,00,00,00,
18526519,0000054B,false,Rx,1,2,2E,FF,00,00,00,00,00,00,
18553822,0000020B,false,Rx,1,8,00,00,C0,FF,C8,00,14,00,
18554062,0000022B,false,Rx,1,8,00,00,00,00,0C,00,1F,C5,
18554317,0000023B,false,Rx,1,8,3C,41,00,00,00,00,00,00,
18554550,0000024B,false,Rx,1,8,44,7D,6E,03,00,00,20,00,
18554790,0000071B,false,Rx,1,8,0C,01,00,04,04,00,01,00,
18563620,0000021B,false,Rx,1,8,02,00,80,FE,9C,02,00,04,
18616004,0000042C,false,Rx,1,8,96,60,00,00,20,00,00,00,
18616243,0000043C,false,Rx,1,8,96,60,00,00,20,00,00,00,
18616483,0000044C,false,Rx,1,8,96,60,00,00,20,00,00,00,
18626228,0000045C,false,Rx,1,8,00,00,09,3E,00,00,00,00,
18653812,0000020B,false,Rx,1,8,00,00,00,00,C8,00,14,00,
18654052,0000022B,false,Rx,1,8,00,00,00,00,03,00,1F,C5,
18654299,0000023B,false,Rx,1,8,3C,41,00,00,00,00,00,00,
18654540,0000024B,false,Rx,1,8,44,7D,6E,03,00,00,20,00,
18654780,0000071B,false,Rx,1,8,0E,00,00,02,C6,20,00,00,
18663597,0000021B,false,Rx,1,8,02,00,80,FE,9C,02,00,04,
18716001,0000042C,false,Rx,1,8,96,60,00,00,20,00,00,00,
18716248,0000043C,false,Rx,1,8,96,60,00,00,20,00,00,00,
18716488,0000044C,false,Rx,1,8,96,60,00,00,20,00,00,00,
18726228,0000045C,false,Rx,1,8,00,00,09,3E,00,00,00,00,
18726362,0000010C,false,Rx,1,2,2F,00,00,00,00,00,00,00,
18726519,0000054B,false,Rx,1,2,2F,FF,00,00,00,00,00,00,
18753761,0000020B,false,Rx,1,8,00,00,C0,FF,C8,00,14,00,
18754008,0000022B,false,Rx,1,8,00,00,00,00,0F,00,1F,C5,
18754257,0000023B,false,Rx,1,8,3C,41,00,00,00,00,00,00,
18754497,0000024B,false,Rx,1,8,44,7D,6E,03,00,00,20,00,
18754729,0000071B,false,Rx,1,8,0F,00,EB,01,63,0E,00,00,
18763554,0000021B,false,Rx,1,8,02,00,80,FE,9C,02,00,04,
18816004,0000042C,false,Rx,1,8,96,60,00,00,20,00,00,00,
18816243,0000043C,false,Rx,1,8,96,60,00,00,20,00,00,00,
18816484,0000044C,false,Rx,1,8,96,60,00,00,20,00,00,00,
18826227,0000045C,false,Rx,1,8,00,00,09,3E,00,00,00,00,
18853756,0000020B,false,Rx,1,8,00,00,00,00,C8,00,14,00,
18853998,0000022B,false,Rx,1,8,00,00,00,00,0E,00,1F,C5,
18854253,0000023B,false,Rx,1,8,3C,41,00,00,00,00,00,00,
18854485,0000024B,false,Rx,1,8,44,7D,6E,03,00,00,20,00,
18854733,0000071B,false,Rx,1,8,10,00,90,FF,06,00,00,00,
18863542,0000021B,false,Rx,1,8,02,00,80,FE,9C,02,00,04,
18916004,0000042C,false,Rx,1,8,96,60,00,00,20,00,00,00,
18916244,0000043C,false,Rx,1,8,96,60,00,00,20,00,00,00,
18916484,0000044C,false,Rx,1,8,96,60,00,00,20,00,00,00,
18926228,0000045C,false,Rx,1,8,00,00,09,3E,00,00,00,00,
18926370,0000010C,false,Rx,1,2,30,00,00,00,00,00,00,00,
18926526,0000054B,false,Rx,1,2,30,FF,00,00,00,00,00,00,
18953715,0000020B,false,Rx,1,8,00,00,C0,FF,C8,00,14,00,
18953964,0000022B,false,Rx,1,8,00,00,00,00,07,00,1F,C5,
18954211,0000023B,false,Rx,1,8,3C,41,00,00,00,00,00,00,
18954451,0000024B,false,Rx,1,8,44,7D,6E,03,00,00,20,00,
18954692,0000071B,false,Rx,1,8,11,00,00,00,00,00,02,02,
18963530,0000021B,false,Rx,1,8,02,00,80,FE,9C,02,00,04,
19016003,0000042C,false,Rx,1,8,96,60,00,00,20,00,00,00,
19016251,0000043C,false,Rx,1,8,96,60,00,00,20,00,00,00,
19016491,0000044C,false,Rx,1,8,96,60,00,00,20,00,00,00,
19026230,0000045C,false,Rx,1,8,00,00,09,3E,00,00,00,00,
19053704,0000020B,false,Rx,1,8,00,00,C0,FF,C8,00,14,00,
19053952,0000022B,false,Rx,1,8,00,00,00,00,06,00,1F,C5,
19054199,0000023B,false,Rx,1,8,3C,41,00,00,00,00,00,00,
19054433,0000024B,false,Rx,1,8,44,7D,6E,03,00,00,20,00,
19054672,0000071B,false,Rx,1,8,12,40,29,00,27,00,15,00,
19063497,0000021B,false,Rx,1,8,02,00,80,FE,9C,02,00,04,
19116009,0000042C,false,Rx,1,8,96,60,00,00,20,00,00,00,
19116248,0000043C,false,Rx,1,8,96,60,00,00,20,00,00,00,
19116488,0000044C,false,Rx,1,8,96,60,00,00,20,00,00,00,
19126235,0000045C,false,Rx,1,8,00,00,09,3E,00,00,00,00,
19126362,0000010C,false,Rx,1,2,31,00,00,00,00,00,00,00,
19126518,0000054B,false,Rx,1,2,31,FF,00,00,00,00,00,00,
19153701,0000020B,false,Rx,1,8,00,00,00,00,C8,00,14,00,
19153941,0000022B,false,Rx,1,8,00,00,00,00,07,00,1F,C5,
19154189,0000023B,false,Rx,1,8,3C,41,00,00,00,00,00,00,
19154430,0000024B,false,Rx,1,8,44,7D,6E,03,00,00,20,00,
19154677,0000071B,false,Rx,1,8,13,00,00,00,00,00,00,00,
19163488,0000021B,false,Rx,1,8,02,00,80,FE,9C,02,00,04,
19216006,0000042C,false,Rx,1,8,96,60,00,00,20,00,00,00,
19216253,0000043C,false,Rx,1,8,96,60,00,00,20,00,00,00,
19216494,0000044C,false,Rx,1,8,96,60,00,00,20,00,00,00,
19226230,0000045C,false,Rx,1,8,00,00,09,3E,00,00,00,00,
19253563,0000036B,false,Rx,1,8,00,00,00,00,00,00,00,00,
19253810,0000020B,false,Rx,1,8,00,00,C0,FF,C8,00,14,00,
19254058,0000022B,false,Rx,1,8,00,00,00,00,0A,00,1F,C5,
19254306,0000023B,false,Rx,1,8,3C,41,00,00,00,00,00,00,
19254539,0000024B,false,Rx,1,8,44,7D,6E,03,00,00,20,00,
19254786,0000071B,false,Rx,1,8,14,00,00,00,02,00,00,00,
19263442,0000021B,false,Rx,1,8,02,00,80,FE,9C,02,00,04,
19263689,0000037B,false,Rx,1,8,00,00,00,00,00,00,00,00,
19273565,0000034B,false,Rx,1,8,00,00,00,00,00,08,00,00,
19283555,0000035B,false,Rx,1,8,00,00,00,00,00,00,18,00,
19293568,0000032B,false,Rx,1,8,00,00,00,00,00,00,00,00,
19303557,0000033B,false,Rx,1,8,00,00,00,00,00,00,00,00,
19316011,0000042C,false,Rx,1,8,96,60,00,00,20,00,00,00,
19316250,0000043C,false,Rx,1,8,96,60,00,00,20,00,00,00,
19316491,0000044C,false,Rx,1,8,96,60,00,00,20,00,00,00,
19326235,0000045C,false,Rx,1,8,00,00,09,3E,00,00,00,00,
19326362,0000010C,false,Rx,1,2,32,00,00,00,00,00,00,00,
19326526,0000054B,false,Rx,1,2,32,FF,00,00,00,00,00,00,
19353663,0000020B,false,Rx,1,8,00,00,00,00,C8,00,14,00,
19353903,0000022B,false,Rx,1,8,00,00,00,00,15,00,1F,C5,
19354151,0000023B,false,Rx,1,8,3C,41,00,00,00,00,00,00,
19354391,0000024B,false,Rx,1,8,44,7D,6E,03,00,00,20,00,
19363446,0000021B,false,Rx,1,8,02,00,80,FE,9C,02,00,04,
19416006,0000042C,false,Rx,1,8,96,60,00,00,20,00,00,00,
19416253,0000043C,false,Rx,1,8,96,60,00,00,20,00,00,00,
19416493,0000044C,false,Rx,1,8,96,60,00,00,20,00,00,00,
19426240,0000045C,false,Rx,1,8,00,00,09,3E,00,00,00,00,
19453635,0000020B,false,Rx,1,8,00,00,C0,FF,C8,00,14,00,
19453883,0000022B,false,Rx,1,8,00,00,00,00,0B,00,1F,C5,
19454130,0000023B,false,Rx,1,8,3C,41,00,00,00,00,00,00,
19454370,0000024B,false,Rx,1,8,44,7D,6E,03,00,00,20,00,
19454611,0000071B,false,Rx,1,8,16,00,00,00,00,00,5E,46,
19463426,0000021B,false,Rx,1,8,02,00,80,FE,9C,02,00,04,
19516015,0000042C,false,Rx,1,8,96,60,00,00,20,00,00,00,
19516253,0000043C,false,Rx,1,8,96,60,00,00,20,00,00,00,
19516493,0000044C,false,Rx,1,8,96,60,00,00,20,00,00,00,
