Time Stamp,ID,Extended,Dir,Bus,LEN,D1,D2,D3,D4,D5,D6,D7,D8
33751324,000005E7,false,Rx,1,8,00,3F,05,06,00,00,00,01,
33872696,00000217,false,Rx,1,8,00,00,80,FF,7D,02,00,04,
33962902,00000207,false,Rx,1,8,00,01,40,FF,00,00,04,00,
33963149,00000227,false,Rx,1,8,00,00,00,00,02,00,1F,C5,
33963390,00000237,false,Rx,1,8,3B,41,00,00,00,00,00,00,
33963630,00000247,false,Rx,1,8,00,7D,6E,03,00,00,20,00,
33963878,00000717,false,Rx,1,8,02,00,00,00,00,00,00,00,
33972694,00000217,false,Rx,1,8,00,00,80,FF,9C,02,01,04,
34062862,00000207,false,Rx,1,8,00,02,40,FF,C8,00,04,00,
34063109,00000227,false,Rx,1,8,00,00,00,00,05,00,1F,C5,
34063350,00000237,false,Rx,1,8,3B,41,00,00,00,00,00,00,
34063591,00000247,false,Rx,1,8,44,7D,6E,03,00,00,20,00,
34072673,00000217,false,Rx,1,8,02,40,80,FF,9C,02,01,04,
34162857,00000207,false,Rx,1,8,00,02,40,FF,C8,00,04,00,
34163103,00000227,false,Rx,1,8,00,00,00,00,04,00,1F,C5,
34163345,00000237,false,Rx,1,8,3B,41,00,00,00,00,00,00,
34163586,00000247,false,Rx,1,8,44,7D,6E,03,00,00,20,00,
34163833,00000717,false,Rx,1,8,04,00,00,00,00,00,00,00,
34172653,00000217,false,Rx,1,8,02,40,80,FF,9C,02,01,04,
34262842,00000207,false,Rx,1,8,00,02,40,FF,C8,00,04,00,
34263088,00000227,false,Rx,1,8,01,00,00,00,00,00,1F,C5,
34263330,00000237,false,Rx,1,8,3B,41,00,00,00,00,00,00,
34263570,00000247,false,Rx,1,8,44,7D,6E,03,00,00,20,00,
34263817,00000717,false,Rx,1,8,05,00,00,00,00,00,00,00,
34272626,00000217,false,Rx,1,8,02,40,00,FF,9C,02,01,04,
34362792,00000207,false,Rx,1,8,00,02,80,FF,C8,00,04,00,
34363039,00000227,false,Rx,1,8,00,00,00,00,00,00,1F,C5,
34363280,00000237,false,Rx,1,8,3B,41,00,00,00,00,00,00,
34363520,00000247,false,Rx,1,8,44,7D,6E,03,00,00,20,00,
34363752,00000717,false,Rx,1,8,06,00,26,45,66,06,00,40,
34372591,00000217,false,Rx,1,8,02,80,00,FF,9C,02,01,04,
34462804,00000207,false,Rx,1,8,01,02,80,FF,C8,00,04,00,
34463052,00000227,false,Rx,1,8,00,00,00,00,05,00,1F,C5,
34463292,00000237,false,Rx,1,8,3B,41,00,00,00,00,00,00,
34463532,00000247,false,Rx,1,8,44,7D,6E,03,00,00,20,00,
34463773,00000717,false,Rx,1,8,07,00,00,00,02,0A,00,00,
34472596,00000217,false,Rx,1,8,02,80,00,FF,9C,02,01,04,
34562755,00000207,false,Rx,1,8,01,01,80,FF,C8,00,04,00,
34563001,00000227,false,Rx,1,8,00,00,00,00,06,00,1F,C5,
34563249,00000237,false,Rx,1,8,3B,41,00,00,00,00,00,00,
34563483,00000247,false,Rx,1,8,44,7D,6E,03,00,00,20,00,
34563723,00000717,false,Rx,1,8,08,00,00,00,76,44,00,00,
34572568,00000217,false,Rx,1,8,02,80,00,FF,9C,02,01,04,
34662744,00000207,false,Rx,1,8,01,01,80,FF,C8,00,04,00,
34662983,00000227,false,Rx,1,8,00,00,00,00,00,00,1F,C5,
34663230,00000237,false,Rx,1,8,3B,41,00,00,00,00,00,00,
34663466,00000247,false,Rx,1,8,44,7D,6E,03,00,00,20,00,
34663706,00000717,false,Rx,1,8,09,00,96,45,00,00,00,00,
34672537,00000217,false,Rx,1,8,02,80,00,FF,9C,02,01,04,
34762734,00000207,false,Rx,1,8,01,01,80,FF,C8,00,04,00,
34762980,00000227,false,Rx,1,8,00,00,00,00,03,00,1F,C5,
34763221,00000237,false,Rx,1,8,3B,41,00,00,00,00,00,00,
34763462,00000247,false,Rx,1,8,44,7D,6E,03,00,00,20,00,
34763710,00000717,false,Rx,1,8,0A,00,00,00,00,00,00,00,
34772518,00000217,false,Rx,1,8,02,C0,80,FE,9C,02,01,04,
34862610,00000367,false,Rx,1,8,00,00,00,00,00,00,00,00,
34862856,00000207,false,Rx,1,8,01,01,80,FF,C8,00,04,00,
34863105,00000227,false,Rx,1,8,00,00,00,00,02,00,1F,C5,
34863353,00000237,false,Rx,1,8,3B,41,00,00,00,00,00,00,
34863586,00000247,false,Rx,1,8,44,7D,6E,03,00,00,20,00,
34863834,00000717,false,Rx,1,8,0B,00,00,00,00,00,00,00,
34872474,00000217,false,Rx,1,8,02,C0,80,FE,9C,02,00,04,
34872728,00000507,false,Rx,1,8,2C,00,00,00,00,00,00,40,
34872975,00000377,false,Rx,1,8,00,00,00,00,00,00,00,00,
34882608,00000347,false,Rx,1,8,00,00,00,00,00,08,00,00,
34892605,00000357,false,Rx,1,8,00,00,00,00,00,00,00,00,
34902602,00000327,false,Rx,1,8,00,00,00,00,00,00,00,00,
34912602,00000337,false,Rx,1,8,00,00,00,00,00,00,00,00,
34922600,00000367,false,Rx,1,8,00,00,00,00,00,00,00,00,
34932598,00000377,false,Rx,1,8,00,00,00,00,00,00,00,00,
34942610,00000347,false,Rx,1,8,00,00,00,00,00,08,00,00,
34952609,00000357,false,Rx,1,8,00,00,00,00,00,00,00,00,
34962605,00000327,false,Rx,1,8,00,00,00,00,00,00,00,00,
34962853,00000207,false,Rx,1,8,01,01,80,FF,C8,00,04,00,
34963093,00000227,false,Rx,1,8,00,00,00,00,03,00,1F,C5,
34963341,00000237,false,Rx,1,8,3B,41,00,00,00,00,00,00,
34963574,00000247,false,Rx,1,8,44,7D,6E,03,00,00,20,00,
34963822,00000717,false,Rx,1,8,0C,01,00,04,04,00,01,00,
34972485,00000217,false,Rx,1,8,02,C0,80,FE,9C,02,00,04,
34972731,00000337,false,Rx,1,8,00,00,00,00,00,00,00,00,
35062673,00000207,false,Rx,1,8,01,01,C0,FF,C8,00,04,00,
35062921,00000227,false,Rx,1,8,00,00,00,00,01,00,1F,C5,
35063160,00000237,false,Rx,1,8,3B,41,00,00,00,00,00,00,
35063403,00000247,false,Rx,1,8,44,7D,6E,03,00,00,20,00,
35063644,00000717,false,Rx,1,8,0E,00,00,02,A6,04,00,00,
35072455,00000217,false,Rx,1,8,02,C0,80,FE,9C,02,00,04,
35162632,00000207,false,Rx,1,8,01,01,80,FF,C8,00,04,00,
35162871,00000227,false,Rx,1,8,00,00,00,00,00,00,1F,C5,
35163118,00000237,false,Rx,1,8,3B,41,00,00,00,00,00,00,
35163354,00000247,false,Rx,1,8,44,7D,6E,03,00,00,20,00,
35163594,00000717,false,Rx,1,8,0F,00,EB,01,F5,0D,00,00,
35172417,00000217,false,Rx,1,8,02,C0,00,FE,9C,02,00,04,
35262639,00000207,false,Rx,1,8,01,01,80,FF,C8,00,04,00,
35262877,00000227,false,Rx,1,8,00,00,00,00,00,00,1F,C5,
35263125,00000237,false,Rx,1,8,3B,41,00,00,00,00,00,00,
35263360,00000247,false,Rx,1,8,44,7D,6E,03,00,00,20,00,
35263600,00000717,false,Rx,1,8,10,07,80,FF,03,A0,FF,00,
35272417,00000217,false,Rx,1,8,02,C0,00,FE,9C,02,00,04,
35362590,00000207,false,Rx,1,8,00,01,C0,FF,C8,00,04,00,
35362836,00000227,false,Rx,1,8,00,00,00,00,00,00,1F,C5,
35363077,00000237,false,Rx,1,8,3B,41,00,00,00,00,00,00,
35363318,00000247,false,Rx,1,8,44,7D,6E,03,00,00,20,00,
35363566,00000717,false,Rx,1,8,11,00,00,00,00,00,02,02,
35372374,00000217,false,Rx,1,8,02,C0,00,FE,9C,02,00,04,
35462587,00000207,false,Rx,1,8,00,01,C0,FF,C8,00,04,00,
35462835,00000227,false,Rx,1,8,00,00,00,00,01,00,1F,C5,
35463074,00000237,false,Rx,1,8,3B,41,00,00,00,00,00,00,
35463315,00000247,false,Rx,1,8,44,7D,6E,03,00,00,20,00,
35463555,00000717,false,Rx,1,8,12,3D,25,00,27,00,15,00,
35472372,00000217,false,Rx,1,8,02,00,01,FE,9C,02,00,04,
35562563,00000207,false,Rx,1,8,00,01,C0,FF,C8,00,04,00,
35562810,00000227,false,Rx,1,8,00,00,00,00,02,00,1F,C5,
35563057,00000237,false,Rx,1,8,3B,41,00,00,00,00,00,00,
35563291,00000247,false,Rx,1,8,44,7D,6E,03,00,00,20,00,
35563539,00000717,false,Rx,1,8,13,00,00,00,00,00,00,00,
35572349,00000217,false,Rx,1,8,02,00,01,FE,9C,02,00,04,
35662523,00000207,false,Rx,1,8,00,01,C0,FF,C8,00,04,00,
35662769,00000227,false,Rx,1,8,00,00,00,00,01,00,1F,C5,
35663016,00000237,false,Rx,1,8,3B,41,00,00,00,00,00,00,
35663250,00000247,false,Rx,1,8,44,7D,6E,03,00,00,20,00,
35663498,00000717,false,Rx,1,8,14,00,00,00,FD,FF,00,00,
35672321,00000217,false,Rx,1,8,02,00,01,FE,9C,02,00,04,
35762528,00000207,false,Rx,1,8,00,00,C0,FF,C8,00,04,00,
35762774,00000227,false,Rx,1,8,00,00,00,00,00,00,1F,C5,
35763014,00000237,false,Rx,1,8,3B,41,00,00,00,00,00,00,
35763257,00000247,false,Rx,1,8,44,7D,6E,03,00,00,20,00,
35772310,00000217,false,Rx,1,8,02,00,81,FD,9C,02,00,04,
35862390,00000367,false,Rx,1,8,00,00,00,00,00,00,00,00,
35862636,00000207,false,Rx,1,8,00,00,C0,FF,C8,00,04,00,
35862883,00000227,false,Rx,1,8,00,00,00,00,01,00,1F,C5,
35863132,00000237,false,Rx,1,8,3B,41,00,00,00,00,00,00,
35863365,00000247,false,Rx,1,8,44,7D,6E,03,00,00,20,00,
35863605,00000717,false,Rx,1,8,16,00,00,00,00,00,6E,45,
35872284,00000217,false,Rx,1,8,02,00,81,FD,9C,02,00,04,
35872538,00000377,false,Rx,1,8,00,00,00,00,00,00,00,00,
35882385,00000347,false,Rx,1,8,00,00,00,00,00,08,00,00,
35892382,00000357,false,Rx,1,8,00,00,00,00,00,00,00,00,
35902379,00000327,false,Rx,1,8,00,00,00,00,00,00,00,00,
35912384,00000337,false,Rx,1,8,00,00,00,00,00,00,00,00,
35962479,00000207,false,Rx,1,8,00,00,C0,FF,C8,00,04,00,
35962718,00000227,false,Rx,1,8,00,00,00,00,00,00,1F,C5,
35962967,00000237,false,Rx,1,8,3B,41,00,00,00,00,00,00,
35963199,00000247,false,Rx,1,8,44,7D,6E,03,00,00,20,00,
35963448,00000717,false,Rx,1,8,17,00,00,C0,03,00,00,00,
35972263,00000217,false,Rx,1,8,02,00,81,FD,9C,02,00,04,
36062464,00000207,false,Rx,1,8,00,00,C0,FF,C8,00,04,00,
36062711,00000227,false,Rx,1,8,00,00,00,00,03,00,1F,C5,
36062959,00000237,false,Rx,1,8,3B,41,00,00,00,00,00,00,
36063191,00000247,false,Rx,1,8,44,7D,6E,03,00,00,20,00,
36063441,00000717,false,Rx,1,8,18,00,00,00,00,00,00,00,
36072248,00000217,false,Rx,1,8,02,00,81,FD,9C,02,00,04,
36162423,00000207,false,Rx,1,8,00,00,C0,FF,C8,00,04,00,
36162671,00000227,false,Rx,1,8,00,00,00,00,07,00,1F,C5,
36162911,00000237,false,Rx,1,8,3B,41,00,00,00,00,00,00,
36163150,00000247,false,Rx,1,8,44,7D,6E,03,00,00,20,00,
36163400,00000717,false,Rx,1,8,19,00,00,00,00,00,00,00,
36172206,00000217,false,Rx,1,8,02,00,81,FD,9C,02,00,04,
36262415,00000207,false,Rx,1,8,00,00,C0,FF,C8,00,04,00,
36262661,00000227,false,Rx,1,8,00,00,00,00,06,00,1F,C5,
36262908,00000237,false,Rx,1,8,3B,41,00,00,00,00,00,00,
36263142,00000247,false,Rx,1,8,44,7D,6E,03,00,00,20,00,
36263390,00000717,false,Rx,1,8,01,00,00,00,00,00,00,00,
36272199,00000217,false,Rx,1,8,02,00,81,FD,9C,02,00,04,
36362374,00000207,false,Rx,1,8,00,00,C0,FF,C8,00,04,00,
36362613,00000227,false,Rx,1,8,02,00,00,00,03,00,1F,C5,
36362860,00000237,false,Rx,1,8,3B,41,00,00,00,00,00,00,
36363101,00000247,false,Rx,1,8,44,7D,6E,03,00,00,20,00,
36363342,00000717,false,Rx,1,8,02,00,00,00,00,00,00,00,
36372180,00000217,false,Rx,1,8,02,00,81,FD,9C,02,00,04,
36462366,00000207,false,Rx,1,8,00,00,00,00,C8,00,04,00,
36462612,00000227,false,Rx,1,8,00,00,00,00,03,00,1F,C5,
36462853,00000237,false,Rx,1,8,3B,41,00,00,00,00,00,00,
36463093,00000247,false,Rx,1,8,44,7D,6E,03,00,00,20,00,
36472155,00000217,false,Rx,1,8,02,00,01,FD,9C,02,00,04,
36562353,00000207,false,Rx,1,8,00,00,C0,FF,C8,00,04,00,
36562600,00000227,false,Rx,1,8,00,00,00,00,00,00,1F,C5,
36562840,00000237,false,Rx,1,8,3B,41,00,00,00,00,00,00,
36563080,00000247,false,Rx,1,8,44,7D,6E,03,00,00,20,00,
36563329,00000717,false,Rx,1,8,04,00,00,00,00,00,00,00,
36572139,00000217,false,Rx,1,8,02,00,01,FD,9C,02,00,04,
36662313,00000207,false,Rx,1,8,00,00,C0,FF,C8,00,04,00,
36662553,00000227,false,Rx,1,8,00,00,00,00,00,00,1F,C5,
36662800,00000237,false,Rx,1,8,3B,41,00,00,00,00,00,00,
36663040,00000247,false,Rx,1,8,44,7D,6E,03,00,00,20,00,
36663283,00000717,false,Rx,1,8,05,00,00,00,00,00,00,00,
36672098,00000217,false,Rx,1,8,02,00,01,FD,9C,02,00,04,
36762319,00000207,false,Rx,1,8,00,00,C0,FF,C8,00,04,00,
36762557,00000227,false,Rx,1,8,00,00,00,00,00,00,1F,C5,
36762805,00000237,false,Rx,1,8,3B,41,00,00,00,00,00,00,
36763046,00000247,false,Rx,1,8,44,7D,6E,03,00,00,20,00,
36763279,00000717,false,Rx,1,8,06,00,62,46,66,06,00,40,
36772093,00000217,false,Rx,1,8,02,00,01,FD,9C,02,00,04,
36862185,00000367,false,Rx,1,8,00,00,00,00,00,00,00,00,
36862432,00000207,false,Rx,1,8,00,00,C0,FF,C8,00,04,00,
36862680,00000227,false,Rx,1,8,00,00,00,00,01,00,1F,C5,
36862921,00000237,false,Rx,1,8,3B,41,00,00,00,00,00,00,
36863160,00000247,false,Rx,1,8,44,7D,6E,03,00,00,20,00,
36863403,00000717,false,Rx,1,8,07,00,00,00,02,0A,00,00,
36872078,00000217,false,Rx,1,8,02,00,01,FD,9C,02,00,04,
36872328,00000377,false,Rx,1,8,00,00,00,00,00,00,00,00,
36882182,00000347,false,Rx,1,8,00,00,00,00,00,08,00,00,
36892179,00000357,false,Rx,1,8,00,00,00,00,00,00,00,00,
36902170,00000327,false,Rx,1,8,00,00,00,00,00,00,00,00,
36912174,00000337,false,Rx,1,8,00,00,00,00,00,00,00,00,
36962252,00000207,false,Rx,1,8,00,00,C0,FF,C8,00,04,00,
36962498,00000227,false,Rx,1,8,00,00,00,00,01,00,1F,C5,
36962740,00000237,false,Rx,1,8,3B,41,00,00,00,00,00,00,
36962979,00000247,false,Rx,1,8,44,7D,6E,03,00,00,20,00,
36963219,00000717,false,Rx,1,8,08,00,00,00,5A,46,00,00,
36972039,00000217,false,Rx,1,8,02,00,01,FD,9C,02,00,04,
37062244,00000207,false,Rx,1,8,00,00,C0,FF,C8,00,04,00,
37062490,00000227,false,Rx,1,8,00,00,00,00,01,00,1F,C5,
37062731,00000237,false,Rx,1,8,3B,41,00,00,00,00,00,00,
37062971,00000247,false,Rx,1,8,44,7D,6E,03,00,00,20,00,
37063211,00000717,false,Rx,1,8,09,00,36,46,00,00,00,00,
37072028,00000217,false,Rx,1,8,02,00,01,FD,9C,02,00,04,
37162207,00000207,false,Rx,1,8,00,00,C0,FF,C8,00,04,00,
37162448,00000227,false,Rx,1,8,00,00,00,00,04,00,1F,C5,
37162696,00000237,false,Rx,1,8,3B,41,00,00,00,00,00,00,
37162935,00000247,false,Rx,1,8,44,7D,6E,03,00,00,20,00,
37163177,00000717,false,Rx,1,8,0A,00,00,00,00,00,00,00,
37171992,00000217,false,Rx,1,8,02,00,01,FD,9C,02,00,04,
37262206,00000207,false,Rx,1,8,00,00,C0,FF,C8,00,04,00,
37262455,00000227,false,Rx,1,8,00,00,00,00,04,00,1F,C5,
37262702,00000237,false,Rx,1,8,3B,41,00,00,00,00,00,00,
37262935,00000247,false,Rx,1,8,44,7D,6E,03,00,00,20,00,
37263183,00000717,false,Rx,1,8,0B,00,00,00,00,00,00,00,
37271992,00000217,false,Rx,1,8,02,00,01,FD,9C,02,00,04,
37362185,00000207,false,Rx,1,8,00,00,C0,FF,C8,00,04,00,
37362432,00000227,false,Rx,1,8,00,00,00,00,00,00,1F,C5,
37362672,00000237,false,Rx,1,8,3B,41,00,00,00,00,00,00,
37362913,00000247,false,Rx,1,8,44,7D,6E,03,00,00,20,00,
37363153,00000717,false,Rx,1,8,0C,01,00,04,04,00,01,00,
37371970,00000217,false,Rx,1,8,02,00,01,FD,9C,02,00,04,
37462137,00000207,false,Rx,1,8,00,00,C0,FF,C8,00,04,00,
37462384,00000227,false,Rx,1,8,00,00,00,00,03,00,1F,C5,
37462631,00000237,false,Rx,1,8,3B,41,00,00,00,00,00,00,
37462865,00000247,false,Rx,1,8,44,7D,6E,03,00,00,20,00,
37463112,00000717,false,Rx,1,8,0E,00,00,02,06,0E,00,00,
37471930,00000217,false,Rx,1,8,02,00,01,FD,9C,02,00,04,
37562147,00000207,false,Rx,1,8,00,00,C0,FF,C8,00,04,00,
37562395,00000227,false,Rx,1,8,00,00,00,00,02,00,1F,C5,
37562636,00000237,false,Rx,1,8,3B,41,00,00,00,00,00,00,
37562876,00000247,false,Rx,1,8,44,7D,6E,03,00,00,20,00,
37563109,00000717,false,Rx,1,8,0F,00,EB,01,D5,10,00,00,
37571925,00000217,false,Rx,1,8,02,40,01,FD,9C,02,00,04,
37662094,00000207,false,Rx,1,8,00,00,C0,FF,C8,00,04,00,
37662334,00000227,false,Rx,1,8,02,00,00,00,00,00,1F,C5,
37662575,00000237,false,Rx,1,8,3B,41,00,00,00,00,00,00,
37662814,00000247,false,Rx,1,8,44,7D,6E,03,00,00,20,00,
37663054,00000717,false,Rx,1,8,10,09,10,FF,03,80,FF,00,
37671908,00000217,false,Rx,1,8,02,40,01,FD,9C,02,00,04,
37762078,00000207,false,Rx,1,8,00,00,C0,FF,C8,00,04,00,
37762327,00000227,false,Rx,1,8,00,00,00,00,05,00,1F,C5,
37762575,00000237,false,Rx,1,8,3B,41,00,00,00,00,00,00,
37762807,00000247,false,Rx,1,8,44,7D,6E,03,00,00,20,00,
37763056,00000717,false,Rx,1,8,11,00,00,00,00,00,02,02,
37771882,00000217,false,Rx,1,8,02,40,81,FC,9C,02,00,04,
37861968,00000367,false,Rx,1,8,00,00,00,00,00,00,00,00,
37862215,00000207,false,Rx,1,8,00,00,C0,FF,C8,00,04,00,
37862456,00000227,false,Rx,1,8,00,00,00,00,00,00,1F,C5,
37862696,00000237,false,Rx,1,8,3B,41,00,00,00,00,00,00,
37862937,00000247,false,Rx,1,8,44,7D,6E,03,00,00,20,00,
37863177,00000717,false,Rx,1,8,12,40,28,00,27,00,15,00,
37871854,00000217,false,Rx,1,8,02,40,81,FC,9C,02,00,04,
37872102,00000377,false,Rx,1,8,00,00,00,00,00,00,00,00,
37881955,00000347,false,Rx,1,8,00,00,00,00,00,08,00,00,
37891952,00000357,false,Rx,1,8,00,00,00,00,00,00,00,00,
37901957,00000327,false,Rx,1,8,00,00,00,00,00,00,00,00,
37911954,00000337,false,Rx,1,8,00,00,00,00,00,00,00,00,
37962033,00000207,false,Rx,1,8,00,00,C0,FF,C8,00,04,00,
37962281,00000227,false,Rx,1,8,00,00,00,00,04,00,1F,C5,
37962521,00000237,false,Rx,1,8,3B,41,00,00,00,00,00,00,
37962761,00000247,false,Rx,1,8,44,7D,6E,03,00,00,20,00,
37963009,00000717,false,Rx,1,8,13,00,00,00,00,00,00,00,
37971816,00000217,false,Rx,1,8,02,40,81,FC,9C,02,00,04,
38062036,00000207,false,Rx,1,8,00,00,00,00,C8,00,04,00,
38062283,00000227,false,Rx,1,8,00,00,00,00,00,00,1F,C5,
38062524,00000237,false,Rx,1,8,3B,41,00,00,00,00,00,00,
38062764,00000247,false,Rx,1,8,44,7D,6E,03,00,00,20,00,
38063004,00000717,false,Rx,1,8,14,00,00,00,EA,FF,00,00,
38071822,00000217,false,Rx,1,8,02,40,81,FC,9C,02,00,04,
38161976,00000207,false,Rx,1,8,00,00,C0,FF,C8,00,04,00,
38162222,00000227,false,Rx,1,8,00,00,00,00,00,00,1F,C5,
38162464,00000237,false,Rx,1,8,3B,41,00,00,00,00,00,00,
38162704,00000247,false,Rx,1,8,44,7D,6E,03,00,00,20,00,
38171795,00000217,false,Rx,1,8,02,40,81,FC,9C,02,00,04,
38261970,00000207,false,Rx,1,8,00,00,C0,FF,C8,00,04,00,
38262210,00000227,false,Rx,1,8,00,00,00,00,00,00,1F,C5,
38262459,00000237,false,Rx,1,8,3B,41,00,00,00,00,00,00,
38262691,00000247,false,Rx,1,8,44,7D,6E,03,00,00,20,00,
38262931,00000717,false,Rx,1,8,16,00,00,00,00,00,3A,46,
38271755,00000217,false,Rx,1,8,02,40,81,FC,9C,02,00,04,
38361970,00000207,false,Rx,1,8,00,00,C0,FF,C8,00,04,00,
38362217,00000227,false,Rx,1,8,00,00,00,00,02,00,1F,C5,
38362466,00000237,false,Rx,1,8,3B,41,00,00,00,00,00,00,
38362706,00000247,false,Rx,1,8,44,7D,6E,03,00,00,20,00,
38362947,00000717,false,Rx,1,8,17,00,00,40,04,00,00,00,
38371754,00000217,false,Rx,1,8,02,40,81,FC,9C,02,00,04,
38461933,00000207,false,Rx,1,8,00,00,00,00,C8,00,04,00,
38462179,00000227,false,Rx,1,8,00,00,00,00,00,00,1F,C5,
38462420,00000237,false,Rx,1,8,3B,41,00,00,00,00,00,00,
38462661,00000247,false,Rx,1,8,44,7D,6E,03,00,00,20,00,
38462908,00000717,false,Rx,1,8,18,00,00,00,00,00,00,00,
38471716,00000217,false,Rx,1,8,02,40,81,FC,9C,02,00,04,
38561913,00000207,false,Rx,1,8,00,00,C0,FF,C8,00,04,00,
38562159,00000227,false,Rx,1,8,00,00,00,00,01,00,1F,C5,
38562400,00000237,false,Rx,1,8,3B,41,00,00,00,00,00,00,
38562641,00000247,false,Rx,1,8,44,7D,6E,03,00,00,20,00,
38562881,00000717,false,Rx,1,8,19,00,00,00,00,00,00,00,
38571706,00000217,false,Rx,1,8,02,40,81,FC,9C,02,00,04,
38661867,00000207,false,Rx,1,8,00,00,C0,FF,C8,00,04,00,
38662113,00000227,false,Rx,1,8,00,00,00,00,02,00,1F,C5,
38662355,00000237,false,Rx,1,8,3B,41,00,00,00,00,00,00,
38662595,00000247,false,Rx,1,8,44,7D,6E,03,00,00,20,00,
38662842,00000717,false,Rx,1,8,01,00,00,00,00,00,00,00,
38671689,00000217,false,Rx,1,8,02,40,81,FC,9C,02,00,04,
38761862,00000207,false,Rx,1,8,00,00,00,00,C8,00,04,00,
38762108,00000227,false,Rx,1,8,00,00,00,00,00,00,1F,C5,
38762350,00000237,false,Rx,1,8,3B,41,00,00,00,00,00,00,
38762590,00000247,false,Rx,1,8,44,7D,6E,03,00,00,20,00,
38762837,00000717,false,Rx,1,8,02,00,00,00,00,00,00,00,
38771646,00000217,false,Rx,1,8,02,40,81,FC,9C,02,00,04,
38861753,00000367,false,Rx,1,8,00,00,00,00,00,00,00,00,
38861993,00000207,false,Rx,1,8,0F,80,80,28,C8,00,04,00,
38862242,00000227,false,Rx,1,8,00,00,00,00,02,00,1F,C5,
38862489,00000237,false,Rx,1,8,3B,41,00,00,00,00,00,00,
38862729,00000247,false,Rx,1,8,44,7D,6E,03,00,00,20,00,
38871651,00000217,false,Rx,1,8,00,00,02,FD,9C,02,01,04,
38871897,00000377,false,Rx,1,8,00,00,00,00,00,00,00,00,
38881751,00000347,false,Rx,1,8,00,00,00,00,00,08,00,00,
38891749,00000357,false,Rx,1,8,00,00,00,00,00,00,00,00,
38901745,00000327,false,Rx,1,8,00,00,00,00,00,00,00,00,
38911744,00000337,false,Rx,1,8,00,00,00,00,00,00,00,00,
38961814,00000207,false,Rx,1,8,15,B9,00,27,C8,00,04,00,
38962061,00000227,false,Rx,1,8,00,00,00,00,01,00,0A,CD,
38962302,00000237,false,Rx,1,8,3B,41,00,00,00,00,00,00,
38962542,00000247,false,Rx,1,8,44,7D,6E,03,00,00,20,00,
38962790,00000717,false,Rx,1,8,04,00,00,00,00,00,00,00,
38971621,00000217,false,Rx,1,8,00,00,82,FC,9C,02,02,04,
39061804,00000207,false,Rx,1,8,18,D0,40,24,C8,00,04,00,
39062043,00000227,false,Rx,1,8,00,00,00,00,02,00,EC,D1,
39062291,00000237,false,Rx,1,8,3B,41,00,00,00,00,00,00,
39062525,00000247,false,Rx,1,8,44,7D,6E,03,00,00,20,00,
39062772,00000717,false,Rx,1,8,05,00,00,00,00,00,00,00,
39071602,00000217,false,Rx,1,8,00,00,82,FC,9C,02,02,04,
39161792,00000207,false,Rx,1,8,19,DC,80,22,C8,00,04,00,
39162031,00000227,false,Rx,1,8,00,00,00,00,02,00,EC,D1,
39162280,00000237,false,Rx,1,8,3B,41,00,00,00,00,00,00,
39162513,00000247,false,Rx,1,8,44,7D,6E,03,00,00,20,00,
39162753,00000717,false,Rx,1,8,06,00,66,06,66,06,00,40,
39171591,00000217,false,Rx,1,8,00,C0,81,FC,9C,02,02,04,
39261756,00000207,false,Rx,1,8,1A,E2,C0,1F,C8,00,04,00,
39262002,00000227,false,Rx,1,8,00,00,00,00,00,00,EC,D1,
39262244,00000237,false,Rx,1,8,3B,41,00,00,00,00,00,00,
39262484,00000247,false,Rx,1,8,44,7D,6E,03,00,00,20,00,
39262724,00000717,false,Rx,1,8,07,00,00,00,00,0A,00,00,
39271548,00000217,false,Rx,1,8,00,C0,81,FC,9C,02,02,04,
39361745,00000207,false,Rx,1,8,1A,E5,C0,1C,C8,00,04,00,
39361985,00000227,false,Rx,1,8,00,00,00,00,01,00,EC,D1,
39362233,00000237,false,Rx,1,8,3B,41,00,00,00,00,00,00,
39362466,00000247,false,Rx,1,8,44,7D,6E,03,00,00,20,00,
39362715,00000717,false,Rx,1,8,08,00,00,00,66,06,00,00,
39371538,00000217,false,Rx,1,8,00,C0,01,FC,9C,02,02,04,
39461704,00000207,false,Rx,1,8,1A,E6,40,1A,C8,00,04,00,
39461944,00000227,false,Rx,1,8,01,00,00,00,00,00,EC,D1,
39462191,00000237,false,Rx,1,8,3B,41,00,00,00,00,00,00,
39462432,00000247,false,Rx,1,8,44,7D,6E,03,00,00,20,00,
39462665,00000717,false,Rx,1,8,09,00,66,06,00,00,00,00,
39471518,00000217,false,Rx,1,8,00,C0,01,FC,9C,02,02,04,
39561684,00000207,false,Rx,1,8,1A,E7,40,17,C8,00,04,00,
39561930,00000227,false,Rx,1,8,00,00,00,00,00,00,EC,D1,
39562170,00000237,false,Rx,1,8,3B,41,00,00,00,00,00,00,
39562412,00000247,false,Rx,1,8,44,7D,6E,03,00,00,20,00,
39562652,00000717,false,Rx,1,8,0A,00,00,00,00,00,00,00,
39571484,00000217,false,Rx,1,8,02,C0,01,FC,9C,02,02,04,
39661689,00000207,false,Rx,1,8,1B,E8,C0,14,C8,00,04,00,
39661928,00000227,false,Rx,1,8,00,00,00,00,01,00,EC,D1,
39662175,00000237,false,Rx,1,8,3B,41,00,00,00,00,00,00,
39662410,00000247,false,Rx,1,8,44,7D,6E,03,00,00,20,00,
39662657,00000717,false,Rx,1,8,0B,00,00,00,00,00,00,00,
39671476,00000217,false,Rx,1,8,02,C0,01,FC,9C,02,02,04,
39761641,00000207,false,Rx,1,8,1B,E8,40,12,C8,00,04,00,
39761887,00000227,false,Rx,1,8,00,00,00,00,00,00,EC,D1,
39762128,00000237,false,Rx,1,8,3B,41,00,00,00,00,00,00,
39762369,00000247,false,Rx,1,8,44,7D,6E,03,00,00,20,00,
39762609,00000717,false,Rx,1,8,0C,00,00,04,04,00,01,00,
39771435,00000217,false,Rx,1,8,02,C0,01,FC,9C,02,02,04,
39861550,00000367,false,Rx,1,8,00,00,00,00,00,00,00,00,
39861796,00000207,false,Rx,1,8,1B,E8,40,0F,C8,00,04,00,
39862037,00000227,false,Rx,1,8,00,00,00,00,01,00,EC,D1,
39862278,00000237,false,Rx,1,8,3B,41,00,00,00,00,00,00,
39862518,00000247,false,Rx,1,8,44,7D,6E,03,00,00,20,00,
39862759,00000717,false,Rx,1,8,0E,00,00,02,66,17,00,00,
39871429,00000217,false,Rx,1,8,02,C0,01,FC,9C,02,02,04,
39871675,00000377,false,Rx,1,8,00,00,00,00,00,00,00,00,
39881530,00000347,false,Rx,1,8,00,00,00,00,00,08,00,00,
39891527,00000357,false,Rx,1,8,00,00,00,00,00,00,00,00,
39901525,00000327,false,Rx,1,8,00,00,00,00,00,00,00,00,
39911522,00000337,false,Rx,1,8,00,00,00,00,00,00,00,00,
39961625,00000207,false,Rx,1,8,1B,E8,80,0C,C8,00,04,00,
39961873,00000227,false,Rx,1,8,00,00,00,00,00,00,EC,D1,
39962113,00000237,false,Rx,1,8,3B,41,00,00,00,00,00,00,
39962354,00000247,false,Rx,1,8,44,7D,6E,03,00,00,20,00,
39962587,00000717,false,Rx,1,8,0F,00,E3,01,18,11,00,00,
39971411,00000217,false,Rx,1,8,02,C0,01,FC,9C,02,02,04,
40061588,00000207,false,Rx,1,8,1B,E8,00,09,C8,00,04,00,
40061835,00000227,false,Rx,1,8,00,00,00,00,00,00,EC,D1,
40062075,00000237,false,Rx,1,8,3B,41,00,00,00,00,00,00,
40062316,00000247,false,Rx,1,8,44,7D,6E,03,00,00,20,00,
40062549,00000717,false,Rx,1,8,10,07,B0,FE,03,80,FF,00,
40071364,00000217,false,Rx,1,8,02,C0,01,FC,9C,02,02,04,
40161578,00000207,false,Rx,1,8,1B,E8,80,06,C8,00,04,00,
40161816,00000227,false,Rx,1,8,00,00,00,00,02,00,EC,D1,
40162064,00000237,false,Rx,1,8,3B,41,00,00,00,00,00,00,
40162298,00000247,false,Rx,1,8,44,7D,6E,03,00,00,20,00,
40162546,00000717,false,Rx,1,8,11,00,00,00,00,00,02,02,
40171368,00000217,false,Rx,1,8,02,80,01,FC,9C,02,02,04,
40261538,00000207,false,Rx,1,8,1B,E8,C0,03,C8,00,04,00,
40261777,00000227,false,Rx,1,8,00,00,00,00,03,00,EC,D1,
40262024,00000237,false,Rx,1,8,3B,41,00,00,00,00,00,00,
40262259,00000247,false,Rx,1,8,44,7D,6E,03,00,00,20,00,
40262499,00000717,false,Rx,1,8,12,40,29,00,27,00,15,00,
40271329,00000217,false,Rx,1,8,02,80,01,FC,9C,02,02,04,
40361545,00000207,false,Rx,1,8,1B,E8,C0,00,C8,00,04,00,
40361783,00000227,false,Rx,1,8,00,00,00,00,00,00,EC,D1,
40362032,00000237,false,Rx,1,8,3B,41,00,00,00,00,00,00,
40362266,00000247,false,Rx,1,8,44,7D,6E,03,00,00,20,00,
40362513,00000717,false,Rx,1,8,13,00,00,00,00,00,00,00,
40371331,00000217,false,Rx,1,8,02,80,01,FC,9C,02,02,04,
40461514,00000207,false,Rx,1,8,1B,E8,C0,FD,C8,00,04,00,
40461762,00000227,false,Rx,1,8,00,00,00,00,00,00,EC,D1,
40462002,00000237,false,Rx,1,8,3B,41,00,00,00,00,00,00,
40462242,00000247,false,Rx,1,8,44,7D,6E,03,00,00,20,00,
40462491,00000717,false,Rx,1,8,14,00,00,00,FD,B8,00,00,
40471306,00000217,false,Rx,1,8,02,80,01,FC,9C,02,02,04,
40561477,00000207,false,Rx,1,8,1B,E8,C0,FA,C8,00,04,00,
40561717,00000227,false,Rx,1,8,01,00,00,00,02,00,EC,D1,
40561957,00000237,false,Rx,1,8,3B,41,00,00,00,00,00,00,
40562197,00000247,false,Rx,1,8,44,7D,6E,03,00,00,20,00,
40571252,00000217,false,Rx,1,8,02,80,81,FB,9C,02,02,04,
40661470,00000207,false,Rx,1,8,1B,E8,C0,F7,C8,00,04,00,
40661709,00000227,false,Rx,1,8,01,00,00,00,02,00,EC,D1,
40661956,00000237,false,Rx,1,8,3B,41,00,00,00,00,00,00,
40662197,00000247,false,Rx,1,8,44,7D,6E,03,00,00,20,00,
40662438,00000717,false,Rx,1,8,16,00,00,00,00,00,EE,12,
40671255,00000217,false,Rx,1,8,02,80,81,FB,9C,02,02,04,
40761432,00000207,false,Rx,1,8,1B,E8,00,F5,C8,00,04,00,
40761671,00000227,false,Rx,1,8,00,00,00,00,02,00,EC,D1,
40761911,00000237,false,Rx,1,8,3B,41,00,00,00,00,00,00,
40762152,00000247,false,Rx,1,8,44,7D,6E,03,00,00,20,00,
40762393,00000717,false,Rx,1,8,17,00,00,50,04,00,00,00,
40771246,00000217,false,Rx,1,8,02,80,81,FB,9C,02,02,04,
40861339,00000367,false,Rx,1,8,00,00,00,00,00,00,00,00,
40861585,00000207,false,Rx,1,8,1B,E8,00,F2,C8,00,04,00,
40861825,00000227,false,Rx,1,8,00,00,00,00,03,00,EC,D1,
40862066,00000237,false,Rx,1,8,3B,41,00,00,00,00,00,00,
40862308,00000247,false,Rx,1,8,44,7D,6E,03,00,00,20,00,
40862556,00000717,false,Rx,1,8,18,00,00,00,00,00,00,00,
40871217,00000217,false,Rx,1,8,02,80,81,FB,9C,02,02,04,
40871465,00000377,false,Rx,1,8,00,00,00,00,00,00,00,00,
40881334,00000347,false,Rx,1,8,00,00,00,00,00,08,00,00,
40891324,00000357,false,Rx,1,8,00,00,00,00,00,00,00,00,
40901314,00000327,false,Rx,1,8,00,00,00,00,00,00,00,00,
40911311,00000337,false,Rx,1,8,00,00,00,00,00,00,00,00,
40961404,00000207,false,Rx,1,8,1B,E8,80,EF,C8,00,04,00,
40961650,00000227,false,Rx,1,8,00,00,00,00,00,00,EC,D1,
40961891,00000237,false,Rx,1,8,3B,41,00,00,00,00,00,00,
40962131,00000247,false,Rx,1,8,44,7D,6E,03,00,00,20,00,
40962379,00000717,false,Rx,1,8,19,00,00,00,00,00,00,00,
40971194,00000217,false,Rx,1,8,02,80,81,FB,9C,02,02,04,
41061363,00000207,false,Rx,1,8,1B,E8,C0,EC,C8,00,04,00,
41061611,00000227,false,Rx,1,8,00,00,00,00,00,00,EC,D1,
41061851,00000237,false,Rx,1,8,3B,41,00,00,00,00,00,00,
41062090,00000247,false,Rx,1,8,44,7D,6E,03,00,00,20,00,
41062340,00000717,false,Rx,1,8,01,00,00,00,00,00,00,00,
41071154,00000217,false,Rx,1,8,02,40,81,FB,9C,02,02,04,
41161366,00000207,false,Rx,1,8,1B,E8,00,EA,C8,00,04,00,
41161613,00000227,false,Rx,1,8,00,00,00,00,02,00,EC,D1,
41161853,00000237,false,Rx,1,8,3B,41,00,00,00,00,00,00,
41162093,00000247,false,Rx,1,8,44,7D,6E,03,00,00,20,00,
41162335,00000717,false,Rx,1,8,02,00,00,00,00,00,00,00,
41171157,00000217,false,Rx,1,8,02,40,81,FB,9C,02,02,04,
41261324,00000207,false,Rx,1,8,1B,E8,40,E7,C8,00,04,00,
41261570,00000227,false,Rx,1,8,01,00,00,00,01,00,EC,D1,
41261810,00000237,false,Rx,1,8,3B,41,00,00,00,00,00,00,
41262051,00000247,false,Rx,1,8,44,7D,6E,03,00,00,20,00,
41271134,00000217,false,Rx,1,8,02,40,81,FB,9C,02,02,04,
41361303,00000207,false,Rx,1,8,1B,E8,80,E4,C8,00,04,00,
41361542,00000227,false,Rx,1,8,01,00,00,00,00,00,EC,D1,
41361790,00000237,false,Rx,1,8,3B,41,00,00,00,00,00,00,
41362031,00000247,false,Rx,1,8,44,7D,6E,03,00,00,20,00,
41362279,00000717,false,Rx,1,8,04,00,00,00,00,00,00,00,
41371094,00000217,false,Rx,1,8,02,40,81,FB,9C,02,02,04,
41461298,00000207,false,Rx,1,8,1B,E8,40,E2,C8,00,04,00,
41461537,00000227,false,Rx,1,8,01,00,00,00,00,00,EC,D1,
41461778,00000237,false,Rx,1,8,3B,41,00,00,00,00,00,00,
41462018,00000247,false,Rx,1,8,44,7D,6E,03,00,00,20,00,
41462268,00000717,false,Rx,1,8,05,00,00,00,00,00,00,00,
41471091,00000217,false,Rx,1,8,02,40,81,FB,9C,02,02,04,
41561273,00000207,false,Rx,1,8,1B,E8,C0,DF,C8,00,04,00,
41561512,00000227,false,Rx,1,8,01,00,00,00,00,00,EC,D1,
41561760,00000237,false,Rx,1,8,3B,41,00,00,00,00,00,00,
41561992,00000247,false,Rx,1,8,44,7D,6E,03,00,00,20,00,
41562232,00000717,false,Rx,1,8,06,00,66,06,66,06,00,40,
41571055,00000217,false,Rx,1,8,02,40,81,FB,9C,02,02,04,
41661257,00000207,false,Rx,1,8,1B,E9,80,DD,C8,00,04,00,
41661497,00000227,false,Rx,1,8,00,00,00,00,01,00,EC,D1,
41661745,00000237,false,Rx,1,8,3B,41,00,00,00,00,00,00,
41661985,00000247,false,Rx,1,8,44,7D,6E,03,00,00,20,00,
41662226,00000717,false,Rx,1,8,07,00,00,00,02,0A,00,00,
41671051,00000217,false,Rx,1,8,02,40,81,FB,9C,02,02,04,
41761232,00000207,false,Rx,1,8,1B,E8,80,DB,C8,00,04,00,
41761479,00000227,false,Rx,1,8,00,00,00,00,00,00,EC,D1,
41761719,00000237,false,Rx,1,8,3B,41,00,00,00,00,00,00,
41761960,00000247,false,Rx,1,8,44,7D,6E,03,00,00,20,00,
41762200,00000717,false,Rx,1,8,08,00,00,00,66,06,00,00,
41771022,00000217,false,Rx,1,8,02,40,81,FB,9C,02,02,04,
41861107,00000367,false,Rx,1,8,00,00,00,00,00,00,00,00,
41861355,00000207,false,Rx,1,8,1B,E8,00,D9,C8,00,04,00,
41861595,00000227,false,Rx,1,8,00,00,00,00,00,00,EC,D1,
41861843,00000237,false,Rx,1,8,3B,41,00,00,00,00,00,00,
41862076,00000247,false,Rx,1,8,44,7D,6E,03,00,00,20,00,
41862317,00000717,false,Rx,1,8,09,00,66,06,00,00,00,00,
41870984,00000217,false,Rx,1,8,02,40,81,FB,9C,02,02,04,
41871232,00000377,false,Rx,1,8,00,00,00,00,00,00,00,00,
41881109,00000347,false,Rx,1,8,00,00,00,00,00,08,00,00,
41891114,00000357,false,Rx,1,8,00,00,00,00,00,00,00,00,
41901126,00000327,false,Rx,1,8,00,00,00,00,00,00,00,00,
41911125,00000337,false,Rx,1,8,00,00,00,00,00,00,00,00,
41961198,00000207,false,Rx,1,8,1B,E9,00,D7,C8,00,04,00,
41961437,00000227,false,Rx,1,8,01,00,00,00,03,00,EC,D1,
41961686,00000237,false,Rx,1,8,3B,41,00,00,00,00,00,00,
41961918,00000247,false,Rx,1,8,44,7D,6E,03,00,00,20,00,
41962166,00000717,false,Rx,1,8,0A,00,00,00,00,00,00,00,
41970989,00000217,false,Rx,1,8,02,40,81,FB,9C,02,02,04,
42061155,00000207,false,Rx,1,8,1B,E9,00,D5,C8,00,04,00,
42061395,00000227,false,Rx,1,8,00,00,00,00,0B,00,EC,D1,
42061637,00000237,false,Rx,1,8,3B,41,00,00,00,00,00,00,
42061876,00000247,false,Rx,1,8,44,7D,6E,03,00,00,20,00,
42062124,00000717,false,Rx,1,8,0B,00,00,00,00,00,00,00,
42070963,00000217,false,Rx,1,8,02,40,81,FB,9C,02,02,04,
42161145,00000207,false,Rx,1,8,1B,E9,40,D3,C8,00,04,00,
42161387,00000227,false,Rx,1,8,02,00,00,00,02,00,EC,D1,
42161627,00000237,false,Rx,1,8,3B,41,00,00,00,00,00,00,
42161866,00000247,false,Rx,1,8,44,7D,6E,03,00,00,20,00,
42162108,00000717,false,Rx,1,8,0C,00,00,04,04,00,01,00,
42170937,00000217,false,Rx,1,8,02,00,81,FB,9C,02,02,04,
42261131,00000207,false,Rx,1,8,1B,E9,80,D1,C8,00,04,00,
42261380,00000227,false,Rx,1,8,00,00,00,00,00,00,EC,D1,
42261620,00000237,false,Rx,1,8,3B,41,00,00,00,00,00,00,
42261859,00000247,false,Rx,1,8,44,7D,6E,03,00,00,20,00,
42262100,00000717,false,Rx,1,8,0E,00,00,02,C6,20,00,00,
42270924,00000217,false,Rx,1,8,02,00,81,FB,9C,02,02,04,
42361099,00000207,false,Rx,1,8,1B,E9,C0,CF,C8,00,04,00,
42361339,00000227,false,Rx,1,8,00,00,00,00,01,00,EC,D1,
42361586,00000237,false,Rx,1,8,3B,41,00,00,00,00,00,00,
42361827,00000247,false,Rx,1,8,44,7D,6E,03,00,00,20,00,
42362060,00000717,false,Rx,1,8,0F,00,EB,01,87,0E,00,00,
42370874,00000217,false,Rx,1,8,02,00,81,FB,9C,02,02,04,
42461086,00000207,false,Rx,1,8,1B,E9,40,CE,C8,00,04,00,
42461326,00000227,false,Rx,1,8,02,00,00,00,05,00,EC,D1,
42461573,00000237,false,Rx,1,8,3B,41,00,00,00,00,00,00,
42461807,00000247,false,Rx,1,8,44,7D,6E,03,00,00,20,00,
42462047,00000717,false,Rx,1,8,10,0C,B0,FE,03,80,FF,00,
42470877,00000217,false,Rx,1,8,02,00,81,FB,9C,02,02,04,
42561041,00000207,false,Rx,1,8,1B,E9,C0,CC,C8,00,04,00,
42561281,00000227,false,Rx,1,8,03,00,00,00,00,00,EC,D1,
42561529,00000237,false,Rx,1,8,3B,41,00,00,00,00,00,00,
42561762,00000247,false,Rx,1,8,44,7D,6E,03,00,00,20,00,
42562009,00000717,false,Rx,1,8,11,00,00,00,00,00,02,02,
42570855,00000217,false,Rx,1,8,02,00,81,FB,9C,02,02,04,
42661031,00000207,false,Rx,1,8,1B,E9,80,CB,C8,00,04,00,
42661270,00000227,false,Rx,1,8,01,00,00,00,06,00,EC,D1,
42661519,00000237,false,Rx,1,8,3B,41,00,00,00,00,00,00,
42661751,00000247,false,Rx,1,8,44,7D,6E,03,00,00,20,00,
42661991,00000717,false,Rx,1,8,12,40,29,00,27,00,15,00,
42670824,00000217,false,Rx,1,8,02,00,81,FB,9C,02,02,04,
42761027,00000207,false,Rx,1,8,1B,EA,40,CA,C8,00,04,00,
42761268,00000227,false,Rx,1,8,00,00,00,00,00,00,EC,D1,
42761516,00000237,false,Rx,1,8,3B,41,00,00,00,00,00,00,
42761748,00000247,false,Rx,1,8,44,7D,6E,03,00,00,20,00,
42761997,00000717,false,Rx,1,8,13,00,00,00,00,00,00,00,
42770814,00000217,false,Rx,1,8,02,00,81,FB,9C,02,02,04,
42860897,00000367,false,Rx,1,8,00,00,00,00,00,00,00,00,
42861136,00000207,false,Rx,1,8,1B,EA,40,C9,C8,00,04,00,
42861377,00000227,false,Rx,1,8,00,00,00,00,01,00,EC,D1,
42861625,00000237,false,Rx,1,8,3B,41,00,00,00,00,00,00,
42861866,00000247,false,Rx,1,8,44,7D,6E,03,00,00,20,00,
42862106,00000717,false,Rx,1,8,14,00,00,00,3C,B3,00,00,
42870768,00000217,false,Rx,1,8,02,00,81,FB,9C,02,02,04,
42871016,00000377,false,Rx,1,8,00,00,00,00,00,00,00,00,
42880892,00000347,false,Rx,1,8,00,00,00,00,00,08,00,00,
42890889,00000357,false,Rx,1,8,00,00,00,00,00,00,00,00,
42900887,00000327,false,Rx,1,8,00,00,00,00,00,00,00,00,
42910885,00000337,false,Rx,1,8,00,00,00,00,00,00,00,00,
42960980,00000207,false,Rx,1,8,1B,EA,80,C8,C8,00,04,00,
42961219,00000227,false,Rx,1,8,02,00,00,00,00,00,EC,D1,
42961460,00000237,false,Rx,1,8,3B,41,00,00,00,00,00,00,
42961701,00000247,false,Rx,1,8,44,7D,6E,03,00,00,20,00,
42970768,00000217,false,Rx,1,8,02,00,81,FB,9C,02,02,04,
43060938,00000207,false,Rx,1,8,1B,EA,C0,C7,C8,00,04,00,
43061177,00000227,false,Rx,1,8,00,00,00,00,01,00,EC,D1,
43061426,00000237,false,Rx,1,8,3B,41,00,00,00,00,00,00,
43061659,00000247,false,Rx,1,8,44,7D,6E,03,00,00,20,00,
43061906,00000717,false,Rx,1,8,16,00,00,00,00,00,2A,28,
43070754,00000217,false,Rx,1,8,02,00,81,FB,9C,02,02,04,
43160928,00000207,false,Rx,1,8,1B,EA,00,C7,C8,00,04,00,
43161167,00000227,false,Rx,1,8,01,00,00,00,00,00,EC,D1,
43161409,00000237,false,Rx,1,8,3B,41,00,00,00,00,00,00,
43161648,00000247,false,Rx,1,8,44,7D,6E,03,00,00,20,00,
43161896,00000717,false,Rx,1,8,17,00,00,50,04,00,00,00,
43170714,00000217,false,Rx,1,8,02,00,81,FB,9C,02,02,04,
43260915,00000207,false,Rx,1,8,1B,EA,C0,C6,C8,00,04,00,
43261154,00000227,false,Rx,1,8,03,00,00,00,01,00,EC,D1,
43261395,00000237,false,Rx,1,8,3B,41,00,00,00,00,00,00,
43261635,00000247,false,Rx,1,8,44,7D,6E,03,00,00,20,00,
43261884,00000717,false,Rx,1,8,18,00,00,00,00,00,00,00,
43270708,00000217,false,Rx,1,8,02,00,81,FB,9C,02,02,04,
43360874,00000207,false,Rx,1,8,1B,EA,00,C6,C8,00,04,00,
43361114,00000227,false,Rx,1,8,00,00,00,00,01,00,EC,D1,
43361355,00000237,false,Rx,1,8,3B,41,00,00,00,00,00,00,
43361595,00000247,false,Rx,1,8,44,7D,6E,03,00,00,20,00,
43361843,00000717,false,Rx,1,8,19,00,00,00,00,00,00,00,
43370668,00000217,false,Rx,1,8,02,C0,80,FB,9C,02,02,04,
43460875,00000207,false,Rx,1,8,1B,EA,00,C6,C8,00,04,00,
43461114,00000227,false,Rx,1,8,03,00,00,00,01,00,EC,D1,
43461362,00000237,false,Rx,1,8,3B,41,00,00,00,00,00,00,
43461596,00000247,false,Rx,1,8,44,7D,6E,03,00,00,20,00,
43461843,00000717,false,Rx,1,8,01,00,00,00,00,00,00,00,
43470669,00000217,false,Rx,1,8,02,C0,80,FB,9C,02,02,04,
43560857,00000207,false,Rx,1,8,1B,EA,C0,C5,C8,00,04,00,
43561103,00000227,false,Rx,1,8,01,00,00,00,00,00,EC,D1,
43561345,00000237,false,Rx,1,8,3B,41,00,00,00,00,00,00,
43561586,00000247,false,Rx,1,8,44,7D,6E,03,00,00,20,00,
43561826,00000717,false,Rx,1,8,02,00,00,00,00,00,00,00,
43570644,00000217,false,Rx,1,8,02,C0,80,FB,9C,02,02,04,
43660817,00000207,false,Rx,1,8,1B,EA,C0,C5,C8,00,04,00,
43661055,00000227,false,Rx,1,8,03,00,00,00,00,00,EC,D1,
43661297,00000237,false,Rx,1,8,3B,41,00,00,00,00,00,00,
43661537,00000247,false,Rx,1,8,44,7D,6E,03,00,00,20,00,
43670599,00000217,false,Rx,1,8,02,C0,80,FB,9C,02,02,04,
43760807,00000207,false,Rx,1,8,1B,EA,00,C6,C8,00,04,00,
43761046,00000227,false,Rx,1,8,02,00,00,00,00,00,EC,D1,
43761288,00000237,false,Rx,1,8,3B,41,00,00,00,00,00,00,
43761528,00000247,false,Rx,1,8,44,7D,6E,03,00,00,20,00,
43761775,00000717,false,Rx,1,8,04,00,00,00,00,00,00,00,
43770600,00000217,false,Rx,1,8,02,C0,80,FB,9C,02,02,04,
43860691,00000367,false,Rx,1,8,00,00,00,00,00,00,00,00,
43860931,00000207,false,Rx,1,8,1B,EA,40,C6,C8,00,04,00,
43861164,00000227,false,Rx,1,8,02,00,00,00,0F,00,EC,D1,
43861412,00000237,false,Rx,1,8,3B,41,00,00,00,00,00,00,
43861652,00000247,false,Rx,1,8,44,7D,6E,03,00,00,20,00,
43861893,00000717,false,Rx,1,8,05,00,00,00,00,00,00,00,
43870586,00000217,false,Rx,1,8,02,C0,80,FB,9C,02,02,04,
43870832,00000377,false,Rx,1,8,00,00,00,00,00,00,00,00,
43880681,00000347,false,Rx,1,8,00,00,00,00,00,08,00,00,
43890685,00000357,false,Rx,1,8,00,00,00,00,00,00,00,00,
43900682,00000327,false,Rx,1,8,00,00,00,00,00,00,00,00,
43910678,00000337,false,Rx,1,8,00,00,00,00,00,00,00,00,
43960773,00000207,false,Rx,1,8,1B,EA,C0,C6,C8,00,04,00,
43961011,00000227,false,Rx,1,8,03,00,00,00,03,00,EC,D1,
43961253,00000237,false,Rx,1,8,3B,41,00,00,00,00,00,00,
43961493,00000247,false,Rx,1,8,44,7D,6E,03,00,00,20,00,
43961726,00000717,false,Rx,1,8,06,00,66,06,66,06,00,40,
43970557,00000217,false,Rx,1,8,02,C0,80,FB,9C,02,02,04,
44060742,00000207,false,Rx,1,8,1B,EA,C0,C6,C8,00,04,00,
44060981,00000227,false,Rx,1,8,03,00,00,00,00,00,EC,D1,
44061228,00000237,false,Rx,1,8,3B,41,00,00,00,00,00,00,
44061463,00000247,false,Rx,1,8,44,7D,6E,03,00,00,20,00,
44061710,00000717,false,Rx,1,8,07,00,00,00,02,0A,00,00,
44070537,00000217,false,Rx,1,8,02,C0,80,FB,9C,02,02,04,
44160703,00000207,false,Rx,1,8,1B,EA,40,C7,C8,00,04,00,
44160942,00000227,false,Rx,1,8,02,00,00,00,00,00,EC,D1,
44161190,00000237,false,Rx,1,8,3B,41,00,00,00,00,00,00,
44161425,00000247,false,Rx,1,8,44,7D,6E,03,00,00,20,00,
44161665,00000717,false,Rx,1,8,08,00,00,00,66,06,00,00,
44170496,00000217,false,Rx,1,8,02,C0,80,FB,9C,02,02,04,
44260709,00000207,false,Rx,1,8,1B,EA,00,C8,C8,00,04,00,
44260948,00000227,false,Rx,1,8,06,00,00,00,02,00,EC,D1,
44261189,00000237,false,Rx,1,8,3B,41,00,00,00,00,00,00,
44261430,00000247,false,Rx,1,8,44,7D,6E,03,00,00,20,00,
44261669,00000717,false,Rx,1,8,09,00,66,06,00,00,00,00,
44270500,00000217,false,Rx,1,8,02,C0,80,FB,9C,02,02,04,
44360666,00000207,false,Rx,1,8,1B,EA,80,C8,C8,00,04,00,
44360906,00000227,false,Rx,1,8,03,00,00,00,00,00,EC,D1,
44361146,00000237,false,Rx,1,8,3B,41,00,00,00,00,00,00,
44361387,00000247,false,Rx,1,8,44,7D,6E,03,00,00,20,00,
44361636,00000717,false,Rx,1,8,0A,00,00,00,00,00,00,00,
44370474,00000217,false,Rx,1,8,02,C0,80,FB,9C,02,02,04,
44460642,00000207,false,Rx,1,8,1B,EA,80,C9,C8,00,04,00,
44460882,00000227,false,Rx,1,8,03,00,00,00,01,00,EC,D1,
44461122,00000237,false,Rx,1,8,3B,41,00,00,00,00,00,00,
44461363,00000247,false,Rx,1,8,44,7D,6E,03,00,00,20,00,
44461611,00000717,false,Rx,1,8,0B,00,00,00,00,00,00,00,
44470443,00000217,false,Rx,1,8,02,C0,80,FB,9C,02,02,04,
44560633,00000207,false,Rx,1,8,1B,E9,40,CA,C8,00,04,00,
44560872,00000227,false,Rx,1,8,04,00,00,00,00,00,EC,D1,
44561119,00000237,false,Rx,1,8,3B,41,00,00,00,00,00,00,
44561354,00000247,false,Rx,1,8,44,7D,6E,03,00,00,20,00,
44561601,00000717,false,Rx,1,8,0C,00,00,04,04,00,01,00,
44570424,00000217,false,Rx,1,8,02,C0,80,FB,9C,02,02,04,
44660593,00000207,false,Rx,1,8,1B,E9,40,CB,C8,00,04,00,
44660840,00000227,false,Rx,1,8,04,00,00,00,02,00,EC,D1,
44661079,00000237,false,Rx,1,8,3B,41,00,00,00,00,00,00,
44661321,00000247,false,Rx,1,8,44,7D,6E,03,00,00,20,00,
44661561,00000537,false,Rx,1,8,0A,01,0E,00,FC,00,3F,00,
44661801,00000717,false,Rx,1,8,0E,00,00,02,26,2A,00,00,
44670388,00000217,false,Rx,1,8,02,C0,80,FB,9C,02,02,04,
44760593,00000207,false,Rx,1,8,1B,E9,80,CC,C8,00,04,00,
44760831,00000227,false,Rx,1,8,02,00,00,00,01,00,EC,D1,
44761080,00000237,false,Rx,1,8,3B,41,00,00,00,00,00,00,
44761313,00000247,false,Rx,1,8,44,7D,6E,03,00,00,20,00,
44761553,00000717,false,Rx,1,8,0F,00,E9,01,37,0E,00,00,
44770393,00000217,false,Rx,1,8,02,C0,80,FB,9C,02,02,04,
44860469,00000367,false,Rx,1,8,00,00,00,00,00,00,00,00,
44860708,00000207,false,Rx,1,8,1B,E9,40,CD,C8,00,04,00,
44860949,00000227,false,Rx,1,8,01,00,00,00,01,00,EC,D1,
44861197,00000237,false,Rx,1,8,3B,41,00,00,00,00,00,00,
44861430,00000247,false,Rx,1,8,44,7D,6E,03,00,00,20,00,
44861671,00000717,false,Rx,1,8,10,0E,C0,FE,03,80,FF,00,
44870362,00000217,false,Rx,1,8,02,C0,80,FB,9C,02,02,04,
44870608,00000377,false,Rx,1,8,00,00,00,00,00,00,00,00,
44880465,00000347,false,Rx,1,8,00,00,00,00,00,08,00,00,
44890462,00000357,false,Rx,1,8,00,00,00,00,00,00,00,00,
44900459,00000327,false,Rx,1,8,00,00,00,00,00,00,00,00,
44910456,00000337,false,Rx,1,8,00,00,00,00,00,00,00,00,
44960534,00000207,false,Rx,1,8,1B,E9,C0,CE,C8,00,04,00,
44960774,00000227,false,Rx,1,8,05,00,00,00,03,00,EC,D1,
44961014,00000237,false,Rx,1,8,3B,41,00,00,00,00,00,00,
44961255,00000247,false,Rx,1,8,44,7D,6E,03,00,00,20,00,
44961496,00000717,false,Rx,1,8,11,00,00,00,00,00,02,02,
44970326,00000217,false,Rx,1,8,02,C0,80,FB,9C,02,02,04,
45060533,00000207,false,Rx,1,8,1B,E9,40,D0,C8,00,04,00,
45060779,00000227,false,Rx,1,8,03,00,00,00,00,00,EC,D1,
45061019,00000237,false,Rx,1,8,3B,41,00,00,00,00,00,00,
45061260,00000247,false,Rx,1,8,44,7D,6E,03,00,00,20,00,
45061494,00000717,false,Rx,1,8,12,40,29,00,27,00,17,00,
45070326,00000217,false,Rx,1,8,02,C0,80,FB,9C,02,02,04,
45160490,00000207,false,Rx,1,8,1B,E9,80,D1,C8,00,04,00,
45160729,00000227,false,Rx,1,8,02,00,00,00,03,00,EC,D1,
45160976,00000237,false,Rx,1,8,3B,41,00,00,00,00,00,00,
45161210,00000247,false,Rx,1,8,44,7D,6E,03,00,00,20,00,
45161458,00000717,false,Rx,1,8,13,00,00,00,00,00,00,00,
45170273,00000217,false,Rx,1,8,02,C0,80,FB,9C,02,02,04,
45260483,00000207,false,Rx,1,8,1B,E9,40,D3,C8,00,04,00,
45260729,00000227,false,Rx,1,8,07,00,00,00,00,00,EC,D1,
45260970,00000237,false,Rx,1,8,3B,41,00,00,00,00,00,00,
45261210,00000247,false,Rx,1,8,44,7D,6E,03,00,00,20,00,
45261451,00000717,false,Rx,1,8,14,00,00,00,30,04,00,00,
45270276,00000217,false,Rx,1,8,02,C0,80,FB,9C,02,02,04,
45360472,00000207,false,Rx,1,8,1B,E9,C0,D4,C8,00,04,00,
45360711,00000227,false,Rx,1,8,02,00,00,00,05,00,EC,D1,
45360960,00000237,false,Rx,1,8,3B,41,00,00,00,00,00,00,
45361192,00000247,false,Rx,1,8,44,7D,6E,03,00,00,20,00,
45370261,00000217,false,Rx,1,8,02,C0,80,FB,9C,02,02,04,
45460429,00000207,false,Rx,1,8,1B,E9,80,D6,C8,00,04,00,
45460669,00000227,false,Rx,1,8,05,00,00,00,02,00,EC,D1,
45460916,00000237,false,Rx,1,8,3B,41,00,00,00,00,00,00,
45461156,00000247,false,Rx,1,8,44,7D,6E,03,00,00,20,00,
45461397,00000717,false,Rx,1,8,16,00,00,00,00,00,26,18,
45470227,00000217,false,Rx,1,8,02,C0,80,FB,9C,02,02,04,
45560429,00000207,false,Rx,1,8,1B,E9,80,D8,C8,00,04,00,
45560669,00000227,false,Rx,1,8,02,00,00,00,00,00,EC,D1,
45560916,00000237,false,Rx,1,8,3B,41,00,00,00,00,00,00,
45561148,00000247,false,Rx,1,8,44,7D,6E,03,00,00,20,00,
45561391,00000537,false,Rx,1,8,0B,00,05,06,00,00,00,00,
45561639,00000717,false,Rx,1,8,17,00,00,50,04,00,00,00,
45570217,00000217,false,Rx,1,8,02,C0,80,FB,9C,02,02,04,
45660379,00000207,false,Rx,1,8,1B,E9,C0,D9,C8,00,04,00,
45660618,00000227,false,Rx,1,8,06,00,00,00,00,00,EC,D1,
45660866,00000237,false,Rx,1,8,3B,41,00,00,00,00,00,00,
45661107,00000247,false,Rx,1,8,44,7D,6E,03,00,00,20,00,
45661355,00000717,false,Rx,1,8,18,00,00,00,00,00,00,00,
45670192,00000217,false,Rx,1,8,02,C0,80,FB,9C,02,02,04,
45760377,00000207,false,Rx,1,8,1B,E9,00,DC,C8,00,04,00,
45760615,00000227,false,Rx,1,8,03,00,00,00,00,00,EC,D1,
45760863,00000237,false,Rx,1,8,3B,41,00,00,00,00,00,00,
45761096,00000247,false,Rx,1,8,44,7D,6E,03,00,00,20,00,
45761345,00000717,false,Rx,1,8,19,00,00,00,00,00,00,00,
45770175,00000217,false,Rx,1,8,02,C0,80,FB,9C,02,02,04,
45860263,00000367,false,Rx,1,8,00,00,00,00,00,00,00,00,
45860502,00000207,false,Rx,1,8,1B,E9,80,DD,C8,00,04,00,
45860742,00000227,false,Rx,1,8,09,00,00,00,00,00,EC,D1,
45860990,00000237,false,Rx,1,8,3B,41,00,00,00,00,00,00,
45861230,00000247,false,Rx,1,8,44,7D,6E,03,00,00,20,00,
45861473,00000717,false,Rx,1,8,01,00,00,00,00,00,00,00,
45870156,00000217,false,Rx,1,8,00,C0,80,FB,9C,02,02,04,
45870404,00000377,false,Rx,1,8,00,00,00,00,00,00,00,00,
45880258,00000347,false,Rx,1,8,00,00,00,00,00,08,00,00,
45890256,00000357,false,Rx,1,8,00,00,00,00,00,00,00,00,
45900253,00000327,false,Rx,1,8,00,00,00,00,00,00,00,00,
45910251,00000337,false,Rx,1,8,00,00,00,00,00,00,00,00,
45960321,00000207,false,Rx,1,8,1B,E8,80,DF,C8,00,04,00,
45960567,00000227,false,Rx,1,8,03,00,00,00,03,00,EC,D1,
45960808,00000237,false,Rx,1,8,3B,41,00,00,00,00,00,00,
45961048,00000247,false,Rx,1,8,44,7D,6E,03,00,00,20,00,
45961289,00000717,false,Rx,1,8,02,00,00,00,00,00,00,00,
45970114,00000217,false,Rx,1,8,00,C0,80,FB,9C,02,02,04,
46060310,00000207,false,Rx,1,8,1B,E8,40,E2,C8,00,04,00,
46060558,00000227,false,Rx,1,8,01,00,00,00,01,00,EC,D1,
46060798,00000237,false,Rx,1,8,3B,41,00,00,00,00,00,00,
46061037,00000247,false,Rx,1,8,44,7D,6E,03,00,00,20,00,
46070106,00000217,false,Rx,1,8,00,C0,80,FB,9C,02,02,04,
46160280,00000207,false,Rx,1,8,1B,E8,00,E4,C8,00,04,00,
46160513,00000227,false,Rx,1,8,07,00,00,00,02,00,EC,D1,
46160760,00000237,false,Rx,1,8,3B,41,00,00,00,00,00,00,
46161000,00000247,false,Rx,1,8,44,7D,6E,03,00,00,20,00,
46161250,00000717,false,Rx,1,8,04,00,00,00,00,00,00,00,
46170095,00000217,false,Rx,1,8,00,C0,80,FB,9C,02,02,04,
46260262,00000207,false,Rx,1,8,1B,E8,80,E6,C8,00,04,00,
46260500,00000227,false,Rx,1,8,08,00,00,00,03,00,EC,D1,
46260748,00000237,false,Rx,1,8,3B,41,00,00,00,00,00,00,
46260981,00000247,false,Rx,1,8,44,7D,6E,03,00,00,20,00,
46261229,00000717,false,Rx,1,8,05,00,00,00,00,00,00,00,
46270058,00000217,false,Rx,1,8,00,C0,80,FB,9C,02,02,04,
46360259,00000207,false,Rx,1,8,1B,E8,80,E8,C8,00,04,00,
46360490,00000227,false,Rx,1,8,08,00,00,00,01,00,EC,D1,
46360738,00000237,false,Rx,1,8,3B,41,00,00,00,00,00,00,
46360971,00000247,false,Rx,1,8,44,7D,6E,03,00,00,20,00,
46361211,00000717,false,Rx,1,8,06,00,66,06,66,06,00,40,
46370042,00000217,false,Rx,1,8,00,C0,80,FB,9C,02,02,04,
46460214,00000207,false,Rx,1,8,1B,E8,40,EA,C8,00,04,00,
46460453,00000227,false,Rx,1,8,04,00,00,00,00,00,EC,D1,
46460694,00000237,false,Rx,1,8,3B,41,00,00,00,00,00,00,
46460934,00000247,false,Rx,1,8,44,7D,6E,03,00,00,20,00,
46461174,00000537,false,Rx,1,8,0D,00,00,00,7D,F1,02,85,
46461416,00000717,false,Rx,1,8,07,00,00,00,00,0A,00,00,
46470001,00000217,false,Rx,1,8,00,C0,80,FB,9C,02,02,04,
46560218,00000207,false,Rx,1,8,1B,E8,80,EC,C8,00,04,00,
46560459,00000227,false,Rx,1,8,04,00,00,00,02,00,EC,D1,
46560699,00000237,false,Rx,1,8,3B,41,00,00,00,00,00,00,
46560939,00000247,false,Rx,1,8,44,7D,6E,03,00,00,20,00,
46561188,00000717,false,Rx,1,8,08,00,00,00,66,06,00,00,
46570011,00000217,false,Rx,1,8,00,C0,80,FB,9C,02,02,04,
46660193,00000207,false,Rx,1,8,1B,E8,40,EE,C8,00,04,00,
46660434,00000227,false,Rx,1,8,06,00,00,00,00,00,EC,D1,
46660681,00000237,false,Rx,1,8,3B,41,00,00,00,00,00,00,
46660914,00000247,false,Rx,1,8,44,7D,6E,03,00,00,20,00,
46661155,00000717,false,Rx,1,8,09,00,66,06,00,00,00,00,
46669985,00000217,false,Rx,1,8,00,C0,80,FB,9C,02,02,04,
46760153,00000207,false,Rx,1,8,15,BB,C0,FF,C8,00,04,00,
46760400,00000227,false,Rx,1,8,06,00,00,00,00,00,A0,CD,
46760640,00000237,false,Rx,1,8,3B,41,00,00,00,00,00,00,
46760881,00000247,false,Rx,1,8,44,7D,6E,03,00,00,20,00,
46761128,00000717,false,Rx,1,8,0A,00,00,00,00,00,00,00,
46769944,00000217,false,Rx,1,8,02,00,81,FB,9C,02,02,04,
46860044,00000367,false,Rx,1,8,00,00,00,00,00,00,00,00,
46860291,00000207,false,Rx,1,8,10,88,C0,FF,C8,00,04,00,
46860531,00000227,false,Rx,1,8,07,00,00,00,00,00,1F,C5,
46860772,00000237,false,Rx,1,8,3B,41,00,00,00,00,00,00,
46861012,00000247,false,Rx,1,8,44,7D,6E,03,00,00,20,00,
46861260,00000717,false,Rx,1,8,0B,00,00,00,00,00,00,00,
46869936,00000217,false,Rx,1,8,02,00,81,FB,9C,02,01,04,
46870182,00000377,false,Rx,1,8,00,00,00,00,00,00,00,00,
46880036,00000347,false,Rx,1,8,00,00,00,00,00,08,00,00,
46890033,00000357,false,Rx,1,8,00,00,00,00,00,00,00,00,
46900046,00000327,false,Rx,1,8,00,00,00,00,00,00,00,00,
46910036,00000337,false,Rx,1,8,00,00,00,00,00,00,00,00,
46960114,00000207,false,Rx,1,8,0B,64,C0,FF,C8,00,04,00,
46960361,00000227,false,Rx,1,8,07,00,00,00,00,00,1F,C5,
46960602,00000237,false,Rx,1,8,3B,41,00,00,00,00,00,00,
46960842,00000247,false,Rx,1,8,44,7D,6E,03,00,00,20,00,
46961082,00000717,false,Rx,1,8,0C,01,00,04,04,00,01,00,
46969898,00000217,false,Rx,1,8,02,00,81,FB,9C,02,01,04,
47060111,00000207,false,Rx,1,8,08,49,C0,FF,C8,00,04,00,
47060351,00000227,false,Rx,1,8,03,00,00,00,02,00,1F,C5,
47060600,00000237,false,Rx,1,8,3B,41,00,00,00,00,00,00,
47060840,00000247,false,Rx,1,8,44,7D,6E,03,00,00,20,00,
47061072,00000717,false,Rx,1,8,0E,00,00,02,86,33,00,00,
47069903,00000217,false,Rx,1,8,02,00,81,FB,9C,02,01,04,
47160083,00000207,false,Rx,1,8,06,35,C0,FF,C8,00,04,00,
47160332,00000227,false,Rx,1,8,05,00,00,00,02,00,1F,C5,
47160572,00000237,false,Rx,1,8,3B,41,00,00,00,00,00,00,
47160811,00000247,false,Rx,1,8,44,7D,6E,03,00,00,20,00,
47161052,00000717,false,Rx,1,8,0F,00,EB,01,C7,10,00,00,
47169877,00000217,false,Rx,1,8,02,00,01,FC,9C,02,00,04,
47260046,00000207,false,Rx,1,8,04,27,C0,FF,C8,00,04,00,
47260294,00000227,false,Rx,1,8,06,00,00,00,00,00,1F,C5,
47260534,00000237,false,Rx,1,8,3B,41,00,00,00,00,00,00,
47260774,00000247,false,Rx,1,8,44,7D,6E,03,00,00,20,00,
47261015,00000717,false,Rx,1,8,10,09,C0,FE,03,80,FF,00,
47269837,00000217,false,Rx,1,8,02,00,01,FC,9C,02,00,04,
47360051,00000207,false,Rx,1,8,03,1C,C0,FF,C8,00,04,00,
47360291,00000227,false,Rx,1,8,02,00,00,00,00,00,1F,C5,
47360538,00000237,false,Rx,1,8,3B,41,00,00,00,00,00,00,
47360772,00000247,false,Rx,1,8,44,7D,6E,03,00,00,20,00,
47361019,00000537,false,Rx,1,8,0E,00,00,00,00,00,00,00,
47361268,00000717,false,Rx,1,8,11,00,00,00,00,00,02,02,
47369837,00000217,false,Rx,1,8,02,00,01,FC,9C,02,00,04,
47460010,00000207,false,Rx,1,8,02,15,C0,FF,C8,00,04,00,
47460258,00000227,false,Rx,1,8,04,00,00,00,00,00,1F,C5,
47460498,00000237,false,Rx,1,8,3B,41,00,00,00,00,00,00,
47460739,00000247,false,Rx,1,8,44,7D,6E,03,00,00,20,00,
47460971,00000717,false,Rx,1,8,12,40,29,00,27,00,17,00,
47469817,00000217,false,Rx,1,8,02,00,01,FC,9C,02,00,04,
47559990,00000207,false,Rx,1,8,02,0F,C0,FF,C8,00,04,00,
47560236,00000227,false,Rx,1,8,08,00,00,00,00,00,1F,C5,
47560479,00000237,false,Rx,1,8,3B,41,00,00,00,00,00,00,
47560718,00000247,false,Rx,1,8,44,7D,6E,03,00,00,20,00,
47560966,00000717,false,Rx,1,8,13,00,00,00,00,00,00,00,
47569792,00000217,false,Rx,1,8,02,00,01,FC,9C,02,00,04,
47659993,00000207,false,Rx,1,8,01,0B,C0,FF,C8,00,04,00,
47660233,00000227,false,Rx,1,8,05,00,00,00,02,00,1F,C5,
47660474,00000237,false,Rx,1,8,3B,41,00,00,00,00,00,00,
47660714,00000247,false,Rx,1,8,44,7D,6E,03,00,00,20,00,
47660962,00000717,false,Rx,1,8,14,00,00,00,12,00,00,00,
47669769,00000217,false,Rx,1,8,02,00,01,FC,9C,02,00,04,
47759950,00000207,false,Rx,1,8,01,08,C0,FF,C8,00,04,00,
47760190,00000227,false,Rx,1,8,05,00,00,00,01,00,1F,C5,
47760431,00000237,false,Rx,1,8,3B,41,00,00,00,00,00,00,
47760671,00000247,false,Rx,1,8,44,7D,6E,03,00,00,20,00,
47769740,00000217,false,Rx,1,8,02,00,01,FC,9C,02,00,04,
47859847,00000367,false,Rx,1,8,00,00,00,00,00,00,00,00,
47860094,00000207,false,Rx,1,8,01,06,C0,FF,C8,00,04,00,
47860342,00000227,false,Rx,1,8,06,00,00,00,00,00,1F,C5,
47860582,00000237,false,Rx,1,8,3B,41,00,00,00,00,00,00,
47860823,00000247,false,Rx,1,8,44,7D,6E,03,00,00,20,00,
47861063,00000717,false,Rx,1,8,16,00,00,00,00,00,B6,45,
47869733,00000217,false,Rx,1,8,02,00,01,FC,9C,02,00,04,
47869980,00000377,false,Rx,1,8,00,00,00,00,00,00,00,00,
47879826,00000347,false,Rx,1,8,00,00,00,00,00,08,00,00,
47889827,00000357,false,Rx,1,8,00,00,00,00,00,00,00,00,
47899825,00000327,false,Rx,1,8,00,00,00,00,00,00,00,00,
47909823,00000337,false,Rx,1,8,00,00,00,00,00,00,00,00,
47959918,00000207,false,Rx,1,8,01,04,C0,FF,C8,00,04,00,
47960164,00000227,false,Rx,1,8,05,00,00,00,00,00,1F,C5,
47960405,00000237,false,Rx,1,8,3B,41,00,00,00,00,00,00,
47960646,00000247,false,Rx,1,8,44,7D,6E,03,00,00,20,00,
47960886,00000717,false,Rx,1,8,17,00,00,50,04,00,00,00,
47969702,00000217,false,Rx,1,8,02,00,01,FC,9C,02,00,04,
48059890,00000207,false,Rx,1,8,00,03,C0,FF,C8,00,04,00,
48060129,00000227,false,Rx,1,8,05,00,00,00,00,00,1F,C5,
48060371,00000237,false,Rx,1,8,3B,41,00,00,00,00,00,00,
48060611,00000247,false,Rx,1,8,44,7D,6E,03,00,00,20,00,
48060858,00000717,false,Rx,1,8,18,00,00,00,00,00,00,00,
48069661,00000217,false,Rx,1,8,02,00,01,FC,9C,02,00,04,
48159895,00000207,false,Rx,1,8,00,02,C0,FF,C8,00,04,00,
48160133,00000227,false,Rx,1,8,04,00,00,00,02,00,1F,C5,
48160375,00000237,false,Rx,1,8,3B,41,00,00,00,00,00,00,
48160615,00000247,false,Rx,1,8,44,7D,6E,03,00,00,20,00,
48160863,00000717,false,Rx,1,8,19,00,00,00,00,00,00,00,
48169673,00000217,false,Rx,1,8,02,00,01,FC,9C,02,00,04,
48259839,00000207,false,Rx,1,8,00,02,C0,FF,C8,00,04,00,
48260079,00000227,false,Rx,1,8,09,00,00,00,04,00,1F,C5,
48260327,00000237,false,Rx,1,8,3B,41,00,00,00,00,00,00,
48260560,00000247,false,Rx,1,8,44,7D,6E,03,00,00,20,00,
48260793,00000537,false,Rx,1,8,0F,00,00,00,8C,A1,70,0A,
48261048,00000717,false,Rx,1,8,01,00,00,00,00,00,00,00,
48269628,00000217,false,Rx,1,8,02,00,01,FC,9C,02,00,04,
48359843,00000207,false,Rx,1,8,00,01,C0,FF,C8,00,04,00,
48360089,00000227,false,Rx,1,8,02,00,00,00,00,00,1F,C5,
48360330,00000237,false,Rx,1,8,3B,41,00,00,00,00,00,00,
48360570,00000247,false,Rx,1,8,44,7D,6E,03,00,00,20,00,
48360811,00000717,false,Rx,1,8,02,00,00,00,00,00,00,00,
48369618,00000217,false,Rx,1,8,02,40,01,FC,9C,02,00,04,
48459817,00000207,false,Rx,1,8,00,01,C0,FF,C8,00,04,00,
48460063,00000227,false,Rx,1,8,07,00,00,00,00,00,1F,C5,
48460305,00000237,false,Rx,1,8,3B,41,00,00,00,00,00,00,
48460546,00000247,false,Rx,1,8,44,7D,6E,03,00,00,20,00,
48469592,00000217,false,Rx,1,8,02,40,81,FC,9C,02,00,04,
48559779,00000207,false,Rx,1,8,00,01,C0,FF,C8,00,04,00,
48560018,00000227,false,Rx,1,8,03,00,00,00,00,00,1F,C5,
48560266,00000237,false,Rx,1,8,3B,41,00,00,00,00,00,00,
48560500,00000247,false,Rx,1,8,44,7D,6E,03,00,00,20,00,
48560755,00000717,false,Rx,1,8,04,00,00,00,00,00,00,00,
48569563,00000217,false,Rx,1,8,02,40,81,FC,9C,02,00,04,
48659781,00000207,false,Rx,1,8,00,00,C0,FF,C8,00,04,00,
48660028,00000227,false,Rx,1,8,05,00,00,00,01,00,1F,C5,
48660270,00000237,false,Rx,1,8,3B,41,00,00,00,00,00,00,
48660510,00000247,false,Rx,1,8,44,7D,6E,03,00,00,20,00,
48660750,00000717,false,Rx,1,8,05,00,00,00,00,00,00,00,
48669553,00000217,false,Rx,1,8,02,40,81,FC,9C,02,00,04,
48759729,00000207,false,Rx,1,8,00,00,C0,FF,C8,00,04,00,
48759969,00000227,false,Rx,1,8,05,00,00,00,05,00,1F,C5,
48760216,00000237,false,Rx,1,8,3B,41,00,00,00,00,00,00,
48760450,00000247,false,Rx,1,8,44,7D,6E,03,00,00,20,00,
48760689,00000717,false,Rx,1,8,06,00,FE,45,66,06,00,40,
48769529,00000217,false,Rx,1,8,02,40,81,FC,9C,02,00,04,
48859640,00000367,false,Rx,1,8,00,00,00,00,00,00,00,00,
48859887,00000207,false,Rx,1,8,00,00,C0,FF,C8,00,04,00,
48860127,00000227,false,Rx,1,8,00,00,00,00,00,00,1F,C5,
48860375,00000237,false,Rx,1,8,3B,41,00,00,00,00,00,00,
48860609,00000247,false,Rx,1,8,44,7D,6E,03,00,00,20,00,
48860856,00000717,false,Rx,1,8,07,00,00,00,02,0A,00,00,
48869505,00000217,false,Rx,1,8,02,40,81,FC,9C,02,00,04,
48869751,00000377,false,Rx,1,8,00,00,00,00,00,00,00,00,
48879635,00000347,false,Rx,1,8,00,00,00,00,00,08,00,00,
48889623,00000357,false,Rx,1,8,00,00,00,00,00,00,00,00,
48899628,00000327,false,Rx,1,8,00,00,00,00,00,00,00,00,
48909610,00000337,false,Rx,1,8,00,00,00,00,00,00,00,00,
48959713,00000207,false,Rx,1,8,00,00,C0,FF,C8,00,04,00,
48959952,00000227,false,Rx,1,8,06,00,00,00,02,00,1F,C5,
48960199,00000237,false,Rx,1,8,3B,41,00,00,00,00,00,00,
48960434,00000247,false,Rx,1,8,44,7D,6E,03,00,00,20,00,
48960681,00000717,false,Rx,1,8,08,00,00,00,3E,46,00,00,
48969492,00000217,false,Rx,1,8,02,40,81,FC,9C,02,00,04,
49059665,00000207,false,Rx,1,8,00,00,C0,FF,C8,00,04,00,
49059911,00000227,false,Rx,1,8,05,00,00,00,01,00,1F,C5,
49060151,00000237,false,Rx,1,8,3B,41,00,00,00,00,00,00,
49060393,00000247,false,Rx,1,8,44,7D,6E,03,00,00,20,00,
49060633,00000717,false,Rx,1,8,09,00,FA,45,00,00,00,00,
49069449,00000217,false,Rx,1,8,02,40,81,FC,9C,02,00,04,
49159669,00000207,false,Rx,1,8,00,00,C0,FF,C8,00,04,00,
49159915,00000227,false,Rx,1,8,07,00,00,00,00,00,1F,C5,
49160156,00000237,false,Rx,1,8,3B,41,00,00,00,00,00,00,
49160397,00000247,false,Rx,1,8,44,7D,6E,03,00,00,20,00,
49160645,00000537,false,Rx,1,8,10,00,00,0A,00,00,00,00,
49160886,00000717,false,Rx,1,8,0A,00,00,00,00,00,00,00,
49169442,00000217,false,Rx,1,8,02,40,81,FC,9C,02,00,04,
49259633,00000207,false,Rx,1,8,00,00,C0,FF,C8,00,04,00,
49259872,00000227,false,Rx,1,8,03,00,00,00,01,00,1F,C5,
49260121,00000237,false,Rx,1,8,3B,41,00,00,00,00,00,00,
49260354,00000247,false,Rx,1,8,44,7D,6E,03,00,00,20,00,
49260601,00000717,false,Rx,1,8,0B,00,00,00,00,00,00,00,
49269428,00000217,false,Rx,1,8,02,40,81,FC,9C,02,00,04,
49359605,00000207,false,Rx,1,8,00,00,C0,FF,C8,00,04,00,
49359852,00000227,false,Rx,1,8,02,00,00,00,00,00,1F,C5,
49360092,00000237,false,Rx,1,8,3B,41,00,00,00,00,00,00,
49360333,00000247,false,Rx,1,8,44,7D,6E,03,00,00,20,00,
49360574,00000717,false,Rx,1,8,0C,01,00,04,04,00,01,00,
49369390,00000217,false,Rx,1,8,02,40,81,FC,9C,02,00,04,
49459611,00000207,false,Rx,1,8,00,00,C0,FF,C8,00,04,00,
49459850,00000227,false,Rx,1,8,04,00,00,00,02,00,1F,C5,
49460097,00000237,false,Rx,1,8,3B,41,00,00,00,00,00,00,
49460338,00000247,false,Rx,1,8,44,7D,6E,03,00,00,20,00,
49460572,00000717,false,Rx,1,8,0E,00,00,02,E6,3C,00,00,
49469379,00000217,false,Rx,1,8,02,40,81,FC,9C,02,00,04,
49559541,00000207,false,Rx,1,8,00,00,C0,FF,C8,00,04,00,
49559787,00000227,false,Rx,1,8,03,00,00,00,01,00,1F,C5,
49560034,00000237,false,Rx,1,8,3B,41,00,00,00,00,00,00,
49560269,00000247,false,Rx,1,8,44,7D,6E,03,00,00,20,00,
49560509,00000717,false,Rx,1,8,0F,00,EB,01,F1,0D,00,00,
49569341,00000217,false,Rx,1,8,02,40,81,FC,9C,02,00,04,
49659563,00000207,false,Rx,1,8,00,00,C0,FF,C8,00,04,00,
49659802,00000227,false,Rx,1,8,02,00,00,00,00,00,1F,C5,
49660049,00000237,false,Rx,1,8,3B,41,00,00,00,00,00,00,
49660284,00000247,false,Rx,1,8,44,7D,6E,03,00,00,20,00,
49660524,00000717,false,Rx,1,8,10,0A,F0,FE,03,80,FF,00,
49669342,00000217,false,Rx,1,8,02,40,81,FC,9C,02,00,04,
49759549,00000207,false,Rx,1,8,00,00,00,00,C8,00,04,00,
49759796,00000227,false,Rx,1,8,00,00,00,00,00,00,1F,C5,
49760037,00000237,false,Rx,1,8,3B,41,00,00,00,00,00,00,
49760278,00000247,false,Rx,1,8,44,7D,6E,03,00,00,20,00,
49760525,00000717,false,Rx,1,8,11,00,00,00,00,00,02,02,
49769319,00000217,false,Rx,1,8,02,40,81,FC,9C,02,00,04,
49859407,00000367,false,Rx,1,8,00,00,00,00,00,00,00,00,
49859653,00000207,false,Rx,1,8,00,00,C0,FF,C8,00,04,00,
49859894,00000227,false,Rx,1,8,03,00,00,00,03,00,1F,C5,
49860141,00000237,false,Rx,1,8,3B,41,00,00,00,00,00,00,
49860375,00000247,false,Rx,1,8,44,7D,6E,03,00,00,20,00,
49860616,00000717,false,Rx,1,8,12,40,29,00,27,00,17,00,
49869277,00000217,false,Rx,1,8,02,40,81,FC,9C,02,00,04,
49869523,00000377,false,Rx,1,8,00,00,00,00,00,00,00,00,
49879402,00000347,false,Rx,1,8,00,00,00,00,00,08,00,00,
49889414,00000357,false,Rx,1,8,00,00,00,00,00,00,00,00,
49899411,00000327,false,Rx,1,8,00,00,00,00,00,00,00,00,
49909409,00000337,false,Rx,1,8,00,00,00,00,00,00,00,00,
49959484,00000207,false,Rx,1,8,00,00,C0,FF,C8,00,04,00,
49959732,00000227,false,Rx,1,8,01,00,00,00,00,00,1F,C5,
49959972,00000237,false,Rx,1,8,3B,41,00,00,00,00,00,00,
49960211,00000247,false,Rx,1,8,44,7D,6E,03,00,00,20,00,
49960461,00000717,false,Rx,1,8,13,00,00,00,00,00,00,00,
49969276,00000217,false,Rx,1,8,02,40,81,FC,9C,02,00,04,
50059448,00000207,false,Rx,1,8,00,00,C0,FF,C8,00,04,00,
50059694,00000227,false,Rx,1,8,04,00,00,00,00,00,1F,C5,
50059934,00000237,false,Rx,1,8,3B,41,00,00,00,00,00,00,
50060174,00000247,false,Rx,1,8,44,7D,6E,03,00,00,20,00,
50060425,00000537,false,Rx,1,8,11,00,00,00,00,00,00,00,
50060672,00000717,false,Rx,1,8,14,00,00,00,2E,00,00,00,
50069236,00000217,false,Rx,1,8,02,40,81,FC,9C,02,00,04,
50159445,00000207,false,Rx,1,8,00,00,C0,FF,C8,00,04,00,
50159691,00000227,false,Rx,1,8,02,00,00,00,00,00,1F,C5,
50159939,00000237,false,Rx,1,8,3B,41,00,00,00,00,00,00,
50160172,00000247,false,Rx,1,8,44,7D,6E,03,00,00,20,00,
50169239,00000217,false,Rx,1,8,02,40,81,FC,9C,02,00,04,
50259427,00000207,false,Rx,1,8,00,00,00,00,C8,00,04,00,
50259673,00000227,false,Rx,1,8,04,00,00,00,01,00,1F,C5,
50259914,00000237,false,Rx,1,8,3B,41,00,00,00,00,00,00,
50260154,00000247,false,Rx,1,8,44,7D,6E,03,00,00,20,00,
50260395,00000717,false,Rx,1,8,16,00,00,00,00,00,1E,46,
50269210,00000217,false,Rx,1,8,02,40,81,FC,9C,02,00,04,
50359372,00000207,false,Rx,1,8,00,00,C0,FF,C8,00,04,00,
50359618,00000227,false,Rx,1,8,01,00,00,00,00,00,1F,C5,
50359859,00000237,false,Rx,1,8,3B,41,00,00,00,00,00,00,
50360099,00000247,false,Rx,1,8,44,7D,6E,03,00,00,20,00,
50360347,00000717,false,Rx,1,8,17,00,00,50,04,00,00,00,
50369170,00000217,false,Rx,1,8,02,40,81,FC,9C,02,00,04,
50459376,00000207,false,Rx,1,8,00,00,00,00,C8,00,04,00,
50459624,00000227,false,Rx,1,8,03,00,00,00,00,00,1F,C5,
50459864,00000237,false,Rx,1,8,3B,41,00,00,00,00,00,00,
50460103,00000247,false,Rx,1,8,44,7D,6E,03,00,00,20,00,
50460354,00000717,false,Rx,1,8,18,00,00,00,00,00,00,00,
50469176,00000217,false,Rx,1,8,02,40,81,FC,9C,02,00,04,
50559333,00000207,false,Rx,1,8,00,00,C0,FF,C8,00,04,00,
50559580,00000227,false,Rx,1,8,04,00,00,00,05,00,1F,C5,
50559820,00000237,false,Rx,1,8,3B,41,00,00,00,00,00,00,
50560060,00000247,false,Rx,1,8,44,7D,6E,03,00,00,20,00,
50560309,00000717,false,Rx,1,8,19,00,00,00,00,00,00,00,
50569149,00000217,false,Rx,1,8,02,40,81,FC,9C,02,00,04,
50659324,00000207,false,Rx,1,8,00,00,C0,FF,C8,00,04,00,
50659570,00000227,false,Rx,1,8,06,00,00,00,00,00,1F,C5,
50659817,00000237,false,Rx,1,8,3B,41,00,00,00,00,00,00,
50660051,00000247,false,Rx,1,8,44,7D,6E,03,00,00,20,00,
50660300,00000717,false,Rx,1,8,01,00,00,00,00,00,00,00,
50669123,00000217,false,Rx,1,8,02,40,81,FC,9C,02,00,04,
50759316,00000207,false,Rx,1,8,00,00,00,00,C8,00,04,00,
50759562,00000227,false,Rx,1,8,01,00,00,00,00,00,1F,C5,
50759802,00000237,false,Rx,1,8,3B,41,00,00,00,00,00,00,
50760043,00000247,false,Rx,1,8,44,7D,6E,03,00,00,20,00,
50760292,00000717,false,Rx,1,8,02,00,00,00,00,00,00,00,
50769101,00000217,false,Rx,1,8,02,40,81,FC,9C,02,00,04,
50859199,00000367,false,Rx,1,8,00,00,00,00,00,00,00,00,
50859447,00000207,false,Rx,1,8,00,00,00,00,C8,00,04,00,
50859688,00000227,false,Rx,1,8,07,00,00,00,01,00,1F,C5,
50859928,00000237,false,Rx,1,8,3B,41,00,00,00,00,00,00,
50860168,00000247,false,Rx,1,8,44,7D,6E,03,00,00,20,00,
50869061,00000217,false,Rx,1,8,02,40,81,FC,9C,02,00,04,
50869308,00000377,false,Rx,1,8,00,00,00,00,00,00,00,00,
50879192,00000347,false,Rx,1,8,00,00,00,00,00,08,00,00,
50889189,00000357,false,Rx,1,8,00,00,00,00,00,00,00,00,
50899187,00000327,false,Rx,1,8,00,00,00,00,00,00,00,00,
50909184,00000337,false,Rx,1,8,00,00,00,00,00,00,00,00,
50959278,00000207,false,Rx,1,8,00,00,C0,FF,C8,00,04,00,
50959525,00000227,false,Rx,1,8,01,00,00,00,00,00,1F,C5,
50959765,00000237,false,Rx,1,8,3B,41,00,00,00,00,00,00,
50960005,00000247,false,Rx,1,8,44,7D,6E,03,00,00,20,00,
50960237,00000537,false,Rx,1,8,12,03,E9,DA,DC,E1,B0,3F,
50960487,00000717,false,Rx,1,8,04,00,00,00,00,00,00,00,
50969063,00000217,false,Rx,1,8,02,40,81,FC,9C,02,00,04,
51059239,00000207,false,Rx,1,8,00,00,C0,FF,C8,00,04,00,
51059480,00000227,false,Rx,1,8,06,00,00,00,03,00,1F,C5,
51059727,00000237,false,Rx,1,8,3B,41,00,00,00,00,00,00,
51059967,00000247,false,Rx,1,8,44,7D,6E,03,00,00,20,00,
51060208,00000717,false,Rx,1,8,05,00,00,00,00,00,00,00,
51069040,00000217,false,Rx,1,8,02,40,81,FC,9C,02,00,04,
51159208,00000207,false,Rx,1,8,00,00,C0,FF,C8,00,04,00,
51159455,00000227,false,Rx,1,8,04,00,00,00,00,00,1F,C5,
51159703,00000237,false,Rx,1,8,3B,41,00,00,00,00,00,00,
51159942,00000247,false,Rx,1,8,44,7D,6E,03,00,00,20,00,
51160176,00000717,false,Rx,1,8,06,00,62,46,66,06,00,40,
51169000,00000217,false,Rx,1,8,02,40,81,FC,9C,02,00,04,
51259205,00000207,false,Rx,1,8,00,00,C0,FF,C8,00,04,00,
51259453,00000227,false,Rx,1,8,02,00,00,00,03,00,1F,C5,
51259692,00000237,false,Rx,1,8,3B,41,00,00,00,00,00,00,
51259934,00000247,false,Rx,1,8,44,7D,6E,03,00,00,20,00,
51260173,00000717,false,Rx,1,8,07,00,00,00,02,0A,00,00,
51269005,00000217,false,Rx,1,8,02,40,81,FC,9C,02,00,04,
51359182,00000207,false,Rx,1,8,00,00,00,00,C8,00,04,00,
51359422,00000227,false,Rx,1,8,05,00,00,00,00,00,1F,C5,
51359671,00000237,false,Rx,1,8,3B,41,00,00,00,00,00,00,
51359903,00000247,false,Rx,1,8,44,7D,6E,03,00,00,20,00,
51360143,00000717,false,Rx,1,8,08,00,00,00,EA,45,00,00,
51368951,00000217,false,Rx,1,8,02,00,82,FC,9C,02,00,04,
51459165,00000207,false,Rx,1,8,12,9F,00,39,C8,00,04,00,
51459405,00000227,false,Rx,1,8,06,00,00,00,02,00,1F,C5,
51459653,00000237,false,Rx,1,8,3B,41,00,00,00,00,00,00,
51459893,00000247,false,Rx,1,8,44,7D,6E,03,00,00,20,00,
51460133,00000717,false,Rx,1,8,09,00,66,06,00,00,00,00,
51468950,00000217,false,Rx,1,8,00,00,82,FC,9C,02,01,04,
51559141,00000207,false,Rx,1,8,17,C5,80,39,C8,00,04,00,
51559382,00000227,false,Rx,1,8,02,00,00,00,04,00,13,D1,
51559630,00000237,false,Rx,1,8,3B,41,00,00,00,00,00,00,
51559862,00000247,false,Rx,1,8,44,7D,6E,03,00,00,20,00,
51560111,00000717,false,Rx,1,8,0A,00,00,00,00,00,00,00,
51568935,00000217,false,Rx,1,8,00,C0,81,FC,9C,02,02,04,
51659101,00000207,false,Rx,1,8,19,D7,C0,39,C8,00,04,00,
51659342,00000227,false,Rx,1,8,01,00,00,00,03,00,EC,D1,
51659582,00000237,false,Rx,1,8,3B,41,00,00,00,00,00,00,
51659822,00000247,false,Rx,1,8,44,7D,6E,03,00,00,20,00,
51660071,00000717,false,Rx,1,8,0B,00,00,00,00,00,00,00,
51668895,00000217,false,Rx,1,8,00,C0,01,FC,9C,02,02,04,
51759101,00000207,false,Rx,1,8,1A,E0,C0,39,C8,00,04,00,
51759348,00000227,false,Rx,1,8,07,00,00,00,00,00,EC,D1,
51759588,00000237,false,Rx,1,8,3B,41,00,00,00,00,00,00,
51759829,00000247,false,Rx,1,8,44,7D,6E,03,00,00,20,00,
51760069,00000717,false,Rx,1,8,0C,00,00,04,04,00,01,00,
51768892,00000217,false,Rx,1,8,00,C0,01,FC,9C,02,02,04,
51858978,00000367,false,Rx,1,8,00,00,00,00,00,00,00,00,
51859217,00000207,false,Rx,1,8,1A,E5,40,3A,C8,00,04,00,
51859451,00000227,false,Rx,1,8,09,00,00,00,03,00,EC,D1,
51859699,00000237,false,Rx,1,8,3B,41,00,00,00,00,00,00,
51859939,00000247,false,Rx,1,8,44,7D,6E,03,00,00,20,00,
51860179,00000537,false,Rx,1,8,13,01,FE,00,00,FC,00,00,
51860421,00000717,false,Rx,1,8,0E,00,00,02,46,46,00,00,
51868852,00000217,false,Rx,1,8,00,C0,01,FC,9C,02,02,04,
51869099,00000377,false,Rx,1,8,00,00,00,00,00,00,00,00,
51878968,00000347,false,Rx,1,8,00,00,00,00,00,08,00,00,
51888966,00000357,false,Rx,1,8,00,00,00,00,00,00,00,00,
51898963,00000327,false,Rx,1,8,00,00,00,00,00,00,00,00,
51908960,00000337,false,Rx,1,8,00,00,00,00,00,00,00,00,
51959056,00000207,false,Rx,1,8,1B,E8,00,3A,C8,00,04,00,
51959303,00000227,false,Rx,1,8,08,00,00,00,00,00,EC,D1,
51959544,00000237,false,Rx,1,8,3B,41,00,00,00,00,00,00,
51959784,00000247,false,Rx,1,8,44,7D,6E,03,00,00,20,00,
51960016,00000717,false,Rx,1,8,0F,00,EB,01,3C,0E,00,00,
51968848,00000217,false,Rx,1,8,00,C0,01,FC,9C,02,02,04,
52059047,00000207,false,Rx,1,8,1B,E8,00,3A,C8,00,04,00,
52059286,00000227,false,Rx,1,8,05,00,00,00,02,00,EC,D1,
52059528,00000237,false,Rx,1,8,3B,41,00,00,00,00,00,00,
52059768,00000247,false,Rx,1,8,44,7D,6E,03,00,00,20,00,
52060008,00000717,false,Rx,1,8,10,08,B0,FE,03,80,FF,00,
52068832,00000217,false,Rx,1,8,00,C0,01,FC,9C,02,02,04,
52159000,00000207,false,Rx,1,8,1B,E9,00,3A,C8,00,04,00,
52159242,00000227,false,Rx,1,8,07,00,00,00,03,00,EC,D1,
52159482,00000237,false,Rx,1,8,3B,41,00,00,00,00,00,00,
52159722,00000247,false,Rx,1,8,44,7D,6E,03,00,00,20,00,
52159963,00000717,false,Rx,1,8,11,00,00,00,00,00,02,02,
52168793,00000217,false,Rx,1,8,00,C0,01,FC,9C,02,02,04,
52258991,00000207,false,Rx,1,8,1B,E9,C0,39,C8,00,04,00,
52259230,00000227,false,Rx,1,8,03,00,00,00,00,00,EC,D1,
52259472,00000237,false,Rx,1,8,3B,41,00,00,00,00,00,00,
52259712,00000247,false,Rx,1,8,44,7D,6E,03,00,00,20,00,
52259953,00000717,false,Rx,1,8,12,40,29,00,27,00,17,00,
52268785,00000217,false,Rx,1,8,00,C0,01,FC,9C,02,02,04,
52358948,00000207,false,Rx,1,8,1B,EA,C0,39,C8,00,04,00,
52359187,00000227,false,Rx,1,8,05,00,00,00,02,00,EC,D1,
52359435,00000237,false,Rx,1,8,3B,41,00,00,00,00,00,00,
52359669,00000247,false,Rx,1,8,44,7D,6E,03,00,00,20,00,
52359916,00000717,false,Rx,1,8,13,00,00,00,00,00,00,00,
52368763,00000217,false,Rx,1,8,00,C0,01,FC,9C,02,02,04,
52458948,00000207,false,Rx,1,8,1B,EA,40,39,C8,00,04,00,
52459187,00000227,false,Rx,1,8,06,00,00,00,01,00,EC,D1,
52459429,00000237,false,Rx,1,8,3B,41,00,00,00,00,00,00,
52459669,00000247,false,Rx,1,8,44,7D,6E,03,00,00,20,00,
52459908,00000717,false,Rx,1,8,14,00,00,00,66,31,00,00,
52468732,00000217,false,Rx,1,8,00,C0,01,FC,9C,02,02,04,
52558938,00000207,false,Rx,1,8,1B,EA,40,39,C8,00,04,00,
52559169,00000227,false,Rx,1,8,07,00,00,00,06,00,EC,D1,
52559411,00000237,false,Rx,1,8,3B,41,00,00,00,00,00,00,
52559651,00000247,false,Rx,1,8,44,7D,6E,03,00,00,20,00,
52568724,00000217,false,Rx,1,8,00,C0,01,FC,9C,02,02,04,
52658890,00000207,false,Rx,1,8,1B,EA,00,39,C8,00,04,00,
52659130,00000227,false,Rx,1,8,06,00,00,00,08,00,EC,D1,
52659371,00000237,false,Rx,1,8,3B,41,00,00,00,00,00,00,
52659611,00000247,false,Rx,1,8,44,7D,6E,03,00,00,20,00,
52659850,00000717,false,Rx,1,8,16,00,00,00,00,00,66,92,
52668668,00000217,false,Rx,1,8,00,C0,81,FB,9C,02,02,04,
52758887,00000207,false,Rx,1,8,1B,EA,80,38,C8,00,04,00,
52759127,00000227,false,Rx,1,8,0B,00,00,00,00,00,EC,D1,
52759368,00000237,false,Rx,1,8,3B,41,00,00,00,00,00,00,
52759608,00000247,false,Rx,1,8,44,7D,6E,03,00,00,20,00,
52759856,00000537,false,Rx,1,8,14,05,00,00,00,00,00,00,
52760096,00000717,false,Rx,1,8,17,00,00,50,04,00,00,00,
52768676,00000217,false,Rx,1,8,00,C0,81,FB,9C,02,02,04,
52858764,00000367,false,Rx,1,8,00,00,00,00,00,00,00,00,
52859011,00000207,false,Rx,1,8,1B,EA,80,38,C8,00,04,00,
52859252,00000227,false,Rx,1,8,06,00,00,00,00,00,EC,D1,
52859492,00000237,false,Rx,1,8,3B,41,00,00,00,00,00,00,
52859732,00000247,false,Rx,1,8,44,7D,6E,03,00,00,20,00,
52859980,00000717,false,Rx,1,8,18,00,00,00,00,00,00,00,
52868663,00000217,false,Rx,1,8,00,C0,81,FB,9C,02,02,04,
52868911,00000377,false,Rx,1,8,00,00,00,00,00,00,00,00,
52878764,00000347,false,Rx,1,8,00,00,00,00,00,08,00,00,
52888760,00000357,false,Rx,1,8,00,00,00,00,00,00,00,00,
52898759,00000327,false,Rx,1,8,00,00,00,00,00,00,00,00,
52908757,00000337,false,Rx,1,8,00,00,00,00,00,00,00,00,
52958827,00000207,false,Rx,1,8,1B,EA,C0,37,C8,00,04,00,
52959065,00000227,false,Rx,1,8,08,00,00,00,00,00,EC,D1,
52959314,00000237,false,Rx,1,8,3B,41,00,00,00,00,00,00,
52959547,00000247,false,Rx,1,8,44,7D,6E,03,00,00,20,00,
52959795,00000717,false,Rx,1,8,19,00,00,00,00,00,00,00,
52968619,00000217,false,Rx,1,8,00,C0,81,FB,9C,02,02,04,
53058824,00000207,false,Rx,1,8,1B,EA,40,37,C8,00,04,00,
53059063,00000227,false,Rx,1,8,06,00,00,00,07,00,EC,D1,
53059312,00000237,false,Rx,1,8,3B,41,00,00,00,00,00,00,
53059545,00000247,false,Rx,1,8,44,7D,6E,03,00,00,20,00,
53059800,00000717,false,Rx,1,8,01,00,00,00,00,00,00,00,
53068608,00000217,false,Rx,1,8,00,C0,81,FB,9C,02,02,04,
53158781,00000207,false,Rx,1,8,1B,EA,00,37,C8,00,04,00,
53159020,00000227,false,Rx,1,8,07,00,00,00,03,00,EC,D1,
53159263,00000237,false,Rx,1,8,3B,41,00,00,00,00,00,00,
53159503,00000247,false,Rx,1,8,44,7D,6E,03,00,00,20,00,
53159750,00000717,false,Rx,1,8,02,00,00,00,00,00,00,00,
53168574,00000217,false,Rx,1,8,00,C0,81,FB,9C,02,02,04,
53258783,00000207,false,Rx,1,8,1B,EA,00,36,C8,00,04,00,
53259023,00000227,false,Rx,1,8,04,00,00,00,00,00,EC,D1,
53259272,00000237,false,Rx,1,8,3B,41,00,00,00,00,00,00,
53259512,00000247,false,Rx,1,8,44,7D,6E,03,00,00,20,00,
53268574,00000217,false,Rx,1,8,00,C0,81,FB,9C,02,02,04,
53358759,00000207,false,Rx,1,8,1B,E9,C0,35,C8,00,04,00,
53358998,00000227,false,Rx,1,8,06,00,00,00,00,00,EC,D1,
53359246,00000237,false,Rx,1,8,3B,41,00,00,00,00,00,00,
53359486,00000247,false,Rx,1,8,44,7D,6E,03,00,00,20,00,
53359727,00000717,false,Rx,1,8,04,00,00,00,00,00,00,00,
53368553,00000217,false,Rx,1,8,00,C0,81,FB,9C,02,02,04,
53458719,00000207,false,Rx,1,8,1B,EA,00,35,C8,00,04,00,
53458957,00000227,false,Rx,1,8,06,00,00,00,00,00,EC,D1,
53459205,00000237,false,Rx,1,8,3B,41,00,00,00,00,00,00,
53459440,00000247,false,Rx,1,8,44,7D,6E,03,00,00,20,00,
53459687,00000717,false,Rx,1,8,05,00,00,00,00,00,00,00,
53468509,00000217,false,Rx,1,8,00,C0,81,FB,9C,02,02,04,
53558721,00000207,false,Rx,1,8,1B,E9,40,34,C8,00,04,00,
53558960,00000227,false,Rx,1,8,05,00,00,00,00,00,EC,D1,
53559208,00000237,false,Rx,1,8,3B,41,00,00,00,00,00,00,
53559442,00000247,false,Rx,1,8,44,7D,6E,03,00,00,20,00,
53559682,00000717,false,Rx,1,8,06,00,66,06,66,06,00,40,
53568515,00000217,false,Rx,1,8,00,C0,81,FB,9C,02,02,04,
53658676,00000207,false,Rx,1,8,1B,E9,80,33,C8,00,04,00,
53658915,00000227,false,Rx,1,8,08,00,00,00,01,00,EC,D1,
53659164,00000237,false,Rx,1,8,3B,41,00,00,00,00,00,00,
53659397,00000247,false,Rx,1,8,44,7D,6E,03,00,00,20,00,
53659644,00000717,false,Rx,1,8,07,00,00,00,00,0A,00,00,
53668468,00000217,false,Rx,1,8,00,C0,81,FB,9C,02,02,04,
53758670,00000207,false,Rx,1,8,1B,E9,80,32,C8,00,04,00,
53758917,00000227,false,Rx,1,8,0C,00,00,00,00,00,EC,D1,
53759157,00000237,false,Rx,1,8,3B,41,00,00,00,00,00,00,
53759398,00000247,false,Rx,1,8,44,7D,6E,03,00,00,20,00,
53759638,00000717,false,Rx,1,8,08,00,00,00,66,06,00,00,
53768465,00000217,false,Rx,1,8,00,C0,81,FB,9C,02,02,04,
53858546,00000367,false,Rx,1,8,00,00,00,00,00,00,00,00,
53858786,00000207,false,Rx,1,8,1B,E9,00,32,C8,00,04,00,
53859026,00000227,false,Rx,1,8,07,00,00,00,02,00,EC,D1,
53859268,00000237,false,Rx,1,8,3B,41,00,00,00,00,00,00,
53859509,00000247,false,Rx,1,8,44,7D,6E,03,00,00,20,00,
53859749,00000717,false,Rx,1,8,09,00,66,06,00,00,00,00,
53868441,00000217,false,Rx,1,8,00,C0,81,FB,9C,02,02,04,
53868687,00000377,false,Rx,1,8,00,00,00,00,00,00,00,00,
53878536,00000347,false,Rx,1,8,00,00,00,00,00,08,00,00,
53888539,00000357,false,Rx,1,8,00,00,00,00,00,00,00,00,
53898535,00000327,false,Rx,1,8,00,00,00,00,00,00,00,00,
53908532,00000337,false,Rx,1,8,00,00,00,00,00,00,00,00,
53958612,00000207,false,Rx,1,8,1B,EA,00,31,C8,00,04,00,
53958858,00000227,false,Rx,1,8,07,00,00,00,00,00,EC,D1,
53959098,00000237,false,Rx,1,8,3B,41,00,00,00,00,00,00,
53959340,00000247,false,Rx,1,8,44,7D,6E,03,00,00,20,00,
53959579,00000717,false,Rx,1,8,0A,00,00,00,00,00,00,00,
53968402,00000217,false,Rx,1,8,00,C0,81,FB,9C,02,02,04,
54058614,00000207,false,Rx,1,8,1B,E9,C0,2F,C8,00,04,00,
54058852,00000227,false,Rx,1,8,09,00,00,00,02,00,EC,D1,
54059100,00000237,false,Rx,1,8,3B,41,00,00,00,00,00,00,
54059335,00000247,false,Rx,1,8,44,7D,6E,03,00,00,20,00,
54059582,00000717,false,Rx,1,8,0B,00,00,00,00,00,00,00,
54068408,00000217,false,Rx,1,8,00,C0,81,FB,9C,02,02,04,
54158570,00000207,false,Rx,1,8,1B,E9,C0,2E,C8,00,04,00,
54158809,00000227,false,Rx,1,8,09,00,00,00,09,00,EC,D1,
54159050,00000237,false,Rx,1,8,3B,41,00,00,00,00,00,00,
54159291,00000247,false,Rx,1,8,44,7D,6E,03,00,00,20,00,
54159531,00000717,false,Rx,1,8,0C,01,00,04,04,00,01,00,
54168377,00000217,false,Rx,1,8,00,C0,81,FB,9C,02,02,04,
54258553,00000207,false,Rx,1,8,1B,E9,80,2D,C8,00,04,00,
54258791,00000227,false,Rx,1,8,0B,00,00,00,00,00,EC,D1,
54259033,00000237,false,Rx,1,8,3B,41,00,00,00,00,00,00,
54259274,00000247,false,Rx,1,8,44,7D,6E,03,00,00,20,00,
54259513,00000717,false,Rx,1,8,0E,00,00,02,A6,4F,00,00,
54268354,00000217,false,Rx,1,8,00,C0,81,FB,9C,02,02,04,
54358550,00000207,false,Rx,1,8,1B,E9,40,2C,C8,00,04,00,
54358790,00000227,false,Rx,1,8,0B,00,00,00,02,00,EC,D1,
54359037,00000237,false,Rx,1,8,3B,41,00,00,00,00,00,00,
54359270,00000247,false,Rx,1,8,44,7D,6E,03,00,00,20,00,
54359511,00000717,false,Rx,1,8,0F,00,EB,01,1C,11,00,00,
54368343,00000217,false,Rx,1,8,00,C0,81,FB,9C,02,02,04,
54458512,00000207,false,Rx,1,8,1B,E9,00,2B,C8,00,04,00,
54458752,00000227,false,Rx,1,8,08,00,00,00,01,00,EC,D1,
54458999,00000237,false,Rx,1,8,3B,41,00,00,00,00,00,00,
54459231,00000247,false,Rx,1,8,44,7D,6E,03,00,00,20,00,
54459473,00000717,false,Rx,1,8,10,06,90,FE,03,80,FF,00,
54468303,00000217,false,Rx,1,8,00,C0,81,FB,9C,02,02,04,
54558503,00000207,false,Rx,1,8,1B,E9,80,29,C8,00,04,00,
54558749,00000227,false,Rx,1,8,0D,00,00,00,00,00,EC,D1,
54558989,00000237,false,Rx,1,8,3B,41,00,00,00,00,00,00,
54559230,00000247,false,Rx,1,8,44,7D,6E,03,00,00,20,00,
54559471,00000537,false,Rx,1,8,0A,01,0E,00,FC,00,3F,00,
54559711,00000717,false,Rx,1,8,11,00,00,00,00,00,02,02,
54568291,00000217,false,Rx,1,8,00,C0,81,FB,9C,02,02,04,
54658479,00000207,false,Rx,1,8,1B,E9,C0,28,C8,00,04,00,
54658717,00000227,false,Rx,1,8,10,00,00,00,05,00,EC,D1,
54658965,00000237,false,Rx,1,8,3B,41,00,00,00,00,00,00,
54659198,00000247,false,Rx,1,8,44,7D,6E,03,00,00,20,00,
54659440,00000717,false,Rx,1,8,12,40,29,00,27,00,17,00,
54668271,00000217,false,Rx,1,8,00,C0,81,FB,9C,02,02,04,
54758444,00000207,false,Rx,1,8,1B,E9,00,27,C8,00,04,00,
54758683,00000227,false,Rx,1,8,09,00,00,00,02,00,EC,D1,
54758924,00000237,false,Rx,1,8,3B,41,00,00,00,00,00,00,
54759164,00000247,false,Rx,1,8,44,7D,6E,03,00,00,20,00,
54759412,00000717,false,Rx,1,8,13,00,00,00,00,00,00,00,
54768227,00000217,false,Rx,1,8,00,C0,81,FB,9C,02,02,04,
54858337,00000367,false,Rx,1,8,00,00,00,00,00,00,00,00,
54858583,00000207,false,Rx,1,8,1B,E9,C0,25,C8,00,04,00,
54858824,00000227,false,Rx,1,8,0F,00,00,00,00,00,EC,D1,
54859064,00000237,false,Rx,1,8,3B,41,00,00,00,00,00,00,
54859305,00000247,false,Rx,1,8,44,7D,6E,03,00,00,20,00,
54859546,00000717,false,Rx,1,8,14,00,00,00,8A,ED,00,00,
54868230,00000217,false,Rx,1,8,00,C0,81,FB,9C,02,02,04,
54868484,00000377,false,Rx,1,8,00,00,00,00,00,00,00,00,
54878331,00000347,false,Rx,1,8,00,00,00,00,00,08,00,00,
54888328,00000357,false,Rx,1,8,00,00,00,00,00,00,00,00,
54898326,00000327,false,Rx,1,8,00,00,00,00,00,00,00,00,
54908325,00000337,false,Rx,1,8,00,00,00,00,00,00,00,00,
54958404,00000207,false,Rx,1,8,1B,E9,80,24,C8,00,04,00,
54958644,00000227,false,Rx,1,8,04,00,00,00,00,00,EC,D1,
54958884,00000237,false,Rx,1,8,3B,41,00,00,00,00,00,00,
54959124,00000247,false,Rx,1,8,44,7D,6E,03,00,00,20,00,
54968179,00000217,false,Rx,1,8,00,C0,81,FB,9C,02,02,04,
55058392,00000207,false,Rx,1,8,1B,E9,80,22,C8,00,04,00,
55058631,00000227,false,Rx,1,8,09,00,00,00,04,00,EC,D1,
55058879,00000237,false,Rx,1,8,3B,41,00,00,00,00,00,00,
55059112,00000247,false,Rx,1,8,44,7D,6E,03,00,00,20,00,
55059361,00000717,false,Rx,1,8,16,00,00,00,00,00,52,E8,
55068182,00000217,false,Rx,1,8,00,C0,81,FB,9C,02,02,04,
55158382,00000207,false,Rx,1,8,1B,E9,40,21,C8,00,04,00,
55158621,00000227,false,Rx,1,8,0D,00,00,00,00,00,EC,D1,
55158868,00000237,false,Rx,1,8,3B,41,00,00,00,00,00,00,
55159102,00000247,false,Rx,1,8,44,7D,6E,03,00,00,20,00,
55159350,00000717,false,Rx,1,8,17,00,00,50,04,00,00,00,
55168175,00000217,false,Rx,1,8,00,C0,81,FB,9C,02,02,04,
55258339,00000207,false,Rx,1,8,1B,E8,40,1F,C8,00,04,00,
55258578,00000227,false,Rx,1,8,10,00,00,00,04,00,EC,D1,
55258826,00000237,false,Rx,1,8,3B,41,00,00,00,00,00,00,
55259059,00000247,false,Rx,1,8,44,7D,6E,03,00,00,20,00,
55259308,00000717,false,Rx,1,8,18,00,00,00,00,00,00,00,
55268124,00000217,false,Rx,1,8,00,C0,81,FB,9C,02,02,04,
55358333,00000207,false,Rx,1,8,1B,E8,40,1D,C8,00,04,00,
55358580,00000227,false,Rx,1,8,11,00,00,00,00,00,EC,D1,
55358821,00000237,false,Rx,1,8,3B,41,00,00,00,00,00,00,
55359061,00000247,false,Rx,1,8,44,7D,6E,03,00,00,20,00,
55359309,00000717,false,Rx,1,8,19,00,00,00,00,00,00,00,
55368124,00000217,false,Rx,1,8,00,C0,81,FB,9C,02,02,04,
55458286,00000207,false,Rx,1,8,1B,E8,C0,1B,C8,00,04,00,
55458526,00000227,false,Rx,1,8,0E,00,00,00,03,00,EC,D1,
55458773,00000237,false,Rx,1,8,3B,41,00,00,00,00,00,00,
55459005,00000247,false,Rx,1,8,44,7D,6E,03,00,00,20,00,
55459255,00000537,false,Rx,1,8,0B,00,05,06,00,00,00,00,
55459502,00000717,false,Rx,1,8,01,00,00,00,00,00,00,00,
55468101,00000217,false,Rx,1,8,00,C0,81,FB,9C,02,02,04,
55558286,00000207,false,Rx,1,8,1B,E8,80,19,C8,00,04,00,
55558526,00000227,false,Rx,1,8,10,00,00,00,01,00,EC,D1,
55558765,00000237,false,Rx,1,8,3B,41,00,00,00,00,00,00,
55559005,00000247,false,Rx,1,8,44,7D,6E,03,00,00,20,00,
55559255,00000717,false,Rx,1,8,02,00,00,00,00,00,00,00,
55568086,00000217,false,Rx,1,8,00,C0,81,FB,9C,02,02,04,
55658276,00000207,false,Rx,1,8,1B,E8,C0,17,C8,00,04,00,
55658515,00000227,false,Rx,1,8,0E,00,00,00,00,00,EC,D1,
55658755,00000237,false,Rx,1,8,3B,41,00,00,00,00,00,00,
55658996,00000247,false,Rx,1,8,44,7D,6E,03,00,00,20,00,
55668058,00000217,false,Rx,1,8,02,80,81,FB,9C,02,02,04,
55758230,00000207,false,Rx,1,8,1B,E8,00,16,C8,00,04,00,
55758469,00000227,false,Rx,1,8,10,00,00,00,00,00,EC,D1,
55758717,00000237,false,Rx,1,8,3B,41,00,00,00,00,00,00,
55758950,00000247,false,Rx,1,8,44,7D,6E,03,00,00,20,00,
55759198,00000717,false,Rx,1,8,04,00,00,00,00,00,00,00,
55768017,00000217,false,Rx,1,8,02,80,81,FB,9C,02,02,04,
55858116,00000367,false,Rx,1,8,00,00,00,00,00,00,00,00,
55858364,00000207,false,Rx,1,8,1B,E8,00,14,C8,00,04,00,
55858604,00000227,false,Rx,1,8,0E,00,00,00,02,00,EC,D1,
55858844,00000237,false,Rx,1,8,3B,41,00,00,00,00,00,00,
55859084,00000247,false,Rx,1,8,44,7D,6E,03,00,00,20,00,
55859333,00000717,false,Rx,1,8,05,00,00,00,00,00,00,00,
55868016,00000217,false,Rx,1,8,02,80,81,FB,9C,02,02,04,
55868263,00000377,false,Rx,1,8,00,00,00,00,00,00,00,00,
55878116,00000347,false,Rx,1,8,00,00,00,00,00,08,00,00,
55888114,00000357,false,Rx,1,8,00,00,00,00,00,00,00,00,
55898111,00000327,false,Rx,1,8,00,00,00,00,00,00,00,00,
55908108,00000337,false,Rx,1,8,00,00,00,00,00,00,00,00,
55958196,00000207,false,Rx,1,8,1B,E8,80,12,C8,00,04,00,
55958430,00000227,false,Rx,1,8,15,00,00,00,01,00,EC,D1,
55958677,00000237,false,Rx,1,8,3B,41,00,00,00,00,00,00,
55958917,00000247,false,Rx,1,8,44,7D,6E,03,00,00,20,00,
55959149,00000717,false,Rx,1,8,06,00,66,06,66,06,00,40,
55968003,00000217,false,Rx,1,8,02,80,81,FB,9C,02,02,04,
56058169,00000207,false,Rx,1,8,1B,E8,00,10,C8,00,04,00,
56058403,00000227,false,Rx,1,8,10,00,00,00,00,00,EC,D1,
56058651,00000237,false,Rx,1,8,3B,41,00,00,00,00,00,00,
56058891,00000247,false,Rx,1,8,44,7D,6E,03,00,00,20,00,
56059132,00000717,false,Rx,1,8,07,00,00,00,02,0A,00,00,
56067963,00000217,false,Rx,1,8,02,80,81,FB,9C,02,02,04,
56158160,00000207,false,Rx,1,8,1B,E8,40,0E,C8,00,04,00,
56158407,00000227,false,Rx,1,8,16,00,00,00,00,00,EC,D1,
56158647,00000237,false,Rx,1,8,3B,41,00,00,00,00,00,00,
56158888,00000247,false,Rx,1,8,44,7D,6E,03,00,00,20,00,
56159128,00000717,false,Rx,1,8,08,00,00,00,66,06,00,00,
56167950,00000217,false,Rx,1,8,02,80,81,FB,9C,02,02,04,
56258119,00000207,false,Rx,1,8,1B,E8,40,0C,C8,00,04,00,
56258359,00000227,false,Rx,1,8,0F,00,00,00,03,00,EC,D1,
56258606,00000237,false,Rx,1,8,3B,41,00,00,00,00,00,00,
56258840,00000247,false,Rx,1,8,44,7D,6E,03,00,00,20,00,
56259080,00000717,false,Rx,1,8,09,00,66,06,00,00,00,00,
56267909,00000217,false,Rx,1,8,02,80,81,FB,9C,02,02,04,
56358122,00000207,false,Rx,1,8,1B,E8,C0,09,C8,00,04,00,
56358362,00000227,false,Rx,1,8,0D,00,00,00,08,00,EC,D1,
56358610,00000237,false,Rx,1,8,3B,41,00,00,00,00,00,00,
56358843,00000247,false,Rx,1,8,44,7D,6E,03,00,00,20,00,
56359082,00000537,false,Rx,1,8,0D,00,00,00,7D,F1,02,85,
56359332,00000717,false,Rx,1,8,0A,00,00,00,00,00,00,00,
56367917,00000217,false,Rx,1,8,02,80,81,FB,9C,02,02,04,
56458106,00000207,false,Rx,1,8,1B,E8,00,08,C8,00,04,00,
56458346,00000227,false,Rx,1,8,12,00,00,00,00,00,EC,D1,
56458587,00000237,false,Rx,1,8,3B,41,00,00,00,00,00,00,
56458827,00000247,false,Rx,1,8,44,7D,6E,03,00,00,20,00,
56459074,00000717,false,Rx,1,8,0B,00,00,00,00,00,00,00,
56467884,00000217,false,Rx,1,8,02,80,81,FB,9C,02,02,04,
56558057,00000207,false,Rx,1,8,1B,E8,80,05,C8,00,04,00,
56558299,00000227,false,Rx,1,8,0C,00,00,00,00,00,EC,D1,
56558546,00000237,false,Rx,1,8,3B,41,00,00,00,00,00,00,
56558778,00000247,false,Rx,1,8,44,7D,6E,03,00,00,20,00,
56559019,00000717,false,Rx,1,8,0C,00,00,04,04,00,01,00,
56567835,00000217,false,Rx,1,8,02,80,81,FB,9C,02,02,04,
56658056,00000207,false,Rx,1,8,1B,E8,C0,03,C8,00,04,00,
56658298,00000227,false,Rx,1,8,12,00,00,00,03,00,EC,D1,
56658538,00000237,false,Rx,1,8,3B,41,00,00,00,00,00,00,
56658778,00000247,false,Rx,1,8,44,7D,6E,03,00,00,20,00,
56659019,00000717,false,Rx,1,8,0E,00,00,02,06,59,00,00,
56667842,00000217,false,Rx,1,8,02,80,81,FB,9C,02,02,04,
56758025,00000207,false,Rx,1,8,1B,E8,80,01,C8,00,04,00,
56758265,00000227,false,Rx,1,8,11,00,00,00,01,00,EC,D1,
56758513,00000237,false,Rx,1,8,3B,41,00,00,00,00,00,00,
56758746,00000247,false,Rx,1,8,44,7D,6E,03,00,00,20,00,
56758986,00000717,false,Rx,1,8,0F,00,EB,01,84,0E,00,00,
56767824,00000217,false,Rx,1,8,02,80,81,FB,9C,02,02,04,
56857930,00000367,false,Rx,1,8,00,00,00,00,00,00,00,00,
56858176,00000207,false,Rx,1,8,1B,E8,40,FF,C8,00,04,00,
56858417,00000227,false,Rx,1,8,18,00,00,00,00,00,EC,D1,
56858658,00000237,false,Rx,1,8,3B,41,00,00,00,00,00,00,
56858898,00000247,false,Rx,1,8,44,7D,6E,03,00,00,20,00,
56859138,00000717,false,Rx,1,8,10,07,A0,FE,03,80,FF,00,
56867801,00000217,false,Rx,1,8,02,80,81,FB,9C,02,02,04,
56868047,00000377,false,Rx,1,8,00,00,00,00,00,00,00,00,
56877910,00000347,false,Rx,1,8,00,00,00,00,00,08,00,00,
56887900,00000357,false,Rx,1,8,00,00,00,00,00,00,00,00,
56897897,00000327,false,Rx,1,8,00,00,00,00,00,00,00,00,
56907895,00000337,false,Rx,1,8,00,00,00,00,00,00,00,00,
56957988,00000207,false,Rx,1,8,1B,E8,40,FD,C8,00,04,00,
56958234,00000227,false,Rx,1,8,16,00,00,00,00,00,EC,D1,
56958476,00000237,false,Rx,1,8,3B,41,00,00,00,00,00,00,
56958716,00000247,false,Rx,1,8,44,7D,6E,03,00,00,20,00,
56958956,00000717,false,Rx,1,8,11,00,00,00,00,00,02,02,
56967780,00000217,false,Rx,1,8,02,80,81,FB,9C,02,02,04,
57057947,00000207,false,Rx,1,8,1B,E7,00,FB,C8,00,04,00,
57058186,00000227,false,Rx,1,8,15,00,00,00,00,00,EC,D1,
57058435,00000237,false,Rx,1,8,3B,41,00,00,00,00,00,00,
57058668,00000247,false,Rx,1,8,44,7D,6E,03,00,00,20,00,
57058908,00000717,false,Rx,1,8,12,40,29,00,27,00,17,00,
57067733,00000217,false,Rx,1,8,02,80,81,FB,9C,02,02,04,
57157952,00000207,false,Rx,1,8,1B,E8,80,F8,C8,00,04,00,
57158200,00000227,false,Rx,1,8,16,00,00,00,00,00,EC,D1,
57158441,00000237,false,Rx,1,8,3B,41,00,00,00,00,00,00,
57158681,00000247,false,Rx,1,8,44,7D,6E,03,00,00,20,00,
57158929,00000717,false,Rx,1,8,13,00,00,00,00,00,00,00,
57167746,00000217,false,Rx,1,8,02,80,81,FB,9C,02,02,04,
57257908,00000207,false,Rx,1,8,1B,E8,80,F6,C8,00,04,00,
57258147,00000227,false,Rx,1,8,13,00,00,00,00,00,EC,D1,
57258395,00000237,false,Rx,1,8,3B,41,00,00,00,00,00,00,
57258635,00000247,false,Rx,1,8,44,7D,6E,03,00,00,20,00,
57258876,00000537,false,Rx,1,8,0E,00,00,00,00,00,00,00,
57259116,00000717,false,Rx,1,8,14,00,00,00,ED,B1,00,00,
57267719,00000217,false,Rx,1,8,02,80,81,FB,9C,02,02,04,
57357888,00000207,false,Rx,1,8,1B,E8,40,F4,C8,00,04,00,
57358127,00000227,false,Rx,1,8,13,00,00,00,03,00,EC,D1,
57358368,00000237,false,Rx,1,8,3B,41,00,00,00,00,00,00,
57358609,00000247,false,Rx,1,8,44,7D,6E,03,00,00,20,00,
57367695,00000217,false,Rx,1,8,02,80,81,FB,9C,02,02,04,
57457893,00000207,false,Rx,1,8,1B,E8,80,F2,C8,00,04,00,
57458131,00000227,false,Rx,1,8,12,00,00,00,07,00,EC,D1,
57458374,00000237,false,Rx,1,8,3B,41,00,00,00,00,00,00,
57458613,00000247,false,Rx,1,8,44,7D,6E,03,00,00,20,00,
57458853,00000717,false,Rx,1,8,16,00,00,00,00,00,EE,FE,
57467679,00000217,false,Rx,1,8,02,80,81,FB,9C,02,02,04,
57557847,00000207,false,Rx,1,8,1B,E8,40,F0,C8,00,04,00,
57558093,00000227,false,Rx,1,8,11,00,00,00,00,00,EC,D1,
57558335,00000237,false,Rx,1,8,3B,41,00,00,00,00,00,00,
57558575,00000247,false,Rx,1,8,44,7D,6E,03,00,00,20,00,
57558815,00000717,false,Rx,1,8,17,00,00,50,04,00,00,00,
57567631,00000217,false,Rx,1,8,02,40,81,FB,9C,02,02,04,
57657842,00000207,false,Rx,1,8,1B,E8,40,EE,C8,00,04,00,
57658082,00000227,false,Rx,1,8,13,00,00,00,00,00,EC,D1,
57658330,00000237,false,Rx,1,8,3B,41,00,00,00,00,00,00,
57658562,00000247,false,Rx,1,8,44,7D,6E,03,00,00,20,00,
57658811,00000717,false,Rx,1,8,18,00,00,00,00,00,00,00,
57667633,00000217,false,Rx,1,8,02,40,81,FB,9C,02,02,04,
57757799,00000207,false,Rx,1,8,1B,E8,40,EC,C8,00,04,00,
57758038,00000227,false,Rx,1,8,11,00,00,00,00,00,EC,D1,
57758287,00000237,false,Rx,1,8,3B,41,00,00,00,00,00,00,
57758527,00000247,false,Rx,1,8,44,7D,6E,03,00,00,20,00,
57758768,00000717,false,Rx,1,8,19,00,00,00,00,00,00,00,
57767606,00000217,false,Rx,1,8,02,40,81,FB,9C,02,02,04,
57857691,00000367,false,Rx,1,8,00,00,00,00,00,00,00,00,
57857930,00000207,false,Rx,1,8,1B,E8,C0,E9,C8,00,04,00,
57858170,00000227,false,Rx,1,8,15,00,00,00,00,00,EC,D1,
57858418,00000237,false,Rx,1,8,3B,41,00,00,00,00,00,00,
57858652,00000247,false,Rx,1,8,44,7D,6E,03,00,00,20,00,
57858899,00000717,false,Rx,1,8,01,00,00,00,00,00,00,00,
57867569,00000217,false,Rx,1,8,02,40,81,FB,9C,02,02,04,
57867817,00000377,false,Rx,1,8,00,00,00,00,00,00,00,00,
57877701,00000347,false,Rx,1,8,00,00,00,00,00,08,00,00,
57887712,00000357,false,Rx,1,8,00,00,00,00,00,00,00,00,
57897709,00000327,false,Rx,1,8,00,00,00,00,00,00,00,00,
57907691,00000337,false,Rx,1,8,00,00,00,00,00,00,00,00,
57957784,00000207,false,Rx,1,8,1B,E8,00,E8,C8,00,04,00,
57958023,00000227,false,Rx,1,8,11,00,00,00,00,00,EC,D1,
57958271,00000237,false,Rx,1,8,3B,41,00,00,00,00,00,00,
57958505,00000247,false,Rx,1,8,44,7D,6E,03,00,00,20,00,
57958752,00000717,false,Rx,1,8,02,00,00,00,00,00,00,00,
57967576,00000217,false,Rx,1,8,02,40,81,FB,9C,02,02,04,
58057736,00000207,false,Rx,1,8,1B,E8,00,E6,C8,00,04,00,
58057975,00000227,false,Rx,1,8,0F,00,00,00,01,00,EC,D1,
58058216,00000237,false,Rx,1,8,3B,41,00,00,00,00,00,00,
58058457,00000247,false,Rx,1,8,44,7D,6E,03,00,00,20,00,
58067525,00000217,false,Rx,1,8,02,40,81,FB,9C,02,02,04,
58157728,00000207,false,Rx,1,8,1B,E8,C0,E3,C8,00,04,00,
58157967,00000227,false,Rx,1,8,18,00,00,00,02,00,EC,D1,
58158216,00000237,false,Rx,1,8,3B,41,00,00,00,00,00,00,
58158449,00000247,false,Rx,1,8,44,7D,6E,03,00,00,20,00,
58158682,00000537,false,Rx,1,8,0F,00,00,00,8C,A1,70,0A,
58158930,00000717,false,Rx,1,8,04,00,00,00,00,00,00,00,
58167523,00000217,false,Rx,1,8,02,40,81,FB,9C,02,02,04,
58257718,00000207,false,Rx,1,8,1B,E8,00,E2,C8,00,04,00,
58257958,00000227,false,Rx,1,8,16,00,00,00,02,00,EC,D1,
58258205,00000237,false,Rx,1,8,3B,41,00,00,00,00,00,00,
58258440,00000247,false,Rx,1,8,44,7D,6E,03,00,00,20,00,
58258688,00000717,false,Rx,1,8,05,00,00,00,00,00,00,00,
58267512,00000217,false,Rx,1,8,02,40,81,FB,9C,02,02,04,
58357674,00000207,false,Rx,1,8,1B,E9,C0,DF,C8,00,04,00,
58357913,00000227,false,Rx,1,8,17,00,00,00,01,00,EC,D1,
58358161,00000237,false,Rx,1,8,3B,41,00,00,00,00,00,00,
58358395,00000247,false,Rx,1,8,44,7D,6E,03,00,00,20,00,
58358636,00000717,false,Rx,1,8,06,00,66,06,66,06,00,40,
58367470,00000217,false,Rx,1,8,02,40,81,FB,9C,02,02,04,
58457666,00000207,false,Rx,1,8,1B,E9,00,DE,C8,00,04,00,
58457912,00000227,false,Rx,1,8,18,00,00,00,01,00,EC,D1,
58458152,00000237,false,Rx,1,8,3B,41,00,00,00,00,00,00,
58458394,00000247,false,Rx,1,8,44,7D,6E,03,00,00,20,00,
58458634,00000717,false,Rx,1,8,07,00,00,00,02,0A,00,00,
58467459,00000217,false,Rx,1,8,02,40,81,FB,9C,02,02,04,
58557628,00000207,false,Rx,1,8,1B,E8,40,DC,C8,00,04,00,
58557867,00000227,false,Rx,1,8,13,00,00,00,02,00,EC,D1,
58558115,00000237,false,Rx,1,8,3B,41,00,00,00,00,00,00,
58558348,00000247,false,Rx,1,8,44,7D,6E,03,00,00,20,00,
58558588,00000717,false,Rx,1,8,08,00,00,00,66,06,00,00,
58567435,00000217,false,Rx,1,8,02,40,81,FB,9C,02,02,04,
58657616,00000207,false,Rx,1,8,1B,E9,80,DA,C8,00,04,00,
58657855,00000227,false,Rx,1,8,0F,00,00,00,09,00,EC,D1,
58658103,00000237,false,Rx,1,8,3B,41,00,00,00,00,00,00,
58658338,00000247,false,Rx,1,8,44,7D,6E,03,00,00,20,00,
58658578,00000717,false,Rx,1,8,09,00,66,06,00,00,00,00,
58667424,00000217,false,Rx,1,8,02,40,81,FB,9C,02,02,04,
58757606,00000207,false,Rx,1,8,1B,E9,C0,D8,C8,00,04,00,
58757846,00000227,false,Rx,1,8,19,00,00,00,02,00,EC,D1,
58758093,00000237,false,Rx,1,8,3B,41,00,00,00,00,00,00,
58758328,00000247,false,Rx,1,8,44,7D,6E,03,00,00,20,00,
58758576,00000717,false,Rx,1,8,0A,00,00,00,00,00,00,00,
58767399,00000217,false,Rx,1,8,02,40,81,FB,9C,02,02,04,
58857483,00000367,false,Rx,1,8,00,00,00,00,00,00,00,00,
58857730,00000207,false,Rx,1,8,17,C5,40,00,C8,00,04,00,
58857970,00000227,false,Rx,1,8,14,00,00,00,01,00,0B,D1,
58858210,00000237,false,Rx,1,8,3B,41,00,00,00,00,00,00,
58858452,00000247,false,Rx,1,8,44,7D,6E,03,00,00,20,00,
58858699,00000717,false,Rx,1,8,0B,00,00,00,00,00,00,00,
58867354,00000217,false,Rx,1,8,02,80,81,FB,9C,02,02,04,
58867608,00000377,false,Rx,1,8,00,00,00,00,00,00,00,00,
58877479,00000347,false,Rx,1,8,00,00,00,00,00,08,00,00,
58887475,00000357,false,Rx,1,8,00,00,00,00,00,00,00,00,
58897487,00000327,false,Rx,1,8,00,00,00,00,00,00,00,00,
58907484,00000337,false,Rx,1,8,00,00,00,00,00,00,00,00,
58957573,00000207,false,Rx,1,8,11,90,00,00,C8,00,04,00,
58957819,00000227,false,Rx,1,8,13,00,00,00,03,00,1F,C5,
58958066,00000237,false,Rx,1,8,3B,41,00,00,00,00,00,00,
58958301,00000247,false,Rx,1,8,44,7D,6E,03,00,00,20,00,
58958541,00000717,false,Rx,1,8,0C,01,00,04,04,00,01,00,
58967356,00000217,false,Rx,1,8,02,80,81,FB,9C,02,01,04,
59057533,00000207,false,Rx,1,8,0C,69,00,00,C8,00,04,00,
59057779,00000227,false,Rx,1,8,18,00,00,00,00,00,1F,C5,
59058019,00000237,false,Rx,1,8,3B,41,00,00,00,00,00,00,
59058261,00000247,false,Rx,1,8,44,7D,6E,03,00,00,20,00,
59058508,00000537,false,Rx,1,8,10,00,00,0A,00,00,00,00,
59058741,00000717,false,Rx,1,8,0E,00,00,02,66,62,00,00,
59067336,00000217,false,Rx,1,8,02,80,81,FB,9C,02,01,04,
59157515,00000207,false,Rx,1,8,09,4D,00,00,C8,00,04,00,
59157761,00000227,false,Rx,1,8,16,00,00,00,02,00,1F,C5,
59158003,00000237,false,Rx,1,8,3B,41,00,00,00,00,00,00,
59158243,00000247,false,Rx,1,8,44,7D,6E,03,00,00,20,00,
59158476,00000717,false,Rx,1,8,0F,00,EB,01,F2,0D,00,00,
59167301,00000217,false,Rx,1,8,02,40,81,FB,9C,02,01,04,
59257499,00000207,false,Rx,1,8,06,38,00,00,C8,00,04,00,
59257745,00000227,false,Rx,1,8,14,00,00,00,00,00,1F,C5,
59257994,00000237,false,Rx,1,8,3B,41,00,00,00,00,00,00,
59258226,00000247,false,Rx,1,8,44,7D,6E,03,00,00,20,00,
59258467,00000717,false,Rx,1,8,10,0B,B0,FE,03,80,FF,00,
59267291,00000217,false,Rx,1,8,02,40,81,FB,9C,02,00,04,
59357462,00000207,false,Rx,1,8,05,29,00,00,C8,00,04,00,
59357702,00000227,false,Rx,1,8,16,00,00,00,00,00,1F,C5,
59357949,00000237,false,Rx,1,8,3B,41,00,00,00,00,00,00,
59358189,00000247,false,Rx,1,8,44,7D,6E,03,00,00,20,00,
59358431,00000717,false,Rx,1,8,11,00,00,00,00,00,02,02,
59367246,00000217,false,Rx,1,8,02,40,81,FB,9C,02,00,04,
59457472,00000207,false,Rx,1,8,03,1E,00,00,C8,00,04,00,
59457711,00000227,false,Rx,1,8,14,00,00,00,10,00,1F,C5,
59457958,00000237,false,Rx,1,8,3B,41,00,00,00,00,00,00,
59458191,00000247,false,Rx,1,8,44,7D,6E,03,00,00,20,00,
59458433,00000717,false,Rx,1,8,12,40,29,00,27,00,17,00,
59467255,00000217,false,Rx,1,8,02,40,81,FB,9C,02,00,04,
59557445,00000207,false,Rx,1,8,03,16,00,00,C8,00,04,00,
59557691,00000227,false,Rx,1,8,14,00,00,00,02,00,1F,C5,
59557931,00000237,false,Rx,1,8,3B,41,00,00,00,00,00,00,
59558172,00000247,false,Rx,1,8,44,7D,6E,03,00,00,20,00,
59558420,00000717,false,Rx,1,8,13,00,00,00,00,00,00,00,
59567227,00000217,false,Rx,1,8,02,40,81,FB,9C,02,00,04,
59657400,00000207,false,Rx,1,8,02,10,00,00,C8,00,04,00,
59657646,00000227,false,Rx,1,8,14,00,00,00,00,00,1F,C5,
59657894,00000237,false,Rx,1,8,3B,41,00,00,00,00,00,00,
59658127,00000247,false,Rx,1,8,44,7D,6E,03,00,00,20,00,
59658375,00000717,false,Rx,1,8,14,00,00,00,FE,FF,00,00,
59667185,00000217,false,Rx,1,8,02,40,81,FB,9C,02,00,04,
59757404,00000207,false,Rx,1,8,01,0C,00,00,C8,00,04,00,
59757642,00000227,false,Rx,1,8,18,00,00,00,09,00,1F,C5,
59757891,00000237,false,Rx,1,8,3B,41,00,00,00,00,00,00,
59758131,00000247,false,Rx,1,8,44,7D,6E,03,00,00,20,00,
59767185,00000217,false,Rx,1,8,02,40,81,FB,9C,02,00,04,
59857281,00000367,false,Rx,1,8,00,00,00,00,00,00,00,00,
59857519,00000207,false,Rx,1,8,01,09,00,00,C8,00,04,00,
59857760,00000227,false,Rx,1,8,13,00,00,00,01,00,1F,C5,
59858008,00000237,false,Rx,1,8,3B,41,00,00,00,00,00,00,
59858249,00000247,false,Rx,1,8,44,7D,6E,03,00,00,20,00,
59858482,00000717,false,Rx,1,8,16,00,00,00,00,00,3A,46,
59867137,00000217,false,Rx,1,8,02,40,01,FC,9C,02,00,04,
59867391,00000377,false,Rx,1,8,00,00,00,00,00,00,00,00,
59877268,00000347,false,Rx,1,8,00,00,00,00,00,08,00,00,
59887265,00000357,false,Rx,1,8,00,00,00,00,00,00,00,00,
59897268,00000327,false,Rx,1,8,00,00,00,00,00,00,00,00,
59907265,00000337,false,Rx,1,8,00,00,00,00,00,00,00,00,
59957366,00000207,false,Rx,1,8,01,06,C0,FF,C8,00,04,00,
59957606,00000227,false,Rx,1,8,1A,00,00,00,05,00,1F,C5,
59957853,00000237,false,Rx,1,8,3B,41,00,00,00,00,00,00,
59958093,00000247,false,Rx,1,8,44,7D,6E,03,00,00,20,00,
59958335,00000537,false,Rx,1,8,11,00,00,00,00,00,00,00,
59958583,00000717,false,Rx,1,8,17,00,00,50,04,00,00,00,
59967139,00000217,false,Rx,1,8,02,40,01,FC,9C,02,00,04,
60057345,00000207,false,Rx,1,8,01,05,00,00,C8,00,04,00,
60057591,00000227,false,Rx,1,8,12,00,00,00,00,00,1F,C5,
60057831,00000237,false,Rx,1,8,3B,41,00,00,00,00,00,00,
60058072,00000247,false,Rx,1,8,44,7D,6E,03,00,00,20,00,
60058320,00000717,false,Rx,1,8,18,00,00,00,00,00,00,00,
60067113,00000217,false,Rx,1,8,02,40,01,FC,9C,02,00,04,
60157306,00000207,false,Rx,1,8,00,03,00,00,C8,00,04,00,
60157545,00000227,false,Rx,1,8,17,00,00,00,06,00,1F,C5,
60157792,00000237,false,Rx,1,8,3B,41,00,00,00,00,00,00,
60158026,00000247,false,Rx,1,8,44,7D,6E,03,00,00,20,00,
60158276,00000717,false,Rx,1,8,19,00,00,00,00,00,00,00,
60167076,00000217,false,Rx,1,8,02,40,01,FC,9C,02,00,04,
60257298,00000207,false,Rx,1,8,00,02,00,00,C8,00,04,00,
60257545,00000227,false,Rx,1,8,16,00,00,00,02,00,1F,C5,
60257793,00000237,false,Rx,1,8,3B,41,00,00,00,00,00,00,
60258025,00000247,false,Rx,1,8,44,7D,6E,03,00,00,20,00,
60258274,00000717,false,Rx,1,8,01,00,00,00,00,00,00,00,
60267084,00000217,false,Rx,1,8,02,40,01,FC,9C,02,00,04,
60357258,00000207,false,Rx,1,8,00,02,00,00,C8,00,04,00,
60357504,00000227,false,Rx,1,8,16,00,00,00,04,00,1F,C5,
60357745,00000237,false,Rx,1,8,3B,41,00,00,00,00,00,00,
60357985,00000247,false,Rx,1,8,44,7D,6E,03,00,00,20,00,
60358232,00000717,false,Rx,1,8,02,00,00,00,00,00,00,00,
60367053,00000217,false,Rx,1,8,02,40,01,FC,9C,02,00,04,
60457250,00000207,false,Rx,1,8,00,01,00,00,C8,00,04,00,
60457490,00000227,false,Rx,1,8,12,00,00,00,00,00,1F,C5,
60457737,00000237,false,Rx,1,8,3B,41,00,00,00,00,00,00,
