Time Stamp,ID,Extended,Dir,Bus,LEN,D1,D2,D3,D4,D5,D6,D7,D8
72232412,000005E7,false,Rx,1,8,00,3F,05,06,00,00,00,01,
72353782,00000217,false,Rx,1,8,00,00,80,FF,7D,02,00,04,
72443985,00000207,false,Rx,1,8,00,01,40,FF,00,00,04,00,
72444232,00000227,false,Rx,1,8,00,00,00,00,00,00,1F,C5,
72444481,00000237,false,Rx,1,8,3C,41,00,00,00,00,00,00,
72444721,00000247,false,Rx,1,8,00,7D,6E,03,00,00,20,00,
72444962,00000717,false,Rx,1,8,02,00,00,00,00,00,00,00,
72453776,00000217,false,Rx,1,8,00,00,80,FF,9C,02,01,04,
72543950,00000207,false,Rx,1,8,00,02,40,FF,C8,00,04,00,
72544197,00000227,false,Rx,1,8,00,00,00,00,04,00,1F,C5,
72544445,00000237,false,Rx,1,8,3C,41,00,00,00,00,00,00,
72544679,00000247,false,Rx,1,8,44,7D,6E,03,00,00,20,00,
72553760,00000217,false,Rx,1,8,02,40,80,FF,9C,02,01,04,
72643943,00000207,false,Rx,1,8,01,02,40,FF,C8,00,04,00,
72644189,00000227,false,Rx,1,8,00,00,00,00,08,00,1F,C5,
72644438,00000237,false,Rx,1,8,3C,41,00,00,00,00,00,00,
72644671,00000247,false,Rx,1,8,44,7D,6E,03,00,00,20,00,
72644918,00000717,false,Rx,1,8,04,00,00,00,00,00,00,00,
72653742,00000217,false,Rx,1,8,02,40,00,FF,9C,02,01,04,
72743930,00000207,false,Rx,1,8,01,02,40,FF,C8,00,04,00,
72744176,00000227,false,Rx,1,8,00,00,00,00,05,00,1F,C5,
72744419,00000237,false,Rx,1,8,3C,41,00,00,00,00,00,00,
72744658,00000247,false,Rx,1,8,44,7D,6E,03,00,00,20,00,
72744906,00000717,false,Rx,1,8,05,00,00,00,00,00,00,00,
72753716,00000217,false,Rx,1,8,02,40,00,FF,9C,02,01,04,
72843875,00000207,false,Rx,1,8,01,02,80,FF,C8,00,04,00,
72844121,00000227,false,Rx,1,8,00,00,00,00,00,00,1F,C5,
72844370,00000237,false,Rx,1,8,3C,41,00,00,00,00,00,00,
72844603,00000247,false,Rx,1,8,44,7D,6E,03,00,00,20,00,
72844843,00000717,false,Rx,1,8,06,00,A6,44,66,06,00,40,
72853674,00000217,false,Rx,1,8,02,80,00,FF,9C,02,01,04,
72943889,00000207,false,Rx,1,8,01,01,80,FF,C8,00,04,00,
72944136,00000227,false,Rx,1,8,00,00,00,00,00,00,1F,C5,
72944377,00000237,false,Rx,1,8,3C,41,00,00,00,00,00,00,
72944617,00000247,false,Rx,1,8,44,7D,6E,03,00,00,20,00,
72944866,00000717,false,Rx,1,8,07,00,00,00,02,0A,00,00,
72953681,00000217,false,Rx,1,8,02,80,00,FF,9C,02,01,04,
73043840,00000207,false,Rx,1,8,01,01,80,FF,C8,00,04,00,
73044086,00000227,false,Rx,1,8,00,00,00,00,03,00,1F,C5,
73044335,00000237,false,Rx,1,8,3C,41,00,00,00,00,00,00,
73044575,00000247,false,Rx,1,8,44,7D,6E,03,00,00,20,00,
73044809,00000717,false,Rx,1,8,08,00,00,00,6E,45,00,00,
73053655,00000217,false,Rx,1,8,02,80,80,FE,9C,02,01,04,
73143827,00000207,false,Rx,1,8,01,01,80,FF,C8,00,04,00,
73144073,00000227,false,Rx,1,8,00,00,00,00,00,00,1F,C5,
73144315,00000237,false,Rx,1,8,3C,41,00,00,00,00,00,00,
73144556,00000247,false,Rx,1,8,44,7D,6E,03,00,00,20,00,
73144796,00000717,false,Rx,1,8,09,00,CE,44,00,00,00,00,
73153613,00000217,false,Rx,1,8,02,80,80,FE,9C,02,01,04,
73243817,00000207,false,Rx,1,8,01,01,80,FF,C8,00,04,00,
73244070,00000227,false,Rx,1,8,00,00,00,00,02,00,1F,C5,
73244313,00000237,false,Rx,1,8,3C,41,00,00,00,00,00,00,
73244552,00000247,false,Rx,1,8,44,7D,6E,03,00,00,20,00,
73244800,00000717,false,Rx,1,8,0A,00,00,00,00,00,00,00,
73253601,00000217,false,Rx,1,8,02,C0,80,FE,9C,02,01,04,
73343701,00000367,false,Rx,1,8,00,00,00,00,00,00,00,00,
73343948,00000207,false,Rx,1,8,01,01,80,FF,C8,00,04,00,
73344189,00000227,false,Rx,1,8,00,00,00,00,01,00,1F,C5,
73344437,00000237,false,Rx,1,8,3C,41,00,00,00,00,00,00,
73344677,00000247,false,Rx,1,8,44,7D,6E,03,00,00,20,00,
73344918,00000717,false,Rx,1,8,0B,00,00,00,00,00,00,00,
73353563,00000217,false,Rx,1,8,02,C0,80,FE,9C,02,00,04,
73353810,00000507,false,Rx,1,8,2C,00,00,00,00,00,00,40,
73354065,00000377,false,Rx,1,8,00,00,00,00,00,00,00,00,
73363691,00000347,false,Rx,1,8,00,00,00,00,00,08,00,00,
73373688,00000357,false,Rx,1,8,00,00,00,00,00,00,00,00,
73383693,00000327,false,Rx,1,8,00,00,00,00,00,00,00,00,
73393684,00000337,false,Rx,1,8,00,00,00,00,00,00,00,00,
73403688,00000367,false,Rx,1,8,00,00,00,00,00,00,00,00,
73413686,00000377,false,Rx,1,8,00,00,00,00,00,00,00,00,
73423699,00000347,false,Rx,1,8,00,00,00,00,00,08,00,00,
73433694,00000357,false,Rx,1,8,00,00,00,00,00,00,00,00,
73443678,00000327,false,Rx,1,8,00,00,00,00,00,00,00,00,
73443924,00000207,false,Rx,1,8,01,01,80,FF,C8,00,04,00,
73444173,00000227,false,Rx,1,8,00,00,00,00,00,00,1F,C5,
73444413,00000237,false,Rx,1,8,3C,41,00,00,00,00,00,00,
73444653,00000247,false,Rx,1,8,44,7D,6E,03,00,00,20,00,
73444894,00000717,false,Rx,1,8,0C,01,00,04,04,00,01,00,
73453565,00000217,false,Rx,1,8,02,C0,00,FE,9C,02,00,04,
73453818,00000337,false,Rx,1,8,00,00,00,00,00,00,00,00,
73543761,00000207,false,Rx,1,8,01,01,C0,FF,C8,00,04,00,
73544001,00000227,false,Rx,1,8,00,00,00,00,00,00,1F,C5,
73544249,00000237,false,Rx,1,8,3C,41,00,00,00,00,00,00,
73544489,00000247,false,Rx,1,8,44,7D,6E,03,00,00,20,00,
73544730,00000717,false,Rx,1,8,0E,00,00,02,A6,04,00,00,
73553545,00000217,false,Rx,1,8,02,C0,00,FE,9C,02,00,04,
73643720,00000207,false,Rx,1,8,01,01,C0,FF,C8,00,04,00,
73643959,00000227,false,Rx,1,8,00,00,00,00,01,00,1F,C5,
73644206,00000237,false,Rx,1,8,3C,41,00,00,00,00,00,00,
73644448,00000247,false,Rx,1,8,44,7D,6E,03,00,00,20,00,
73644688,00000717,false,Rx,1,8,0F,00,EB,01,F1,0D,00,00,
73653500,00000217,false,Rx,1,8,02,C0,00,FE,9C,02,00,04,
73743719,00000207,false,Rx,1,8,01,01,80,FF,C8,00,04,00,
73743965,00000227,false,Rx,1,8,00,00,00,00,00,00,1F,C5,
73744213,00000237,false,Rx,1,8,3C,41,00,00,00,00,00,00,
73744448,00000247,false,Rx,1,8,44,7D,6E,03,00,00,20,00,
73744688,00000717,false,Rx,1,8,10,07,60,FF,03,A0,FF,00,
73753506,00000217,false,Rx,1,8,02,C0,00,FE,9C,02,00,04,
73843679,00000207,false,Rx,1,8,01,01,C0,FF,C8,00,04,00,
73843925,00000227,false,Rx,1,8,00,00,00,00,02,00,1F,C5,
73844173,00000237,false,Rx,1,8,3C,41,00,00,00,00,00,00,
73844414,00000247,false,Rx,1,8,44,7D,6E,03,00,00,20,00,
73844654,00000717,false,Rx,1,8,11,00,00,00,00,00,02,02,
73853464,00000217,false,Rx,1,8,02,C0,80,FD,9C,02,00,04,
73943676,00000207,false,Rx,1,8,01,01,C0,FF,C8,00,04,00,
73943916,00000227,false,Rx,1,8,00,00,00,00,00,00,1F,C5,
73944163,00000237,false,Rx,1,8,3C,41,00,00,00,00,00,00,
73944398,00000247,false,Rx,1,8,44,7D,6E,03,00,00,20,00,
73944638,00000717,false,Rx,1,8,12,3E,26,00,27,00,15,00,
73953462,00000217,false,Rx,1,8,02,00,81,FD,9C,02,00,04,
74043650,00000207,false,Rx,1,8,00,01,C0,FF,C8,00,04,00,
74043897,00000227,false,Rx,1,8,00,00,00,00,03,00,1F,C5,
74044137,00000237,false,Rx,1,8,3C,41,00,00,00,00,00,00,
74044378,00000247,false,Rx,1,8,44,7D,6E,03,00,00,20,00,
74044627,00000717,false,Rx,1,8,13,00,00,00,00,00,00,00,
74053434,00000217,false,Rx,1,8,02,00,81,FD,9C,02,00,04,
74143611,00000207,false,Rx,1,8,00,01,C0,FF,C8,00,04,00,
74143857,00000227,false,Rx,1,8,00,00,00,00,05,00,1F,C5,
74144105,00000237,false,Rx,1,8,3C,41,00,00,00,00,00,00,
74144338,00000247,false,Rx,1,8,44,7D,6E,03,00,00,20,00,
74144587,00000717,false,Rx,1,8,14,00,00,00,FB,FF,00,00,
74153401,00000217,false,Rx,1,8,02,00,81,FD,9C,02,00,04,
74243616,00000207,false,Rx,1,8,00,00,C0,FF,C8,00,04,00,
74243854,00000227,false,Rx,1,8,00,00,00,00,00,00,1F,C5,
74244102,00000237,false,Rx,1,8,3C,41,00,00,00,00,00,00,
74244344,00000247,false,Rx,1,8,44,7D,6E,03,00,00,20,00,
74253399,00000217,false,Rx,1,8,02,00,81,FD,9C,02,00,04,
74343478,00000367,false,Rx,1,8,00,00,00,00,00,00,00,00,
74343724,00000207,false,Rx,1,8,00,00,C0,FF,C8,00,04,00,
74343971,00000227,false,Rx,1,8,00,00,00,00,00,00,1F,C5,
74344212,00000237,false,Rx,1,8,3C,41,00,00,00,00,00,00,
74344453,00000247,false,Rx,1,8,44,7D,6E,03,00,00,20,00,
74344693,00000717,false,Rx,1,8,16,00,00,00,00,00,66,46,
74353372,00000217,false,Rx,1,8,02,00,01,FD,9C,02,00,04,
74353626,00000377,false,Rx,1,8,00,00,00,00,00,00,00,00,
74363473,00000347,false,Rx,1,8,00,00,00,00,00,08,00,00,
74373469,00000357,false,Rx,1,8,00,00,00,00,00,00,00,00,
74383472,00000327,false,Rx,1,8,00,00,00,00,00,00,00,00,
74393468,00000337,false,Rx,1,8,00,00,00,00,00,00,00,00,
74443563,00000207,false,Rx,1,8,00,00,C0,FF,C8,00,04,00,
74443809,00000227,false,Rx,1,8,00,00,00,00,00,00,1F,C5,
74444050,00000237,false,Rx,1,8,3C,41,00,00,00,00,00,00,
74444291,00000247,false,Rx,1,8,44,7D,6E,03,00,00,20,00,
74444531,00000717,false,Rx,1,8,17,00,00,C0,03,00,00,00,
74453349,00000217,false,Rx,1,8,02,00,01,FD,9C,02,00,04,
74543548,00000207,false,Rx,1,8,00,00,C0,FF,C8,00,04,00,
74543803,00000227,false,Rx,1,8,00,00,00,00,02,00,1F,C5,
74544042,00000237,false,Rx,1,8,3C,41,00,00,00,00,00,00,
74544283,00000247,false,Rx,1,8,44,7D,6E,03,00,00,20,00,
74544532,00000717,false,Rx,1,8,18,00,00,00,00,00,00,00,
74553342,00000217,false,Rx,1,8,02,00,01,FD,9C,02,00,04,
74643512,00000207,false,Rx,1,8,00,00,C0,FF,C8,00,04,00,
74643752,00000227,false,Rx,1,8,00,00,00,00,00,00,1F,C5,
74643999,00000237,false,Rx,1,8,3C,41,00,00,00,00,00,00,
74644239,00000247,false,Rx,1,8,44,7D,6E,03,00,00,20,00,
74644481,00000717,false,Rx,1,8,19,00,00,00,00,00,00,00,
74653291,00000217,false,Rx,1,8,02,00,01,FD,9C,02,00,04,
74743503,00000207,false,Rx,1,8,00,00,C0,FF,C8,00,04,00,
74743749,00000227,false,Rx,1,8,00,00,00,00,02,00,1F,C5,
74743996,00000237,false,Rx,1,8,3C,41,00,00,00,00,00,00,
74744238,00000247,false,Rx,1,8,44,7D,6E,03,00,00,20,00,
74744478,00000717,false,Rx,1,8,01,00,00,00,00,00,00,00,
74753286,00000217,false,Rx,1,8,02,00,01,FD,9C,02,00,04,
74843462,00000207,false,Rx,1,8,00,00,C0,FF,C8,00,04,00,
74843709,00000227,false,Rx,1,8,00,00,00,00,03,00,1F,C5,
74843956,00000237,false,Rx,1,8,3C,41,00,00,00,00,00,00,
74844190,00000247,false,Rx,1,8,44,7D,6E,03,00,00,20,00,
74844438,00000717,false,Rx,1,8,02,00,00,00,00,00,00,00,
74853269,00000217,false,Rx,1,8,02,00,01,FD,9C,02,00,04,
74943444,00000207,false,Rx,1,8,00,00,C0,FF,C8,00,04,00,
74943690,00000227,false,Rx,1,8,00,00,00,00,03,00,1F,C5,
74943939,00000237,false,Rx,1,8,3C,41,00,00,00,00,00,00,
74944179,00000247,false,Rx,1,8,44,7D,6E,03,00,00,20,00,
74953243,00000217,false,Rx,1,8,02,00,01,FD,9C,02,00,04,
75043437,00000207,false,Rx,1,8,00,00,C0,FF,C8,00,04,00,
75043683,00000227,false,Rx,1,8,00,00,00,00,00,00,1F,C5,
75043931,00000237,false,Rx,1,8,3C,41,00,00,00,00,00,00,
75044171,00000247,false,Rx,1,8,44,7D,6E,03,00,00,20,00,
75044412,00000717,false,Rx,1,8,04,00,00,00,00,00,00,00,
75053227,00000217,false,Rx,1,8,02,00,01,FD,9C,02,00,04,
75143396,00000207,false,Rx,1,8,00,00,C0,FF,C8,00,04,00,
75143643,00000227,false,Rx,1,8,00,00,00,00,02,00,1F,C5,
75143891,00000237,false,Rx,1,8,3C,41,00,00,00,00,00,00,
75144131,00000247,false,Rx,1,8,44,7D,6E,03,00,00,20,00,
75144373,00000717,false,Rx,1,8,05,00,00,00,00,00,00,00,
75153181,00000217,false,Rx,1,8,02,00,81,FC,9C,02,00,04,
75243390,00000207,false,Rx,1,8,00,00,C0,FF,C8,00,04,00,
75243636,00000227,false,Rx,1,8,00,00,00,00,00,00,1F,C5,
75243883,00000237,false,Rx,1,8,3C,41,00,00,00,00,00,00,
75244123,00000247,false,Rx,1,8,44,7D,6E,03,00,00,20,00,
75244358,00000717,false,Rx,1,8,06,00,A2,45,66,06,00,40,
75253179,00000217,false,Rx,1,8,02,00,81,FC,9C,02,00,04,
75343271,00000367,false,Rx,1,8,00,00,00,00,00,00,00,00,
75343517,00000207,false,Rx,1,8,00,00,C0,FF,C8,00,04,00,
75343765,00000227,false,Rx,1,8,00,00,00,00,02,00,1F,C5,
75344013,00000237,false,Rx,1,8,3C,41,00,00,00,00,00,00,
75344247,00000247,false,Rx,1,8,44,7D,6E,03,00,00,20,00,
75344494,00000717,false,Rx,1,8,07,00,00,00,02,0A,00,00,
75353163,00000217,false,Rx,1,8,02,00,81,FC,9C,02,00,04,
75353412,00000377,false,Rx,1,8,00,00,00,00,00,00,00,00,
75363266,00000347,false,Rx,1,8,00,00,00,00,00,08,00,00,
75373263,00000357,false,Rx,1,8,00,00,00,00,00,00,00,00,
75383262,00000327,false,Rx,1,8,00,00,00,00,00,00,00,00,
75393258,00000337,false,Rx,1,8,00,00,00,00,00,00,00,00,
75443321,00000207,false,Rx,1,8,00,00,C0,FF,C8,00,04,00,
75443567,00000227,false,Rx,1,8,00,00,00,00,01,00,1F,C5,
75443815,00000237,false,Rx,1,8,3C,41,00,00,00,00,00,00,
75444056,00000247,false,Rx,1,8,44,7D,6E,03,00,00,20,00,
75444298,00000717,false,Rx,1,8,08,00,00,00,62,46,00,00,
75453122,00000217,false,Rx,1,8,02,00,81,FC,9C,02,00,04,
75543329,00000207,false,Rx,1,8,00,00,00,00,C8,00,04,00,
75543575,00000227,false,Rx,1,8,00,00,00,00,07,00,1F,C5,
75543823,00000237,false,Rx,1,8,3C,41,00,00,00,00,00,00,
75544063,00000247,false,Rx,1,8,44,7D,6E,03,00,00,20,00,
75544305,00000717,false,Rx,1,8,09,00,62,46,00,00,00,00,
75553114,00000217,false,Rx,1,8,02,00,81,FC,9C,02,00,04,
75643273,00000207,false,Rx,1,8,00,00,C0,FF,C8,00,04,00,
75643520,00000227,false,Rx,1,8,00,00,00,00,01,00,1F,C5,
75643768,00000237,false,Rx,1,8,3C,41,00,00,00,00,00,00,
75644000,00000247,false,Rx,1,8,44,7D,6E,03,00,00,20,00,
75644249,00000717,false,Rx,1,8,0A,00,00,00,00,00,00,00,
75653073,00000217,false,Rx,1,8,02,00,81,FC,9C,02,00,04,
75743295,00000207,false,Rx,1,8,00,00,C0,FF,C8,00,04,00,
75743535,00000227,false,Rx,1,8,00,00,00,00,00,00,1F,C5,
75743782,00000237,false,Rx,1,8,3C,41,00,00,00,00,00,00,
75744022,00000247,false,Rx,1,8,44,7D,6E,03,00,00,20,00,
75744272,00000717,false,Rx,1,8,0B,00,00,00,00,00,00,00,
75753081,00000217,false,Rx,1,8,02,00,81,FC,9C,02,00,04,
75843270,00000207,false,Rx,1,8,00,00,C0,FF,C8,00,04,00,
75843517,00000227,false,Rx,1,8,00,00,00,00,01,00,1F,C5,
75843764,00000237,false,Rx,1,8,3C,41,00,00,00,00,00,00,
75843997,00000247,false,Rx,1,8,44,7D,6E,03,00,00,20,00,
75844246,00000717,false,Rx,1,8,0C,01,00,04,04,00,01,00,
75853053,00000217,false,Rx,1,8,02,00,81,FC,9C,02,00,04,
75943205,00000207,false,Rx,1,8,00,00,C0,FF,C8,00,04,00,
75943452,00000227,false,Rx,1,8,00,00,00,00,01,00,1F,C5,
75943700,00000237,false,Rx,1,8,3C,41,00,00,00,00,00,00,
75943941,00000247,false,Rx,1,8,44,7D,6E,03,00,00,20,00,
75944181,00000717,false,Rx,1,8,0E,00,00,02,06,0E,00,00,
75953013,00000217,false,Rx,1,8,02,00,81,FC,9C,02,00,04,
76043218,00000207,false,Rx,1,8,00,00,C0,FF,C8,00,04,00,
76043457,00000227,false,Rx,1,8,00,00,00,00,03,00,1F,C5,
76043706,00000237,false,Rx,1,8,3C,41,00,00,00,00,00,00,
76043946,00000247,false,Rx,1,8,44,7D,6E,03,00,00,20,00,
76044178,00000717,false,Rx,1,8,0F,00,EB,01,DA,10,00,00,
76053018,00000217,false,Rx,1,8,02,00,81,FC,9C,02,00,04,
76143178,00000207,false,Rx,1,8,00,00,C0,FF,C8,00,04,00,
76143425,00000227,false,Rx,1,8,00,00,00,00,01,00,1F,C5,
76143666,00000237,false,Rx,1,8,3C,41,00,00,00,00,00,00,
76143906,00000247,false,Rx,1,8,44,7D,6E,03,00,00,20,00,
76144146,00000717,false,Rx,1,8,10,09,F0,FE,03,80,FF,00,
76152993,00000217,false,Rx,1,8,02,00,81,FC,9C,02,00,04,
76243168,00000207,false,Rx,1,8,00,00,C0,FF,C8,00,04,00,
76243409,00000227,false,Rx,1,8,00,00,00,00,00,00,1F,C5,
76243657,00000237,false,Rx,1,8,3C,41,00,00,00,00,00,00,
76243896,00000247,false,Rx,1,8,44,7D,6E,03,00,00,20,00,
76244137,00000717,false,Rx,1,8,11,00,00,00,00,00,02,02,
76252968,00000217,false,Rx,1,8,02,00,81,FC,9C,02,00,04,
76343053,00000367,false,Rx,1,8,00,00,00,00,00,00,00,00,
76343294,00000207,false,Rx,1,8,00,00,C0,FF,C8,00,04,00,
76343541,00000227,false,Rx,1,8,00,00,00,00,00,00,1F,C5,
76343789,00000237,false,Rx,1,8,3C,41,00,00,00,00,00,00,
76344022,00000247,false,Rx,1,8,44,7D,6E,03,00,00,20,00,
76344263,00000717,false,Rx,1,8,12,40,26,00,27,00,15,00,
76352945,00000217,false,Rx,1,8,02,00,81,FC,9C,02,00,04,
76353193,00000377,false,Rx,1,8,00,00,00,00,00,00,00,00,
76363041,00000347,false,Rx,1,8,00,00,00,00,00,08,00,00,
76373045,00000357,false,Rx,1,8,00,00,00,00,00,00,00,00,
76383042,00000327,false,Rx,1,8,00,00,00,00,00,00,00,00,
76393033,00000337,false,Rx,1,8,00,00,00,00,00,00,00,00,
76443104,00000207,false,Rx,1,8,00,00,00,00,C8,00,04,00,
76443346,00000227,false,Rx,1,8,00,00,00,00,00,00,1F,C5,
76443593,00000237,false,Rx,1,8,3C,41,00,00,00,00,00,00,
76443834,00000247,false,Rx,1,8,44,7D,6E,03,00,00,20,00,
76444081,00000717,false,Rx,1,8,13,00,00,00,00,00,00,00,
76452904,00000217,false,Rx,1,8,02,00,81,FC,9C,02,00,04,
76543104,00000207,false,Rx,1,8,00,00,C0,FF,C8,00,04,00,
76543351,00000227,false,Rx,1,8,00,00,00,00,02,00,1F,C5,
76543600,00000237,false,Rx,1,8,3C,41,00,00,00,00,00,00,
76543840,00000247,false,Rx,1,8,44,7D,6E,03,00,00,20,00,
76544080,00000717,false,Rx,1,8,14,00,00,00,16,00,00,00,
76552911,00000217,false,Rx,1,8,02,00,81,FC,9C,02,00,04,
76643079,00000207,false,Rx,1,8,00,00,00,00,C8,00,04,00,
76643326,00000227,false,Rx,1,8,00,00,00,00,04,00,1F,C5,
76643575,00000237,false,Rx,1,8,3C,41,00,00,00,00,00,00,
76643814,00000247,false,Rx,1,8,44,7D,6E,03,00,00,20,00,
76652883,00000217,false,Rx,1,8,02,00,81,FC,9C,02,00,04,
76743053,00000207,false,Rx,1,8,00,00,C0,FF,C8,00,04,00,
76743302,00000227,false,Rx,1,8,00,00,00,00,03,00,1F,C5,
76743542,00000237,false,Rx,1,8,3C,41,00,00,00,00,00,00,
76743782,00000247,false,Rx,1,8,44,7D,6E,03,00,00,20,00,
76744029,00000717,false,Rx,1,8,16,00,00,00,00,00,CA,45,
76752846,00000217,false,Rx,1,8,02,00,01,FC,9C,02,00,04,
76843042,00000207,false,Rx,1,8,00,00,C0,FF,C8,00,04,00,
76843283,00000227,false,Rx,1,8,00,00,00,00,00,00,1F,C5,
76843531,00000237,false,Rx,1,8,3C,41,00,00,00,00,00,00,
76843771,00000247,false,Rx,1,8,44,7D,6E,03,00,00,20,00,
76844012,00000717,false,Rx,1,8,17,00,00,40,04,00,00,00,
76852850,00000217,false,Rx,1,8,02,00,01,FC,9C,02,00,04,
76943004,00000207,false,Rx,1,8,00,00,00,00,C8,00,04,00,
76943251,00000227,false,Rx,1,8,00,00,00,00,00,00,1F,C5,
76943491,00000237,false,Rx,1,8,3C,41,00,00,00,00,00,00,
76943732,00000247,false,Rx,1,8,44,7D,6E,03,00,00,20,00,
76943979,00000717,false,Rx,1,8,18,00,00,00,00,00,00,00,
76952804,00000217,false,Rx,1,8,02,00,01,FC,9C,02,00,04,
77042994,00000207,false,Rx,1,8,00,00,C0,FF,C8,00,04,00,
77043242,00000227,false,Rx,1,8,00,00,00,00,0B,00,1F,C5,
77043482,00000237,false,Rx,1,8,3C,41,00,00,00,00,00,00,
77043723,00000247,false,Rx,1,8,44,7D,6E,03,00,00,20,00,
77043971,00000717,false,Rx,1,8,19,00,00,00,00,00,00,00,
77052795,00000217,false,Rx,1,8,02,00,01,FC,9C,02,00,04,
77142950,00000207,false,Rx,1,8,00,00,00,00,C8,00,04,00,
77143197,00000227,false,Rx,1,8,00,00,00,00,00,00,1F,C5,
77143446,00000237,false,Rx,1,8,3C,41,00,00,00,00,00,00,
77143679,00000247,false,Rx,1,8,44,7D,6E,03,00,00,20,00,
77143926,00000717,false,Rx,1,8,01,00,00,00,00,00,00,00,
77152772,00000217,false,Rx,1,8,02,00,01,FC,9C,02,00,04,
77242940,00000207,false,Rx,1,8,00,00,00,00,C8,00,04,00,
77243186,00000227,false,Rx,1,8,00,00,00,00,01,00,1F,C5,
77243436,00000237,false,Rx,1,8,3C,41,00,00,00,00,00,00,
77243676,00000247,false,Rx,1,8,44,7D,6E,03,00,00,20,00,
77243916,00000717,false,Rx,1,8,02,00,00,00,00,00,00,00,
77252734,00000217,false,Rx,1,8,02,00,01,FC,9C,02,00,04,
77342842,00000367,false,Rx,1,8,00,00,00,00,00,00,00,00,
77343089,00000207,false,Rx,1,8,00,00,C0,FF,C8,00,04,00,
77343330,00000227,false,Rx,1,8,00,00,00,00,01,00,1F,C5,
77343578,00000237,false,Rx,1,8,3C,41,00,00,00,00,00,00,
77343818,00000247,false,Rx,1,8,44,7D,6E,03,00,00,20,00,
77352739,00000217,false,Rx,1,8,02,00,01,FC,9C,02,00,04,
77352985,00000377,false,Rx,1,8,00,00,00,00,00,00,00,00,
77362839,00000347,false,Rx,1,8,00,00,00,00,00,08,00,00,
77372837,00000357,false,Rx,1,8,00,00,00,00,00,00,00,00,
77382834,00000327,false,Rx,1,8,00,00,00,00,00,00,00,00,
77392831,00000337,false,Rx,1,8,00,00,00,00,00,00,00,00,
77442909,00000207,false,Rx,1,8,00,00,00,00,C8,00,04,00,
77443157,00000227,false,Rx,1,8,00,00,00,00,00,00,1F,C5,
77443398,00000237,false,Rx,1,8,3C,41,00,00,00,00,00,00,
77443638,00000247,false,Rx,1,8,44,7D,6E,03,00,00,20,00,
77443886,00000717,false,Rx,1,8,04,00,00,00,00,00,00,00,
77452711,00000217,false,Rx,1,8,02,00,01,FC,9C,02,00,04,
77542903,00000207,false,Rx,1,8,00,00,C0,FF,C8,00,04,00,
77543149,00000227,false,Rx,1,8,00,00,00,00,01,00,1F,C5,
77543390,00000237,false,Rx,1,8,3C,41,00,00,00,00,00,00,
77543631,00000247,false,Rx,1,8,44,7D,6E,03,00,00,20,00,
77543878,00000717,false,Rx,1,8,05,00,00,00,00,00,00,00,
77552688,00000217,false,Rx,1,8,02,00,01,FC,9C,02,00,04,
77642893,00000207,false,Rx,1,8,00,00,00,00,C8,00,04,00,
77643139,00000227,false,Rx,1,8,00,00,00,00,00,00,1F,C5,
77643381,00000237,false,Rx,1,8,3C,41,00,00,00,00,00,00,
77643621,00000247,false,Rx,1,8,44,7D,6E,03,00,00,20,00,
77643860,00000717,false,Rx,1,8,06,00,0A,46,66,06,00,40,
77652679,00000217,false,Rx,1,8,02,00,01,FC,9C,02,00,04,
77742847,00000207,false,Rx,1,8,00,00,00,00,C8,00,04,00,
77743093,00000227,false,Rx,1,8,00,00,00,00,00,00,1F,C5,
77743343,00000237,false,Rx,1,8,3C,41,00,00,00,00,00,00,
77743575,00000247,false,Rx,1,8,44,7D,6E,03,00,00,20,00,
77743822,00000717,false,Rx,1,8,07,00,00,00,02,0A,00,00,
77752631,00000217,false,Rx,1,8,02,00,01,FC,9C,02,00,04,
77842837,00000207,false,Rx,1,8,00,00,C0,FF,C8,00,04,00,
77843077,00000227,false,Rx,1,8,00,00,00,00,00,00,1F,C5,
77843325,00000237,false,Rx,1,8,3C,41,00,00,00,00,00,00,
77843565,00000247,false,Rx,1,8,44,7D,6E,03,00,00,20,00,
77843805,00000717,false,Rx,1,8,08,00,00,00,3E,46,00,00,
77852628,00000217,false,Rx,1,8,02,00,01,FC,9C,02,00,04,
77942801,00000207,false,Rx,1,8,00,00,C0,FF,C8,00,04,00,
77943041,00000227,false,Rx,1,8,00,00,00,00,00,00,1F,C5,
77943290,00000237,false,Rx,1,8,3C,41,00,00,00,00,00,00,
77943530,00000247,false,Rx,1,8,44,7D,6E,03,00,00,20,00,
77943763,00000717,false,Rx,1,8,09,00,0E,46,00,00,00,00,
77952602,00000217,false,Rx,1,8,02,00,01,FC,9C,02,00,04,
78042773,00000207,false,Rx,1,8,00,00,C0,FF,C8,00,04,00,
78043019,00000227,false,Rx,1,8,00,00,00,00,01,00,1F,C5,
78043260,00000237,false,Rx,1,8,3C,41,00,00,00,00,00,00,
78043501,00000247,false,Rx,1,8,44,7D,6E,03,00,00,20,00,
78043749,00000717,false,Rx,1,8,0A,00,00,00,00,00,00,00,
78052573,00000217,false,Rx,1,8,02,00,01,FC,9C,02,00,04,
78142789,00000207,false,Rx,1,8,00,00,C0,FF,C8,00,04,00,
78143035,00000227,false,Rx,1,8,00,00,00,00,00,00,1F,C5,
78143283,00000237,false,Rx,1,8,3C,41,00,00,00,00,00,00,
78143517,00000247,false,Rx,1,8,44,7D,6E,03,00,00,20,00,
78143764,00000717,false,Rx,1,8,0B,00,00,00,00,00,00,00,
78152566,00000217,false,Rx,1,8,02,00,01,FC,9C,02,00,04,
78242739,00000207,false,Rx,1,8,00,00,C0,FF,C8,00,04,00,
78242986,00000227,false,Rx,1,8,00,00,00,00,01,00,1F,C5,
78243227,00000237,false,Rx,1,8,3C,41,00,00,00,00,00,00,
78243468,00000247,false,Rx,1,8,44,7D,6E,03,00,00,20,00,
78243708,00000717,false,Rx,1,8,0C,01,00,04,04,00,01,00,
78252525,00000217,false,Rx,1,8,02,00,01,FC,9C,02,00,04,
78342634,00000367,false,Rx,1,8,00,00,00,00,00,00,00,00,
78342880,00000207,false,Rx,1,8,00,00,C0,FF,C8,00,04,00,
78343128,00000227,false,Rx,1,8,00,00,00,00,00,00,1F,C5,
78343369,00000237,false,Rx,1,8,3C,41,00,00,00,00,00,00,
78343609,00000247,false,Rx,1,8,44,7D,6E,03,00,00,20,00,
78343850,00000717,false,Rx,1,8,0E,00,00,02,66,17,00,00,
78352519,00000217,false,Rx,1,8,02,00,01,FC,9C,02,00,04,
78352765,00000377,false,Rx,1,8,00,00,00,00,00,00,00,00,
78362613,00000347,false,Rx,1,8,00,00,00,00,00,08,00,00,
78372617,00000357,false,Rx,1,8,00,00,00,00,00,00,00,00,
78382616,00000327,false,Rx,1,8,00,00,00,00,00,00,00,00,
78392605,00000337,false,Rx,1,8,00,00,00,00,00,00,00,00,
78442689,00000207,false,Rx,1,8,00,00,C0,FF,C8,00,04,00,
78442929,00000227,false,Rx,1,8,00,00,00,00,05,00,1F,C5,
78443176,00000237,false,Rx,1,8,3C,41,00,00,00,00,00,00,
78443417,00000247,false,Rx,1,8,44,7D,6E,03,00,00,20,00,
78443658,00000717,false,Rx,1,8,0F,00,EB,01,D2,10,00,00,
78452504,00000217,false,Rx,1,8,02,00,01,FC,9C,02,00,04,
78542661,00000207,false,Rx,1,8,00,00,C0,FF,C8,00,04,00,
78542908,00000227,false,Rx,1,8,00,00,00,00,01,00,1F,C5,
78543155,00000237,false,Rx,1,8,3C,41,00,00,00,00,00,00,
78543390,00000247,false,Rx,1,8,44,7D,6E,03,00,00,20,00,
78543624,00000717,false,Rx,1,8,10,09,D0,FE,03,80,FF,00,
78552454,00000217,false,Rx,1,8,02,00,01,FC,9C,02,00,04,
78642671,00000207,false,Rx,1,8,00,00,C0,FF,C8,00,04,00,
78642917,00000227,false,Rx,1,8,00,00,00,00,03,00,1F,C5,
78643157,00000237,false,Rx,1,8,3C,41,00,00,00,00,00,00,
78643399,00000247,false,Rx,1,8,44,7D,6E,03,00,00,20,00,
78643646,00000717,false,Rx,1,8,11,00,00,00,00,00,02,02,
78652454,00000217,false,Rx,1,8,02,00,01,FC,9C,02,00,04,
78742616,00000207,false,Rx,1,8,00,00,00,00,C8,00,04,00,
78742862,00000227,false,Rx,1,8,00,00,00,00,01,00,1F,C5,
78743102,00000237,false,Rx,1,8,3C,41,00,00,00,00,00,00,
78743345,00000247,false,Rx,1,8,44,7D,6E,03,00,00,20,00,
78743585,00000717,false,Rx,1,8,12,40,29,00,27,00,15,00,
78752417,00000217,false,Rx,1,8,02,00,01,FC,9C,02,00,04,
78842636,00000207,false,Rx,1,8,00,00,C0,FF,C8,00,04,00,
78842875,00000227,false,Rx,1,8,00,00,00,00,00,00,1F,C5,
78843123,00000237,false,Rx,1,8,3C,41,00,00,00,00,00,00,
78843365,00000247,false,Rx,1,8,44,7D,6E,03,00,00,20,00,
78843612,00000717,false,Rx,1,8,13,00,00,00,00,00,00,00,
78852422,00000217,false,Rx,1,8,02,00,01,FC,9C,02,00,04,
78942606,00000207,false,Rx,1,8,00,00,00,00,C8,00,04,00,
78942845,00000227,false,Rx,1,8,00,00,00,00,00,00,1F,C5,
78943093,00000237,false,Rx,1,8,3C,41,00,00,00,00,00,00,
78943334,00000247,false,Rx,1,8,44,7D,6E,03,00,00,20,00,
78943574,00000717,false,Rx,1,8,14,00,00,00,F6,FF,00,00,
78952397,00000217,false,Rx,1,8,02,00,01,FC,9C,02,00,04,
79042550,00000207,false,Rx,1,8,00,00,00,00,C8,00,04,00,
79042797,00000227,false,Rx,1,8,00,00,00,00,00,00,1F,C5,
79043045,00000237,false,Rx,1,8,3C,41,00,00,00,00,00,00,
79043278,00000247,false,Rx,1,8,44,7D,6E,03,00,00,20,00,
79052351,00000217,false,Rx,1,8,02,00,01,FC,9C,02,00,04,
79142566,00000207,false,Rx,1,8,00,00,C0,FF,C8,00,04,00,
79142820,00000227,false,Rx,1,8,00,00,00,00,02,00,1F,C5,
79143060,00000237,false,Rx,1,8,3C,41,00,00,00,00,00,00,
79143302,00000247,false,Rx,1,8,44,7D,6E,03,00,00,20,00,
79143542,00000717,false,Rx,1,8,16,00,00,00,00,00,52,46,
79152343,00000217,false,Rx,1,8,02,00,01,FC,9C,02,00,04,
79242512,00000207,false,Rx,1,8,00,00,C0,FF,C8,00,04,00,
79242759,00000227,false,Rx,1,8,00,00,00,00,0B,00,1F,C5,
79243006,00000237,false,Rx,1,8,3C,41,00,00,00,00,00,00,
79243240,00000247,false,Rx,1,8,44,7D,6E,03,00,00,20,00,
79243488,00000717,false,Rx,1,8,17,00,00,50,04,00,00,00,
79252334,00000217,false,Rx,1,8,02,00,01,FC,9C,02,00,04,
79342427,00000367,false,Rx,1,8,00,00,00,00,00,00,00,00,
79342673,00000207,false,Rx,1,8,00,00,C0,FF,C8,00,04,00,
79342913,00000227,false,Rx,1,8,00,00,00,00,00,00,1F,C5,
79343161,00000237,false,Rx,1,8,3C,41,00,00,00,00,00,00,
79343402,00000247,false,Rx,1,8,44,7D,6E,03,00,00,20,00,
79343650,00000717,false,Rx,1,8,18,00,00,00,00,00,00,00,
79352306,00000217,false,Rx,1,8,02,00,01,FC,9C,02,00,04,
79352560,00000377,false,Rx,1,8,00,00,00,00,00,00,00,00,
79362422,00000347,false,Rx,1,8,00,00,00,00,00,08,00,00,
79372411,00000357,false,Rx,1,8,00,00,00,00,00,00,00,00,
79382417,00000327,false,Rx,1,8,00,00,00,00,00,00,00,00,
79392399,00000337,false,Rx,1,8,00,00,00,00,00,00,00,00,
79442492,00000207,false,Rx,1,8,00,00,00,00,C8,00,04,00,
79442739,00000227,false,Rx,1,8,00,00,00,00,00,00,1F,C5,
79442980,00000237,false,Rx,1,8,3C,41,00,00,00,00,00,00,
79443220,00000247,false,Rx,1,8,44,7D,6E,03,00,00,20,00,
79443468,00000717,false,Rx,1,8,19,00,00,00,00,00,00,00,
79452286,00000217,false,Rx,1,8,02,00,01,FC,9C,02,00,04,
79542462,00000207,false,Rx,1,8,00,00,C0,FF,C8,00,04,00,
79542709,00000227,false,Rx,1,8,00,00,00,00,00,00,1F,C5,
79542957,00000237,false,Rx,1,8,3C,41,00,00,00,00,00,00,
79543197,00000247,false,Rx,1,8,44,7D,6E,03,00,00,20,00,
79543439,00000717,false,Rx,1,8,01,00,00,00,00,00,00,00,
79552246,00000217,false,Rx,1,8,02,00,01,FC,9C,02,00,04,
79642461,00000207,false,Rx,1,8,00,00,00,00,C8,00,04,00,
79642709,00000227,false,Rx,1,8,00,00,00,00,01,00,1F,C5,
79642956,00000237,false,Rx,1,8,3C,41,00,00,00,00,00,00,
79643196,00000247,false,Rx,1,8,44,7D,6E,03,00,00,20,00,
79643438,00000717,false,Rx,1,8,02,00,00,00,00,00,00,00,
79652248,00000217,false,Rx,1,8,02,00,01,FC,9C,02,00,04,
79742417,00000207,false,Rx,1,8,00,00,C0,FF,C8,00,04,00,
79742663,00000227,false,Rx,1,8,00,00,00,00,01,00,1F,C5,
79742911,00000237,false,Rx,1,8,3C,41,00,00,00,00,00,00,
79743152,00000247,false,Rx,1,8,44,7D,6E,03,00,00,20,00,
79752222,00000217,false,Rx,1,8,02,00,01,FC,9C,02,00,04,
79842399,00000207,false,Rx,1,8,00,00,00,00,C8,00,04,00,
79842645,00000227,false,Rx,1,8,00,00,00,00,02,00,1F,C5,
79842893,00000237,false,Rx,1,8,3C,41,00,00,00,00,00,00,
79843134,00000247,false,Rx,1,8,44,7D,6E,03,00,00,20,00,
79843375,00000717,false,Rx,1,8,04,00,00,00,00,00,00,00,
79852183,00000217,false,Rx,1,8,02,00,01,FC,9C,02,00,04,
79942402,00000207,false,Rx,1,8,00,00,00,00,C8,00,04,00,
79942640,00000227,false,Rx,1,8,00,00,00,00,00,00,1F,C5,
79942889,00000237,false,Rx,1,8,3C,41,00,00,00,00,00,00,
79943129,00000247,false,Rx,1,8,44,7D,6E,03,00,00,20,00,
79943377,00000717,false,Rx,1,8,05,00,00,00,00,00,00,00,
79952185,00000217,false,Rx,1,8,02,00,01,FC,9C,02,00,04,
80042359,00000207,false,Rx,1,8,00,00,00,00,C8,00,04,00,
80042606,00000227,false,Rx,1,8,00,00,00,00,04,00,1F,C5,
80042853,00000237,false,Rx,1,8,3C,41,00,00,00,00,00,00,
80043093,00000247,false,Rx,1,8,44,7D,6E,03,00,00,20,00,
80043328,00000717,false,Rx,1,8,06,00,4E,46,66,06,00,40,
80052145,00000217,false,Rx,1,8,02,00,01,FC,9C,02,00,04,
80142348,00000207,false,Rx,1,8,00,00,C0,FF,C8,00,04,00,
80142596,00000227,false,Rx,1,8,00,00,00,00,01,00,1F,C5,
80142843,00000237,false,Rx,1,8,3C,41,00,00,00,00,00,00,
80143083,00000247,false,Rx,1,8,44,7D,6E,03,00,00,20,00,
80143325,00000717,false,Rx,1,8,07,00,00,00,02,0A,00,00,
80152139,00000217,false,Rx,1,8,02,00,01,FC,9C,02,00,04,
80242294,00000207,false,Rx,1,8,00,00,C0,FF,C8,00,04,00,
80242540,00000227,false,Rx,1,8,00,00,00,00,00,00,1F,C5,
80242780,00000237,false,Rx,1,8,3C,41,00,00,00,00,00,00,
80243020,00000247,false,Rx,1,8,44,7D,6E,03,00,00,20,00,
80243263,00000717,false,Rx,1,8,08,00,00,00,CE,45,00,00,
80252109,00000217,false,Rx,1,8,02,00,01,FC,9C,02,00,04,
80342200,00000367,false,Rx,1,8,00,00,00,00,00,00,00,00,
80342448,00000207,false,Rx,1,8,00,00,C0,FF,C8,00,04,00,
80342695,00000227,false,Rx,1,8,00,00,00,00,02,00,1F,C5,
80342943,00000237,false,Rx,1,8,3C,41,00,00,00,00,00,00,
80343183,00000247,false,Rx,1,8,44,7D,6E,03,00,00,20,00,
80343424,00000717,false,Rx,1,8,09,00,4E,46,00,00,00,00,
80352070,00000217,false,Rx,1,8,02,00,01,FC,9C,02,00,04,
80352320,00000377,false,Rx,1,8,00,00,00,00,00,00,00,00,
80362196,00000347,false,Rx,1,8,00,00,00,00,00,08,00,00,
80372200,00000357,false,Rx,1,8,00,00,00,00,00,00,00,00,
80382211,00000327,false,Rx,1,8,00,00,00,00,00,00,00,00,
80392208,00000337,false,Rx,1,8,00,00,00,00,00,00,00,00,
80442301,00000207,false,Rx,1,8,00,00,C0,FF,C8,00,04,00,
80442539,00000227,false,Rx,1,8,00,00,00,00,00,00,1F,C5,
80442788,00000237,false,Rx,1,8,3C,41,00,00,00,00,00,00,
80443028,00000247,false,Rx,1,8,44,7D,6E,03,00,00,20,00,
80443276,00000717,false,Rx,1,8,0A,00,00,00,00,00,00,00,
80452076,00000217,false,Rx,1,8,02,00,01,FC,9C,02,00,04,
80542244,00000207,false,Rx,1,8,00,00,C0,FF,C8,00,04,00,
80542497,00000227,false,Rx,1,8,00,00,00,00,02,00,1F,C5,
80542738,00000237,false,Rx,1,8,3C,41,00,00,00,00,00,00,
80542978,00000247,false,Rx,1,8,44,7D,6E,03,00,00,20,00,
80543226,00000717,false,Rx,1,8,0B,00,00,00,00,00,00,00,
80552051,00000217,false,Rx,1,8,02,00,01,FC,9C,02,00,04,
80642248,00000207,false,Rx,1,8,00,00,C0,FF,C8,00,04,00,
80642496,00000227,false,Rx,1,8,00,00,00,00,02,00,1F,C5,
80642743,00000237,false,Rx,1,8,3C,41,00,00,00,00,00,00,
80642983,00000247,false,Rx,1,8,44,7D,6E,03,00,00,20,00,
80643224,00000717,false,Rx,1,8,0C,01,00,04,04,00,01,00,
80652025,00000217,false,Rx,1,8,02,00,01,FC,9C,02,00,04,
80742230,00000207,false,Rx,1,8,00,00,C0,FF,C8,00,04,00,
80742471,00000227,false,Rx,1,8,00,00,00,00,03,00,1F,C5,
80742718,00000237,false,Rx,1,8,3C,41,00,00,00,00,00,00,
80742958,00000247,false,Rx,1,8,44,7D,6E,03,00,00,20,00,
80743199,00000717,false,Rx,1,8,0E,00,00,02,C6,20,00,00,
80752014,00000217,false,Rx,1,8,02,00,01,FC,9C,02,00,04,
80842183,00000207,false,Rx,1,8,00,00,C0,FF,C8,00,04,00,
80842430,00000227,false,Rx,1,8,00,00,00,00,00,00,1F,C5,
80842677,00000237,false,Rx,1,8,3C,41,00,00,00,00,00,00,
80842911,00000247,false,Rx,1,8,44,7D,6E,03,00,00,20,00,
80843151,00000717,false,Rx,1,8,0F,00,EB,01,38,0E,00,00,
80851974,00000217,false,Rx,1,8,02,00,01,FC,9C,02,00,04,
80942179,00000207,false,Rx,1,8,00,00,00,00,C8,00,04,00,
80942427,00000227,false,Rx,1,8,00,00,00,00,00,00,1F,C5,
80942675,00000237,false,Rx,1,8,3C,41,00,00,00,00,00,00,
80942908,00000247,false,Rx,1,8,44,7D,6E,03,00,00,20,00,
80943148,00000717,false,Rx,1,8,10,09,D0,FE,03,80,FF,00,
80951965,00000217,false,Rx,1,8,02,00,01,FC,9C,02,00,04,
81042122,00000207,false,Rx,1,8,00,00,00,00,C8,00,04,00,
81042369,00000227,false,Rx,1,8,00,00,78,00,04,00,1F,C5,
81042617,00000237,false,Rx,1,8,3C,41,00,00,00,00,00,00,
81042857,00000247,false,Rx,1,8,44,7D,6E,03,00,00,20,00,
81043090,00000717,false,Rx,1,8,11,00,A5,FF,00,00,02,02,
81051943,00000217,false,Rx,1,8,02,00,01,FC,9C,02,00,04,
81142111,00000207,false,Rx,1,8,00,00,C0,FF,C8,00,04,00,
81142351,00000227,false,Rx,1,8,00,00,A8,02,00,00,1F,C5,
81142600,00000237,false,Rx,1,8,3C,41,00,00,00,00,00,00,
81142840,00000247,false,Rx,1,8,44,7D,6E,03,00,00,20,00,
81143072,00000717,false,Rx,1,8,12,40,29,00,27,00,15,00,
81151915,00000217,false,Rx,1,8,02,00,01,FC,9C,02,00,04,
81242116,00000207,false,Rx,1,8,00,00,C0,FF,C8,00,04,00,
81242357,00000227,false,Rx,1,8,00,00,6B,04,00,00,1F,C5,
81242605,00000237,false,Rx,1,8,3C,41,00,00,00,00,00,00,
81242837,00000247,false,Rx,1,8,44,7D,6E,03,00,00,20,00,
81243085,00000717,false,Rx,1,8,13,00,00,00,00,00,00,00,
81251905,00000217,false,Rx,1,8,02,00,01,FC,9C,02,00,00,
81341982,00000367,false,Rx,1,8,00,00,00,00,00,00,00,00,
81342230,00000207,false,Rx,1,8,00,00,C0,FF,C8,00,04,00,
81342478,00000227,false,Rx,1,8,00,00,2F,06,00,00,1F,C5,
81342718,00000237,false,Rx,1,8,3C,41,00,00,00,00,00,00,
81342959,00000247,false,Rx,1,8,44,7D,6E,03,00,00,20,00,
81343206,00000717,false,Rx,1,8,14,00,00,00,07,00,00,00,
81351859,00000217,false,Rx,1,8,00,00,01,FC,9C,02,00,00,
81352114,00000377,false,Rx,1,8,00,00,00,00,00,00,00,00,
81361975,00000347,false,Rx,1,8,00,00,00,00,00,08,00,00,
81371972,00000357,false,Rx,1,8,00,00,00,00,00,00,00,00,
81381977,00000327,false,Rx,1,8,00,00,00,00,00,00,00,00,
81391973,00000337,false,Rx,1,8,00,00,00,00,00,00,00,00,
81442081,00000207,false,Rx,1,8,00,00,C0,FF,C8,00,04,00,
81442313,00000227,false,Rx,1,8,00,00,90,07,01,00,1F,C5,
81442561,00000237,false,Rx,1,8,3C,41,00,00,00,00,00,00,
81442802,00000247,false,Rx,1,8,44,7D,6E,03,00,00,20,00,
81451859,00000217,false,Rx,1,8,00,00,01,FC,9C,02,00,00,
81542061,00000207,false,Rx,1,8,00,00,C0,FF,C8,00,04,00,
81542293,00000227,false,Rx,1,8,00,00,D3,09,00,00,1F,C5,
81542542,00000237,false,Rx,1,8,3C,41,00,00,00,00,00,00,
81542782,00000247,false,Rx,1,8,44,7D,6E,03,00,00,20,00,
81543022,00000717,false,Rx,1,8,16,00,00,00,00,00,4E,46,
81551845,00000217,false,Rx,1,8,00,00,01,FC,9C,02,00,00,
81642016,00000207,false,Rx,1,8,00,00,00,00,C8,00,04,00,
81642255,00000227,false,Rx,1,8,00,00,91,0B,00,00,1F,C5,
81642504,00000237,false,Rx,1,8,3C,41,00,00,00,00,00,00,
81642736,00000247,false,Rx,1,8,44,7D,6E,03,00,00,20,00,
81642984,00000717,false,Rx,1,8,17,00,00,50,04,00,00,00,
81651801,00000217,false,Rx,1,8,00,00,01,FC,9C,02,00,00,
81742008,00000207,false,Rx,1,8,00,00,00,00,C8,00,04,00,
81742242,00000227,false,Rx,1,8,00,00,B3,0C,09,00,1F,C5,
81742490,00000237,false,Rx,1,8,3C,41,00,00,00,00,00,00,
81742722,00000247,false,Rx,1,8,44,7D,6E,03,00,00,20,00,
81742971,00000717,false,Rx,1,8,18,00,00,00,00,00,00,00,
81751793,00000217,false,Rx,1,8,00,00,01,FC,9C,02,00,00,
81841973,00000207,false,Rx,1,8,00,00,00,00,C8,00,04,00,
81842213,00000227,false,Rx,1,8,00,00,D5,0D,00,00,1F,C5,
81842455,00000237,false,Rx,1,8,3C,41,00,00,00,00,00,00,
81842695,00000247,false,Rx,1,8,44,7D,6E,03,00,00,20,00,
81842943,00000717,false,Rx,1,8,19,00,00,00,00,00,00,00,
81851751,00000217,false,Rx,1,8,00,00,01,FC,9C,02,00,00,
81941968,00000207,false,Rx,1,8,00,00,C0,FF,C8,00,04,00,
81942215,00000227,false,Rx,1,8,00,00,6E,0F,00,00,1F,C5,
81942463,00000237,false,Rx,1,8,3C,41,00,00,00,00,00,00,
81942697,00000247,false,Rx,1,8,44,7D,6E,03,00,00,20,00,
81942944,00000717,false,Rx,1,8,01,00,00,00,00,00,00,00,
81951760,00000217,false,Rx,1,8,00,00,01,FC,9C,02,00,00,
82041957,00000207,false,Rx,1,8,00,00,00,00,C8,00,04,00,
82042196,00000227,false,Rx,1,8,00,00,92,10,00,00,1F,C5,
82042445,00000237,false,Rx,1,8,3C,41,00,00,00,00,00,00,
82042686,00000247,false,Rx,1,8,44,7D,6E,03,00,00,20,00,
82042926,00000717,false,Rx,1,8,02,00,00,00,00,00,00,00,
82051736,00000217,false,Rx,1,8,00,00,01,FC,9C,02,00,00,
82141910,00000207,false,Rx,1,8,00,00,00,00,C8,00,04,00,
82142149,00000227,false,Rx,1,8,00,00,6C,12,00,00,1F,C5,
82142399,00000237,false,Rx,1,8,3C,41,00,00,00,00,00,00,
82142631,00000247,false,Rx,1,8,44,7D,6E,03,00,00,20,00,
82151694,00000217,false,Rx,1,8,00,00,01,FC,9C,02,00,00,
82241910,00000207,false,Rx,1,8,00,00,C0,FF,C8,00,04,00,
82242149,00000227,false,Rx,1,8,00,00,63,14,01,00,1F,C5,
82242391,00000237,false,Rx,1,8,3C,41,00,00,00,00,00,00,
82242630,00000247,false,Rx,1,8,44,7D,6E,03,00,00,20,00,
82242878,00000717,false,Rx,1,8,04,00,00,00,00,00,00,00,
82251696,00000217,false,Rx,1,8,00,00,01,FC,9C,02,00,00,
82341779,00000367,false,Rx,1,8,00,00,00,00,00,00,00,00,
82342026,00000207,false,Rx,1,8,00,00,00,00,C8,00,04,00,
82342268,00000227,false,Rx,1,8,00,00,45,16,00,00,1F,C5,
82342508,00000237,false,Rx,1,8,3C,41,00,00,00,00,00,00,
82342747,00000247,false,Rx,1,8,44,7D,6E,03,00,00,20,00,
82342996,00000717,false,Rx,1,8,05,00,00,00,00,00,00,00,
82351673,00000217,false,Rx,1,8,00,00,01,FC,9C,02,00,00,
82351919,00000377,false,Rx,1,8,00,00,00,00,00,00,00,00,
82361766,00000347,false,Rx,1,8,00,00,00,00,00,08,00,00,
82371770,00000357,false,Rx,1,8,00,00,00,00,00,00,00,00,
82381766,00000327,false,Rx,1,8,00,00,00,00,00,00,00,00,
82391764,00000337,false,Rx,1,8,00,00,00,00,00,00,00,00,
82441858,00000207,false,Rx,1,8,00,00,C0,FF,C8,00,04,00,
82442097,00000227,false,Rx,1,8,00,00,46,18,00,00,1F,C5,
82442345,00000237,false,Rx,1,8,3C,41,00,00,00,00,00,00,
82442585,00000247,false,Rx,1,8,44,7D,6E,03,00,00,20,00,
82442818,00000717,false,Rx,1,8,06,00,B6,45,66,06,00,40,
82451648,00000217,false,Rx,1,8,00,00,01,FC,9C,02,00,00,
82541827,00000207,false,Rx,1,8,00,00,C0,FF,C8,00,04,00,
82542066,00000227,false,Rx,1,8,00,00,49,18,07,00,1F,C5,
82542316,00000237,false,Rx,1,8,3C,41,00,00,00,00,00,00,
82542549,00000247,false,Rx,1,8,44,7D,6E,03,00,00,20,00,
82542797,00000717,false,Rx,1,8,07,00,00,00,00,0A,00,00,
82551628,00000217,false,Rx,1,8,00,00,01,FC,9C,02,00,00,
82641787,00000207,false,Rx,1,8,00,00,C0,FF,C8,00,04,00,
82642025,00000227,false,Rx,1,8,00,00,31,18,05,00,1F,C5,
82642274,00000237,false,Rx,1,8,3C,41,00,00,00,00,00,00,
82642507,00000247,false,Rx,1,8,44,7D,6E,03,00,00,20,00,
82642755,00000717,false,Rx,1,8,08,00,00,00,36,46,00,00,
82651586,00000217,false,Rx,1,8,00,00,01,FC,9C,02,00,00,
82741796,00000207,false,Rx,1,8,00,00,C0,FF,C8,00,04,00,
82742035,00000227,false,Rx,1,8,00,00,32,18,01,00,1F,C5,
82742278,00000237,false,Rx,1,8,3C,41,00,00,00,00,00,00,
82742518,00000247,false,Rx,1,8,44,7D,6E,03,00,00,20,00,
82742758,00000717,false,Rx,1,8,09,00,FA,45,00,00,00,00,
82751590,00000217,false,Rx,1,8,00,00,01,FC,9C,02,00,00,
82841759,00000207,false,Rx,1,8,00,00,C0,FF,C8,00,04,00,
82841999,00000227,false,Rx,1,8,00,00,36,18,00,00,1F,C5,
82842248,00000237,false,Rx,1,8,3C,41,00,00,00,00,00,00,
82842480,00000247,false,Rx,1,8,44,7D,6E,03,00,00,20,00,
82842728,00000717,false,Rx,1,8,0A,00,00,00,00,00,00,00,
82851567,00000217,false,Rx,1,8,00,00,01,FC,9C,02,00,00,
82941741,00000207,false,Rx,1,8,00,00,00,00,C8,00,04,00,
82941989,00000227,false,Rx,1,8,00,00,3A,18,00,00,1F,C5,
82942228,00000237,false,Rx,1,8,3C,41,00,00,00,00,00,00,
82942469,00000247,false,Rx,1,8,44,7D,6E,03,00,00,20,00,
82942718,00000717,false,Rx,1,8,0B,00,00,00,00,00,00,00,
82951540,00000217,false,Rx,1,8,00,00,01,FC,9C,02,00,00,
83041739,00000207,false,Rx,1,8,00,00,C0,FF,C8,00,04,00,
83041978,00000227,false,Rx,1,8,00,00,37,18,00,00,1F,C5,
83042225,00000237,false,Rx,1,8,3C,41,00,00,00,00,00,00,
83042460,00000247,false,Rx,1,8,44,7D,6E,03,00,00,20,00,
83042700,00000717,false,Rx,1,8,0C,01,00,00,00,00,01,00,
83051522,00000217,false,Rx,1,8,00,00,01,FC,9C,02,00,00,
83141695,00000207,false,Rx,1,8,00,00,C0,FF,C8,00,04,00,
83141942,00000227,false,Rx,1,8,00,00,38,18,00,00,1F,C5,
83142189,00000237,false,Rx,1,8,3C,41,00,00,00,00,00,00,
83142424,00000247,false,Rx,1,8,44,7D,6E,03,00,00,20,00,
83142664,00000537,false,Rx,1,8,0A,01,0E,00,FC,00,3F,00,
83142904,00000717,false,Rx,1,8,0E,00,00,02,26,2A,00,00,
83151484,00000217,false,Rx,1,8,00,40,01,FC,9C,02,00,00,
83241702,00000207,false,Rx,1,8,00,00,C0,FF,C8,00,04,00,
83241940,00000227,false,Rx,1,8,00,00,69,18,04,00,1F,C5,
83242181,00000237,false,Rx,1,8,3C,41,00,00,00,00,00,00,
83242422,00000247,false,Rx,1,8,44,7D,6E,03,00,00,20,00,
83242662,00000717,false,Rx,1,8,0F,00,EB,01,4C,0E,00,00,
83251472,00000217,false,Rx,1,8,00,40,01,FC,9C,02,00,00,
83341550,00000367,false,Rx,1,8,00,00,00,00,00,00,00,00,
83341797,00000207,false,Rx,1,8,00,00,C0,FF,C8,00,04,00,
83342038,00000227,false,Rx,1,8,00,00,B8,18,00,00,1F,C5,
83342286,00000237,false,Rx,1,8,3C,41,00,00,00,00,00,00,
83342526,00000247,false,Rx,1,8,44,7D,6E,03,00,00,20,00,
83342760,00000717,false,Rx,1,8,10,09,D0,FE,03,80,FF,00,
83351452,00000217,false,Rx,1,8,00,40,01,FC,9C,02,00,00,
83351698,00000377,false,Rx,1,8,00,00,00,00,00,00,00,00,
83361548,00000347,false,Rx,1,8,00,00,00,00,00,08,00,00,
83371545,00000357,false,Rx,1,8,00,00,00,00,00,00,00,00,
83381542,00000327,false,Rx,1,8,00,00,00,00,00,00,00,00,
83391538,00000337,false,Rx,1,8,00,00,00,00,00,00,00,00,
83441638,00000207,false,Rx,1,8,00,00,00,00,C8,00,04,00,
83441878,00000227,false,Rx,1,8,00,00,F3,1A,00,00,1F,C5,
83442118,00000237,false,Rx,1,8,3C,41,00,00,00,00,00,00,
83442360,00000247,false,Rx,1,8,44,7D,6E,03,00,00,20,00,
83442601,00000717,false,Rx,1,8,11,00,B7,EB,00,00,00,00,
83451410,00000217,false,Rx,1,8,00,40,01,FC,9C,02,00,00,
83541639,00000207,false,Rx,1,8,00,00,C0,FF,C8,00,04,00,
83541878,00000227,false,Rx,1,8,00,00,F3,1C,03,00,1F,C5,
83542125,00000237,false,Rx,1,8,3C,41,00,00,00,00,00,00,
83542358,00000247,false,Rx,1,8,44,7D,6E,03,00,00,20,00,
83542599,00000717,false,Rx,1,8,12,40,29,00,27,00,15,00,
83551416,00000217,false,Rx,1,8,00,40,01,FC,9C,02,00,00,
83641573,00000207,false,Rx,1,8,00,00,00,00,C8,00,04,00,
83641812,00000227,false,Rx,1,8,00,00,CF,1E,04,00,1F,C5,
83642052,00000237,false,Rx,1,8,3C,41,00,00,00,00,00,00,
83642294,00000247,false,Rx,1,8,44,7D,6E,03,00,00,20,00,
83642541,00000717,false,Rx,1,8,13,00,00,00,00,00,00,00,
83651373,00000217,false,Rx,1,8,00,40,01,FC,9C,02,00,00,
83741585,00000207,false,Rx,1,8,00,00,C0,FF,C8,00,04,00,
83741824,00000227,false,Rx,1,8,00,00,16,20,0B,00,1F,C5,
83742072,00000237,false,Rx,1,8,3C,41,00,00,00,00,00,00,
83742313,00000247,false,Rx,1,8,44,7D,6E,03,00,00,20,00,
83742561,00000717,false,Rx,1,8,14,00,00,00,09,00,00,00,
83751362,00000217,false,Rx,1,8,00,40,01,FC,9C,02,00,00,
83841550,00000207,false,Rx,1,8,00,00,00,00,C8,00,04,00,
83841789,00000227,false,Rx,1,8,00,00,19,21,09,00,1F,C5,
83842037,00000237,false,Rx,1,8,3C,41,00,00,00,00,00,00,
83842271,00000247,false,Rx,1,8,44,7D,6E,03,00,00,20,00,
83851354,00000217,false,Rx,1,8,00,40,01,FC,9C,02,00,00,
83941512,00000207,false,Rx,1,8,00,00,00,00,C8,00,04,00,
83941751,00000227,false,Rx,1,8,00,00,D9,22,01,00,1F,C5,
83941999,00000237,false,Rx,1,8,3C,41,00,00,00,00,00,00,
83942239,00000247,false,Rx,1,8,44,7D,6E,03,00,00,20,00,
83942479,00000717,false,Rx,1,8,16,00,00,00,00,00,C2,45,
83951311,00000217,false,Rx,1,8,00,40,01,FC,9C,02,00,00,
84041525,00000207,false,Rx,1,8,00,00,C0,FF,C8,00,04,00,
84041765,00000227,false,Rx,1,8,00,00,27,25,00,00,1F,C5,
84042012,00000237,false,Rx,1,8,3C,41,00,00,00,00,00,00,
84042253,00000247,false,Rx,1,8,44,7D,6E,03,00,00,20,00,
84042494,00000537,false,Rx,1,8,0B,00,05,06,00,00,00,00,
84042734,00000717,false,Rx,1,8,17,00,00,50,04,00,00,00,
84051306,00000217,false,Rx,1,8,00,40,01,FC,9C,02,00,00,
84141475,00000207,false,Rx,1,8,00,00,00,00,C8,00,04,00,
84141713,00000227,false,Rx,1,8,00,00,22,27,01,00,1F,C5,
84141961,00000237,false,Rx,1,8,3C,41,00,00,00,00,00,00,
84142202,00000247,false,Rx,1,8,44,7D,6E,03,00,00,20,00,
84142443,00000717,false,Rx,1,8,18,00,00,00,00,00,00,00,
84151281,00000217,false,Rx,1,8,00,40,01,FC,9C,02,00,00,
84241480,00000207,false,Rx,1,8,00,00,00,00,C8,00,04,00,
84241719,00000227,false,Rx,1,8,00,00,21,29,00,00,1F,C5,
84241959,00000237,false,Rx,1,8,3C,41,00,00,00,00,00,00,
84242200,00000247,false,Rx,1,8,44,7D,6E,03,00,00,20,00,
84242449,00000717,false,Rx,1,8,19,00,00,00,00,00,00,00,
84251266,00000217,false,Rx,1,8,00,40,01,FC,9C,02,00,00,
84341347,00000367,false,Rx,1,8,00,00,00,00,00,00,00,00,
84341593,00000207,false,Rx,1,8,00,00,C0,FF,C8,00,04,00,
84341833,00000227,false,Rx,1,8,00,00,CD,2A,0C,00,1F,C5,
84342074,00000237,false,Rx,1,8,3C,41,00,00,00,00,00,00,
84342315,00000247,false,Rx,1,8,44,7D,6E,03,00,00,20,00,
84342563,00000717,false,Rx,1,8,01,00,00,00,00,00,00,00,
84351249,00000217,false,Rx,1,8,00,40,01,FC,9C,02,00,00,
84351495,00000377,false,Rx,1,8,00,00,00,00,00,00,00,00,
84361334,00000347,false,Rx,1,8,00,00,00,00,00,08,00,00,
84371339,00000357,false,Rx,1,8,00,00,00,00,00,00,00,00,
84381339,00000327,false,Rx,1,8,00,00,00,00,00,00,00,00,
84391329,00000337,false,Rx,1,8,00,00,00,00,00,00,00,00,
84441399,00000207,false,Rx,1,8,00,00,00,00,C8,00,04,00,
84441638,00000227,false,Rx,1,8,00,00,2D,2C,01,00,1F,C5,
84441886,00000237,false,Rx,1,8,3C,41,00,00,00,00,00,00,
84442126,00000247,false,Rx,1,8,44,7D,6E,03,00,00,20,00,
84442367,00000717,false,Rx,1,8,02,00,00,00,00,00,00,00,
84451197,00000217,false,Rx,1,8,00,40,01,FC,9C,02,00,00,
84541419,00000207,false,Rx,1,8,00,00,00,00,C8,00,04,00,
84541659,00000227,false,Rx,1,8,00,00,29,2D,00,00,1F,C5,
84541906,00000237,false,Rx,1,8,3C,41,00,00,00,00,00,00,
84542138,00000247,false,Rx,1,8,44,7D,6E,03,00,00,20,00,
84551194,00000217,false,Rx,1,8,00,40,01,FC,9C,02,00,00,
84641394,00000207,false,Rx,1,8,00,00,C0,FF,C8,00,04,00,
84641633,00000227,false,Rx,1,8,00,00,38,2E,04,00,1F,C5,
84641880,00000237,false,Rx,1,8,3C,41,00,00,00,00,00,00,
84642120,00000247,false,Rx,1,8,44,7D,6E,03,00,00,20,00,
84642370,00000717,false,Rx,1,8,04,00,00,00,00,00,00,00,
84651185,00000217,false,Rx,1,8,00,00,01,FC,9C,02,00,00,
84741354,00000207,false,Rx,1,8,00,00,C0,FF,C8,00,04,00,
84741593,00000227,false,Rx,1,8,00,00,37,2F,00,00,1F,C5,
84741840,00000237,false,Rx,1,8,3C,41,00,00,00,00,00,00,
84742074,00000247,false,Rx,1,8,44,7D,6E,03,00,00,20,00,
84742323,00000717,false,Rx,1,8,05,00,00,00,00,00,00,00,
84751145,00000217,false,Rx,1,8,00,00,01,FC,9C,02,00,00,
84841352,00000207,false,Rx,1,8,00,00,C0,FF,C8,00,04,00,
84841598,00000227,false,Rx,1,8,00,00,0B,30,00,00,1F,C5,
84841846,00000237,false,Rx,1,8,3C,41,00,00,00,00,00,00,
84842079,00000247,false,Rx,1,8,44,7D,6E,03,00,00,20,00,
84842320,00000717,false,Rx,1,8,06,00,CA,45,66,06,00,40,
84851137,00000217,false,Rx,1,8,00,00,01,FC,9C,02,00,00,
84941303,00000207,false,Rx,1,8,00,00,C0,FF,C8,00,04,00,
84941542,00000227,false,Rx,1,8,00,00,1D,31,00,00,1F,C5,
84941791,00000237,false,Rx,1,8,3C,41,00,00,00,00,00,00,
84942023,00000247,false,Rx,1,8,44,7D,6E,03,00,00,20,00,
84942264,00000537,false,Rx,1,8,0D,00,00,00,7D,F1,02,85,
84942513,00000717,false,Rx,1,8,07,00,00,00,00,0A,00,00,
84951091,00000217,false,Rx,1,8,00,00,01,FC,9C,02,00,00,
85041291,00000207,false,Rx,1,8,00,00,C0,FF,C8,00,04,00,
85041531,00000227,false,Rx,1,8,00,00,15,32,01,00,1F,C5,
85041778,00000237,false,Rx,1,8,3C,41,00,00,00,00,00,00,
85042018,00000247,false,Rx,1,8,44,7D,6E,03,00,00,20,00,
85042259,00000717,false,Rx,1,8,08,00,00,00,42,46,00,00,
85051096,00000217,false,Rx,1,8,00,00,01,FC,9C,02,00,00,
85141295,00000207,false,Rx,1,8,00,00,00,00,C8,00,04,00,
85141535,00000227,false,Rx,1,8,00,00,1A,33,03,00,1F,C5,
85141783,00000237,false,Rx,1,8,3C,41,00,00,00,00,00,00,
85142022,00000247,false,Rx,1,8,44,7D,6E,03,00,00,20,00,
85142257,00000717,false,Rx,1,8,09,00,4A,46,00,00,00,00,
85151073,00000217,false,Rx,1,8,00,00,01,FC,9C,02,00,00,
85241248,00000207,false,Rx,1,8,00,00,00,00,C8,00,04,00,
85241487,00000227,false,Rx,1,8,00,00,11,34,00,00,1F,C5,
85241727,00000237,false,Rx,1,8,3C,41,00,00,00,00,00,00,
85241968,00000247,false,Rx,1,8,44,7D,6E,03,00,00,20,00,
85242216,00000717,false,Rx,1,8,0A,00,00,00,00,00,00,00,
85251025,00000217,false,Rx,1,8,00,00,01,FC,9C,02,00,00,
85341125,00000367,false,Rx,1,8,00,00,00,00,00,00,00,00,
85341373,00000207,false,Rx,1,8,00,00,00,00,C8,00,04,00,
85341612,00000227,false,Rx,1,8,00,00,A9,35,00,00,1F,C5,
85341854,00000237,false,Rx,1,8,3C,41,00,00,00,00,00,00,
85342093,00000247,false,Rx,1,8,44,7D,6E,03,00,00,20,00,
85342343,00000717,false,Rx,1,8,0B,00,00,00,00,00,00,00,
85351029,00000217,false,Rx,1,8,00,00,01,FC,9C,02,00,00,
85351276,00000377,false,Rx,1,8,00,00,00,00,00,00,00,00,
85361116,00000347,false,Rx,1,8,00,00,00,00,00,08,00,00,
85371119,00000357,false,Rx,1,8,00,00,00,00,00,00,00,00,
85381124,00000327,false,Rx,1,8,00,00,00,00,00,00,00,00,
85391124,00000337,false,Rx,1,8,00,00,00,00,00,00,00,00,
85441210,00000207,false,Rx,1,8,00,00,C0,FF,C8,00,04,00,
85441442,00000227,false,Rx,1,8,00,00,EA,36,00,00,1F,C5,
85441691,00000237,false,Rx,1,8,3C,41,00,00,00,00,00,00,
85441930,00000247,false,Rx,1,8,44,7D,6E,03,00,00,20,00,
85442170,00000717,false,Rx,1,8,0C,01,00,00,00,00,01,00,
85450982,00000217,false,Rx,1,8,00,00,01,FC,9C,02,00,00,
85541195,00000207,false,Rx,1,8,00,00,C0,FF,C8,00,04,00,
85541435,00000227,false,Rx,1,8,00,00,0C,38,02,00,1F,C5,
85541676,00000237,false,Rx,1,8,3C,41,00,00,00,00,00,00,
85541916,00000247,false,Rx,1,8,44,7D,6E,03,00,00,20,00,
85542155,00000717,false,Rx,1,8,0E,00,00,02,86,33,00,00,
85550988,00000217,false,Rx,1,8,00,00,01,FC,9C,02,00,00,
85641186,00000207,false,Rx,1,8,00,00,C0,FF,C8,00,04,00,
85641420,00000227,false,Rx,1,8,00,00,2F,39,00,00,1F,C5,
85641667,00000237,false,Rx,1,8,3C,41,00,00,00,00,00,00,
85641907,00000247,false,Rx,1,8,44,7D,6E,03,00,00,20,00,
85642140,00000717,false,Rx,1,8,0F,00,EB,01,26,11,00,00,
85650958,00000217,false,Rx,1,8,00,00,01,FC,9C,02,00,00,
85741132,00000207,false,Rx,1,8,00,00,00,00,C8,00,04,00,
85741365,00000227,false,Rx,1,8,00,00,FE,39,01,00,1F,C5,
85741612,00000237,false,Rx,1,8,3C,41,00,00,00,00,00,00,
85741852,00000247,false,Rx,1,8,44,7D,6E,03,00,00,20,00,
85742086,00000717,false,Rx,1,8,10,09,D0,FE,03,80,FF,00,
85750917,00000217,false,Rx,1,8,00,00,01,FC,9C,02,00,00,
85841139,00000207,false,Rx,1,8,00,00,00,00,C8,00,04,00,
85841379,00000227,false,Rx,1,8,00,00,86,3A,01,00,1F,C5,
85841619,00000237,false,Rx,1,8,3C,41,00,00,00,00,00,00,
85841860,00000247,false,Rx,1,8,44,7D,6E,03,00,00,20,00,
85842107,00000537,false,Rx,1,8,0E,00,00,00,00,00,00,00,
85842348,00000717,false,Rx,1,8,11,00,12,E4,00,00,00,00,
85850924,00000217,false,Rx,1,8,00,00,01,FC,9C,02,00,00,
85941099,00000207,false,Rx,1,8,00,00,C0,FF,C8,00,04,00,
85941339,00000227,false,Rx,1,8,00,00,0E,3C,00,00,1F,C5,
85941586,00000237,false,Rx,1,8,3C,41,00,00,00,00,00,00,
85941820,00000247,false,Rx,1,8,44,7D,6E,03,00,00,20,00,
85942060,00000717,false,Rx,1,8,12,40,29,00,27,00,15,00,
85950900,00000217,false,Rx,1,8,00,00,01,FC,9C,02,00,00,
86041081,00000207,false,Rx,1,8,00,00,C0,FF,C8,00,04,00,
86041321,00000227,false,Rx,1,8,00,00,83,3D,00,00,1F,C5,
86041562,00000237,false,Rx,1,8,3C,41,00,00,00,00,00,00,
86041802,00000247,false,Rx,1,8,44,7D,6E,03,00,00,20,00,
86042049,00000717,false,Rx,1,8,13,00,00,00,00,00,00,00,
86050880,00000217,false,Rx,1,8,00,00,01,FC,9C,02,00,00,
86141073,00000207,false,Rx,1,8,00,00,00,00,C8,00,04,00,
86141321,00000227,false,Rx,1,8,00,00,65,3E,02,00,1F,C5,
86141561,00000237,false,Rx,1,8,3C,41,00,00,00,00,00,00,
86141801,00000247,false,Rx,1,8,44,7D,6E,03,00,00,20,00,
86142048,00000717,false,Rx,1,8,14,00,00,00,D7,FF,00,00,
86150860,00000217,false,Rx,1,8,00,00,01,FC,9C,02,00,00,
86241020,00000207,false,Rx,1,8,00,00,C0,FF,C8,00,04,00,
86241261,00000227,false,Rx,1,8,00,00,50,3F,03,00,1F,C5,
86241509,00000237,false,Rx,1,8,3C,41,00,00,00,00,00,00,
86241748,00000247,false,Rx,1,8,44,7D,6E,03,00,00,20,00,
86250824,00000217,false,Rx,1,8,00,00,01,FC,9C,02,00,00,
86340927,00000367,false,Rx,1,8,00,00,00,00,00,00,00,00,
86341174,00000207,false,Rx,1,8,00,00,00,00,C8,00,04,00,
86341423,00000227,false,Rx,1,8,00,00,1E,40,01,00,1F,C5,
86341663,00000237,false,Rx,1,8,3C,41,00,00,00,00,00,00,
86341904,00000247,false,Rx,1,8,44,7D,6E,03,00,00,20,00,
86342144,00000717,false,Rx,1,8,16,00,00,00,00,00,CA,45,
86350814,00000217,false,Rx,1,8,00,00,01,FC,9C,02,00,00,
86351061,00000377,false,Rx,1,8,00,00,00,00,00,00,00,00,
86360915,00000347,false,Rx,1,8,00,00,00,00,00,08,00,00,
86370911,00000357,false,Rx,1,8,00,00,00,00,00,00,00,00,
86380908,00000327,false,Rx,1,8,00,00,00,00,00,00,00,00,
86390905,00000337,false,Rx,1,8,00,00,00,00,00,00,00,00,
86440968,00000207,false,Rx,1,8,00,00,C0,FF,C8,00,04,00,
86441207,00000227,false,Rx,1,8,00,00,4A,41,02,00,1F,C5,
86441456,00000237,false,Rx,1,8,3C,41,00,00,00,00,00,00,
86441697,00000247,false,Rx,1,8,44,7D,6E,03,00,00,20,00,
86441936,00000717,false,Rx,1,8,17,00,00,50,04,00,00,00,
86450790,00000217,false,Rx,1,8,00,00,01,FC,9C,02,00,00,
86540975,00000207,false,Rx,1,8,00,00,00,00,C8,00,04,00,
86541214,00000227,false,Rx,1,8,00,00,BA,42,00,00,1F,C5,
86541456,00000237,false,Rx,1,8,3C,41,00,00,00,00,00,00,
86541696,00000247,false,Rx,1,8,44,7D,6E,03,00,00,20,00,
86541943,00000717,false,Rx,1,8,18,00,00,00,00,00,00,00,
86550753,00000217,false,Rx,1,8,00,00,01,FC,9C,02,00,00,
86640976,00000207,false,Rx,1,8,00,00,C0,FF,C8,00,04,00,
86641222,00000227,false,Rx,1,8,00,00,90,43,00,00,1F,C5,
86641464,00000237,false,Rx,1,8,3C,41,00,00,00,00,00,00,
86641704,00000247,false,Rx,1,8,44,7D,6E,03,00,00,20,00,
86641951,00000717,false,Rx,1,8,19,00,00,00,00,00,00,00,
86650756,00000217,false,Rx,1,8,00,00,01,FC,9C,02,00,00,
86740912,00000207,false,Rx,1,8,00,00,C0,FF,C8,00,04,00,
86741145,00000227,false,Rx,1,8,00,00,C5,44,00,00,1F,C5,
86741393,00000237,false,Rx,1,8,3C,41,00,00,00,00,00,00,
86741633,00000247,false,Rx,1,8,44,7D,6E,03,00,00,20,00,
86741867,00000537,false,Rx,1,8,0F,00,00,00,8C,A1,70,0A,
86742114,00000717,false,Rx,1,8,01,00,00,00,00,00,00,00,
86750709,00000217,false,Rx,1,8,00,00,01,FC,9C,02,00,00,
86840930,00000207,false,Rx,1,8,00,00,00,00,C8,00,04,00,
86841169,00000227,false,Rx,1,8,00,00,FD,45,00,00,1F,C5,
86841418,00000237,false,Rx,1,8,3C,41,00,00,00,00,00,00,
86841650,00000247,false,Rx,1,8,44,7D,6E,03,00,00,20,00,
86841899,00000717,false,Rx,1,8,02,00,00,00,00,00,00,00,
86850708,00000217,false,Rx,1,8,00,00,01,FC,9C,02,00,00,
86940903,00000207,false,Rx,1,8,00,00,C0,FF,C8,00,04,00,
86941141,00000227,false,Rx,1,8,00,00,BC,47,00,00,1F,C5,
86941382,00000237,false,Rx,1,8,3C,41,00,00,00,00,00,00,
86941623,00000247,false,Rx,1,8,44,7D,6E,03,00,00,20,00,
86950693,00000217,false,Rx,1,8,00,00,01,FC,9C,02,00,00,
87040867,00000207,false,Rx,1,8,00,00,00,00,C8,00,04,00,
87041106,00000227,false,Rx,1,8,00,00,C6,48,05,00,1F,C5,
87041347,00000237,false,Rx,1,8,3C,41,00,00,00,00,00,00,
87041588,00000247,false,Rx,1,8,44,7D,6E,03,00,00,20,00,
87041836,00000717,false,Rx,1,8,04,00,00,00,00,00,00,00,
87050646,00000217,false,Rx,1,8,00,00,01,FC,9C,02,00,00,
87140849,00000207,false,Rx,1,8,00,00,C0,FF,C8,00,04,00,
87141088,00000227,false,Rx,1,8,00,00,F9,49,01,00,1F,C5,
87141338,00000237,false,Rx,1,8,3C,41,00,00,00,00,00,00,
87141578,00000247,false,Rx,1,8,44,7D,6E,03,00,00,20,00,
87141818,00000717,false,Rx,1,8,05,00,00,00,00,00,00,00,
87150644,00000217,false,Rx,1,8,00,00,01,FC,9C,02,00,00,
87240796,00000207,false,Rx,1,8,00,00,00,00,C8,00,04,00,
87241043,00000227,false,Rx,1,8,00,00,F9,4A,00,00,1F,C5,
87241285,00000237,false,Rx,1,8,3C,41,00,00,00,00,00,00,
87241525,00000247,false,Rx,1,8,44,7D,6E,03,00,00,20,00,
87241758,00000717,false,Rx,1,8,06,00,BE,45,66,06,00,40,
87250619,00000217,false,Rx,1,8,00,00,01,FC,9C,02,00,00,
87340723,00000367,false,Rx,1,8,00,00,00,00,00,00,00,00,
87340971,00000207,false,Rx,1,8,00,00,C0,FF,C8,00,04,00,
87341203,00000227,false,Rx,1,8,00,00,D5,4B,00,00,1F,C5,
87341451,00000237,false,Rx,1,8,3C,41,00,00,00,00,00,00,
87341693,00000247,false,Rx,1,8,44,7D,6E,03,00,00,20,00,
87341932,00000717,false,Rx,1,8,07,00,00,00,00,0A,00,00,
87350608,00000217,false,Rx,1,8,00,00,01,FC,9C,02,00,00,
87350854,00000377,false,Rx,1,8,00,00,00,00,00,00,00,00,
87360718,00000347,false,Rx,1,8,00,00,00,00,00,08,00,00,
87370708,00000357,false,Rx,1,8,00,00,00,00,00,00,00,00,
87380712,00000327,false,Rx,1,8,00,00,00,00,00,00,00,00,
87390693,00000337,false,Rx,1,8,00,00,00,00,00,00,00,00,
87440792,00000207,false,Rx,1,8,00,00,C0,FF,C8,00,04,00,
87441031,00000227,false,Rx,1,8,00,00,79,4D,00,00,1F,C5,
87441272,00000237,false,Rx,1,8,3C,41,00,00,00,00,00,00,
87441512,00000247,false,Rx,1,8,44,7D,6E,03,00,00,20,00,
87441753,00000717,false,Rx,1,8,08,00,00,00,0A,46,00,00,
87450583,00000217,false,Rx,1,8,00,00,01,FC,9C,02,00,00,
87540756,00000207,false,Rx,1,8,00,00,C0,FF,C8,00,04,00,
87540988,00000227,false,Rx,1,8,00,00,F1,4F,02,00,1F,C5,
87541235,00000237,false,Rx,1,8,3C,41,00,00,00,00,00,00,
87541470,00000247,false,Rx,1,8,44,7D,6E,03,00,00,20,00,
87541717,00000717,false,Rx,1,8,09,00,0A,46,00,00,00,00,
87550539,00000217,false,Rx,1,8,00,00,01,FC,9C,02,00,00,
87640744,00000207,false,Rx,1,8,00,00,00,00,C8,00,04,00,
87640982,00000227,false,Rx,1,8,00,00,32,51,04,00,1F,C5,
87641223,00000237,false,Rx,1,8,3C,41,00,00,00,00,00,00,
87641464,00000247,false,Rx,1,8,44,7D,6E,03,00,00,20,00,
87641712,00000537,false,Rx,1,8,10,00,00,0A,00,00,00,00,
87641959,00000717,false,Rx,1,8,0A,00,00,00,00,00,00,00,
87650531,00000217,false,Rx,1,8,00,00,01,FC,9C,02,00,00,
87740714,00000207,false,Rx,1,8,00,00,C0,FF,C8,00,04,00,
87740960,00000227,false,Rx,1,8,00,00,4B,52,00,00,1F,C5,
87741201,00000237,false,Rx,1,8,3C,41,00,00,00,00,00,00,
87741442,00000247,false,Rx,1,8,44,7D,6E,03,00,00,20,00,
87741690,00000717,false,Rx,1,8,0B,00,00,00,00,00,00,00,
87750513,00000217,false,Rx,1,8,00,40,01,FC,9C,02,00,00,
87840692,00000207,false,Rx,1,8,00,00,00,00,C8,00,04,00,
87840932,00000227,false,Rx,1,8,00,00,A9,54,00,00,1F,C5,
87841180,00000237,false,Rx,1,8,3C,41,00,00,00,00,00,00,
87841413,00000247,false,Rx,1,8,44,7D,6E,03,00,00,20,00,
87841654,00000717,false,Rx,1,8,0C,01,00,00,00,00,02,00,
87850477,00000217,false,Rx,1,8,00,40,01,FC,9C,02,00,00,
87940696,00000207,false,Rx,1,8,00,00,C0,FF,C8,00,04,00,
87940929,00000227,false,Rx,1,8,00,00,AF,56,00,00,1F,C5,
87941176,00000237,false,Rx,1,8,3C,41,00,00,00,00,00,00,
87941417,00000247,false,Rx,1,8,44,7D,6E,03,00,00,20,00,
87941651,00000717,false,Rx,1,8,0E,00,00,02,E6,3C,00,00,
87950473,00000217,false,Rx,1,8,00,40,01,FC,9C,02,00,00,
88040642,00000207,false,Rx,1,8,00,00,C0,FF,C8,00,04,00,
88040888,00000227,false,Rx,1,8,00,00,50,58,00,00,1F,C5,
88041135,00000237,false,Rx,1,8,3C,41,00,00,00,00,00,00,
88041370,00000247,false,Rx,1,8,44,7D,6E,03,00,00,20,00,
88041610,00000717,false,Rx,1,8,0F,00,EB,01,54,0E,00,00,
88050426,00000217,false,Rx,1,8,00,40,01,FC,9C,02,00,00,
88140644,00000207,false,Rx,1,8,00,00,00,00,C8,00,04,00,
88140882,00000227,false,Rx,1,8,00,00,CF,59,00,00,1F,C5,
88141130,00000237,false,Rx,1,8,3C,41,00,00,00,00,00,00,
88141365,00000247,false,Rx,1,8,44,7D,6E,03,00,00,20,00,
88141605,00000717,false,Rx,1,8,10,09,D0,FE,03,80,FF,00,
88150430,00000217,false,Rx,1,8,00,40,01,FC,9C,02,00,00,
88240638,00000207,false,Rx,1,8,00,00,00,00,C8,00,04,00,
88240876,00000227,false,Rx,1,8,00,00,A9,5A,00,00,1F,C5,
88241118,00000237,false,Rx,1,8,3C,41,00,00,00,00,00,00,
88241358,00000247,false,Rx,1,8,44,7D,6B,03,00,00,20,00,
88241598,00000717,false,Rx,1,8,11,00,12,E4,00,00,00,00,
88250407,00000217,false,Rx,1,8,00,40,01,FC,9C,02,00,00,
88340485,00000367,false,Rx,1,8,00,00,00,00,00,00,00,00,
88340731,00000207,false,Rx,1,8,00,00,C0,FF,C8,00,04,00,
88340980,00000227,false,Rx,1,8,00,00,10,5C,03,00,1F,C5,
88341227,00000237,false,Rx,1,8,3C,41,00,00,00,00,00,00,
88341460,00000247,false,Rx,1,8,44,7D,48,03,00,00,20,00,
88341702,00000717,false,Rx,1,8,12,40,29,00,27,00,15,00,
88350364,00000217,false,Rx,1,8,00,40,01,FC,9C,02,00,00,
88350618,00000377,false,Rx,1,8,00,00,00,00,00,00,00,00,
88360495,00000347,false,Rx,1,8,00,00,00,00,00,08,00,00,
88370500,00000357,false,Rx,1,8,00,00,00,00,00,00,00,00,
88380505,00000327,false,Rx,1,8,00,00,00,00,00,00,00,00,
88390487,00000337,false,Rx,1,8,00,00,00,00,00,00,00,00,
88440580,00000207,false,Rx,1,8,00,00,C0,FF,C8,00,04,00,
88440820,00000227,false,Rx,1,8,00,00,B0,5D,02,00,1F,C5,
88441067,00000237,false,Rx,1,8,3C,41,00,00,00,00,00,00,
88441308,00000247,false,Rx,1,8,44,7D,1E,03,00,00,20,00,
88441557,00000717,false,Rx,1,8,13,00,00,00,00,00,00,00,
88450357,00000217,false,Rx,1,8,00,40,01,FC,9C,02,00,00,
88540528,00000207,false,Rx,1,8,00,00,C0,FF,C8,00,04,00,
88540767,00000227,false,Rx,1,8,00,00,E6,5D,00,00,1F,C5,
88541007,00000237,false,Rx,1,8,3C,41,00,00,00,00,00,00,
88541248,00000247,false,Rx,1,8,44,7D,18,03,00,00,20,00,
88541497,00000537,false,Rx,1,8,11,00,00,00,00,00,00,00,
88541736,00000717,false,Rx,1,8,14,00,00,00,E8,FF,00,00,
88550346,00000217,false,Rx,1,8,00,40,01,FC,9C,02,00,00,
88640530,00000207,false,Rx,1,8,00,00,C0,FF,C8,00,04,00,
88640769,00000227,false,Rx,1,8,00,00,E5,5D,00,00,1F,C5,
88641016,00000237,false,Rx,1,8,3C,41,00,00,00,00,00,00,
88641252,00000247,false,Rx,1,8,44,7D,18,03,00,00,20,00,
88650321,00000217,false,Rx,1,8,00,40,01,FC,9C,02,00,00,
88740510,00000207,false,Rx,1,8,00,00,C0,FF,C8,00,04,00,
88740749,00000227,false,Rx,1,8,00,00,DF,5D,00,00,1F,C5,
88740990,00000237,false,Rx,1,8,3C,41,00,00,00,00,00,00,
88741230,00000247,false,Rx,1,8,44,7D,18,03,00,00,20,00,
88741473,00000717,false,Rx,1,8,16,00,00,00,00,00,46,46,
88750296,00000217,false,Rx,1,8,00,40,01,FC,9C,02,00,00,
88840467,00000207,false,Rx,1,8,00,00,C0,FF,C8,00,04,00,
88840706,00000227,false,Rx,1,8,00,00,E5,5D,00,00,1F,C5,
88840955,00000237,false,Rx,1,8,3C,41,00,00,00,00,00,00,
88841187,00000247,false,Rx,1,8,44,7D,18,03,00,00,20,00,
88841435,00000717,false,Rx,1,8,17,00,00,50,04,00,00,00,
88850260,00000217,false,Rx,1,8,00,40,01,FC,9C,02,00,00,
88940457,00000207,false,Rx,1,8,00,00,C0,FF,C8,00,04,00,
88940697,00000227,false,Rx,1,8,00,00,E8,5D,00,00,1F,C5,
88940944,00000237,false,Rx,1,8,3C,41,00,00,00,00,00,00,
88941184,00000247,false,Rx,1,8,44,7D,18,03,00,00,20,00,
88941434,00000717,false,Rx,1,8,18,00,00,00,00,00,00,00,
88950258,00000217,false,Rx,1,8,00,40,01,FC,9C,02,00,00,
89040436,00000207,false,Rx,1,8,00,00,C0,FF,C8,00,04,00,
89040676,00000227,false,Rx,1,8,00,00,E0,5D,00,00,1F,C5,
89040916,00000237,false,Rx,1,8,3C,41,00,00,00,00,00,00,
89041156,00000247,false,Rx,1,8,44,7D,18,03,00,00,20,00,
89041406,00000717,false,Rx,1,8,19,00,00,00,00,00,00,00,
89050235,00000217,false,Rx,1,8,00,40,01,FC,9C,02,00,00,
89140428,00000207,false,Rx,1,8,00,00,C0,FF,C8,00,04,00,
89140659,00000227,false,Rx,1,8,00,00,E4,5D,00,00,1F,C5,
89140906,00000237,false,Rx,1,8,3C,41,00,00,00,00,00,00,
89141147,00000247,false,Rx,1,8,44,7D,18,03,00,00,20,00,
89141396,00000717,false,Rx,1,8,01,00,00,00,00,00,00,00,
89150209,00000217,false,Rx,1,8,00,40,01,FC,9C,02,00,00,
89240394,00000207,false,Rx,1,8,00,00,C0,FF,C8,00,04,00,
89240633,00000227,false,Rx,1,8,00,00,4A,5E,00,00,1F,C5,
89240880,00000237,false,Rx,1,8,3C,41,00,00,00,00,00,00,
89241121,00000247,false,Rx,1,8,44,7D,0D,03,00,00,20,00,
89241362,00000717,false,Rx,1,8,02,00,00,00,00,00,00,00,
89250187,00000217,false,Rx,1,8,00,40,01,FC,9C,02,00,00,
89340281,00000367,false,Rx,1,8,00,00,00,00,00,00,00,00,
89340527,00000207,false,Rx,1,8,00,00,C0,FF,C8,00,04,00,
89340767,00000227,false,Rx,1,8,00,00,D9,5F,00,00,1F,C5,
89341008,00000237,false,Rx,1,8,3C,41,00,00,00,00,00,00,
89341249,00000247,false,Rx,1,8,44,7D,E6,02,00,00,20,00,
89350154,00000217,false,Rx,1,8,00,40,01,FC,9C,02,00,00,
89350402,00000377,false,Rx,1,8,00,00,00,00,00,00,00,00,
89360271,00000347,false,Rx,1,8,00,00,00,00,00,08,00,00,
89370275,00000357,false,Rx,1,8,00,00,00,00,00,00,00,00,
89380271,00000327,false,Rx,1,8,00,00,00,00,00,00,00,00,
89390268,00000337,false,Rx,1,8,00,00,00,00,00,00,00,00,
89440358,00000207,false,Rx,1,8,00,00,C0,FF,C8,00,04,00,
89440597,00000227,false,Rx,1,8,00,00,EB,61,00,00,1F,C5,
89440838,00000237,false,Rx,1,8,3C,41,00,00,00,00,00,00,
89441078,00000247,false,Rx,1,8,44,7D,C1,02,00,00,20,00,
89441311,00000537,false,Rx,1,8,12,03,E9,DA,DC,E1,B0,3F,
89441560,00000717,false,Rx,1,8,04,00,00,00,00,00,00,00,
89450154,00000217,false,Rx,1,8,00,40,01,FC,9C,02,00,00,
89540328,00000207,false,Rx,1,8,00,00,00,00,C8,00,04,00,
89540561,00000227,false,Rx,1,8,00,00,1E,63,03,00,1F,C5,
89540808,00000237,false,Rx,1,8,3C,41,00,00,00,00,00,00,
89541048,00000247,false,Rx,1,8,44,7D,AF,02,00,00,20,00,
89541290,00000717,false,Rx,1,8,05,00,00,00,00,00,00,00,
89550128,00000217,false,Rx,1,8,00,40,01,FC,9C,02,00,00,
89640314,00000207,false,Rx,1,8,00,00,00,00,C8,00,04,00,
89640553,00000227,false,Rx,1,8,00,00,7E,64,06,00,1F,C5,
89640800,00000237,false,Rx,1,8,3C,41,00,00,00,00,00,00,
89641040,00000247,false,Rx,1,8,44,7D,9D,02,00,00,20,00,
89641275,00000717,false,Rx,1,8,06,00,46,46,66,06,00,40,
89650098,00000217,false,Rx,1,8,00,40,01,FC,9C,02,00,00,
89740306,00000207,false,Rx,1,8,00,00,00,00,C8,00,04,00,
89740545,00000227,false,Rx,1,8,00,00,BC,65,02,00,1F,C5,
89740792,00000237,false,Rx,1,8,3C,41,00,00,00,00,00,00,
89741026,00000247,false,Rx,1,8,44,7D,90,02,00,00,20,00,
89741275,00000717,false,Rx,1,8,07,00,00,00,00,0A,00,00,
89750088,00000217,false,Rx,1,8,00,00,01,FC,9C,02,00,00,
89840261,00000207,false,Rx,1,8,00,00,C0,FF,C8,00,04,00,
89840500,00000227,false,Rx,1,8,00,00,76,67,00,00,1F,C5,
89840748,00000237,false,Rx,1,8,3C,41,00,00,00,00,00,00,
89840981,00000247,false,Rx,1,8,44,7D,7E,02,00,00,20,00,
89841221,00000717,false,Rx,1,8,08,00,00,00,C2,45,00,00,
89850046,00000217,false,Rx,1,8,00,00,01,FC,9C,02,00,00,
89940248,00000207,false,Rx,1,8,00,00,C0,FF,C8,00,04,00,
89940487,00000227,false,Rx,1,8,00,00,DB,68,00,00,1F,C5,
89940736,00000237,false,Rx,1,8,3C,41,00,00,00,00,00,00,
89940976,00000247,false,Rx,1,8,44,7D,72,02,00,00,20,00,
89941208,00000717,false,Rx,1,8,09,00,46,46,00,00,00,00,
89950040,00000217,false,Rx,1,8,00,40,01,FC,9C,02,00,00,
90040242,00000207,false,Rx,1,8,00,00,C0,FF,C8,00,04,00,
90040475,00000227,false,Rx,1,8,00,00,DE,69,07,00,1F,C5,
90040722,00000237,false,Rx,1,8,3C,41,00,00,00,00,00,00,
90040962,00000247,false,Rx,1,8,44,7D,69,02,00,00,20,00,
90041210,00000717,false,Rx,1,8,0A,00,00,00,00,00,00,00,
90050025,00000217,false,Rx,1,8,00,40,01,FC,9C,02,00,00,
90140184,00000207,false,Rx,1,8,00,00,00,00,C8,00,04,00,
90140426,00000227,false,Rx,1,8,00,00,D7,6A,01,00,1F,C5,
90140673,00000237,false,Rx,1,8,3C,41,00,00,00,00,00,00,
90140913,00000247,false,Rx,1,8,44,7D,61,02,00,00,20,00,
90141154,00000717,false,Rx,1,8,0B,00,00,00,00,00,00,00,
90149986,00000217,false,Rx,1,8,00,40,01,FC,9C,02,00,00,
90240190,00000207,false,Rx,1,8,00,00,C0,FF,C8,00,04,00,
90240422,00000227,false,Rx,1,8,00,00,D4,6B,00,00,1F,C5,
90240670,00000237,false,Rx,1,8,3C,41,00,00,00,00,00,00,
90240911,00000247,false,Rx,1,8,44,7D,5A,02,00,00,20,00,
90241151,00000717,false,Rx,1,8,0C,01,00,00,00,00,02,00,
90249981,00000217,false,Rx,1,8,00,00,01,FC,9C,02,00,00,
90340059,00000367,false,Rx,1,8,00,00,00,00,00,00,00,00,
90340306,00000207,false,Rx,1,8,00,00,00,00,C8,00,04,00,
90340546,00000227,false,Rx,1,8,00,00,B9,6C,01,00,1F,C5,
90340787,00000237,false,Rx,1,8,3C,41,00,00,00,00,00,00,
90341027,00000247,false,Rx,1,8,44,7D,54,02,00,00,20,00,
90341276,00000537,false,Rx,1,8,13,01,FE,00,00,FC,00,00,
90341509,00000717,false,Rx,1,8,0E,00,00,02,46,46,00,00,
90349939,00000217,false,Rx,1,8,00,00,01,FC,9C,02,00,00,
90350186,00000377,false,Rx,1,8,00,00,00,00,00,00,00,00,
90360048,00000347,false,Rx,1,8,00,00,00,00,00,08,00,00,
90370046,00000357,false,Rx,1,8,00,00,00,00,00,00,00,00,
90380051,00000327,false,Rx,1,8,00,00,00,00,00,00,00,00,
90390049,00000337,false,Rx,1,8,00,00,00,00,00,00,00,00,
90440157,00000207,false,Rx,1,8,00,00,C0,FF,C8,00,04,00,
90440390,00000227,false,Rx,1,8,00,00,61,6D,03,00,1F,C5,
90440638,00000237,false,Rx,1,8,3C,41,00,00,00,00,00,00,
90440878,00000247,false,Rx,1,8,44,7D,50,02,00,00,20,00,
90441118,00000717,false,Rx,1,8,0F,00,EB,01,92,0E,00,00,
90449943,00000217,false,Rx,1,8,00,00,01,FC,9C,02,00,00,
90540140,00000207,false,Rx,1,8,00,00,C0,FF,C8,00,04,00,
90540380,00000227,false,Rx,1,8,00,00,C0,6D,03,00,1F,C5,
90540628,00000237,false,Rx,1,8,3C,41,00,00,00,00,00,00,
90540860,00000247,false,Rx,1,8,44,7D,4E,02,00,00,20,00,
90541100,00000717,false,Rx,1,8,10,09,D0,FE,03,80,FF,00,
90549918,00000217,false,Rx,1,8,00,00,01,FC,9C,02,00,00,
90640078,00000207,false,Rx,1,8,00,00,C0,FF,C8,00,04,00,
90640311,00000227,false,Rx,1,8,00,00,F2,6D,01,00,1F,C5,
90640559,00000237,false,Rx,1,8,3C,41,00,00,00,00,00,00,
90640799,00000247,false,Rx,1,8,44,7D,4C,02,00,00,20,00,
90641040,00000717,false,Rx,1,8,11,00,12,E4,00,00,00,00,
90649877,00000217,false,Rx,1,8,00,00,01,FC,9C,02,00,00,
90740092,00000207,false,Rx,1,8,00,00,00,00,C8,00,04,00,
90740332,00000227,false,Rx,1,8,00,00,A8,6E,01,00,1F,C5,
90740579,00000237,false,Rx,1,8,3C,41,00,00,00,00,00,00,
90740811,00000247,false,Rx,1,8,44,7D,48,02,00,00,20,00,
90741052,00000717,false,Rx,1,8,12,40,29,00,27,00,15,00,
90749875,00000217,false,Rx,1,8,00,00,01,FC,9C,02,00,00,
90840054,00000207,false,Rx,1,8,00,00,00,00,C8,00,04,00,
90840286,00000227,false,Rx,1,8,00,00,25,6F,01,00,1F,C5,
90840534,00000237,false,Rx,1,8,3C,41,00,00,00,00,00,00,
90840775,00000247,false,Rx,1,8,44,7D,45,02,00,00,20,00,
90841022,00000717,false,Rx,1,8,13,00,00,00,00,00,00,00,
90849860,00000217,false,Rx,1,8,00,00,01,FC,9C,02,00,00,
90940044,00000207,false,Rx,1,8,00,00,00,00,C8,00,04,00,
90940284,00000227,false,Rx,1,8,00,00,5B,6F,03,00,1F,C5,
90940532,00000237,false,Rx,1,8,3C,41,00,00,00,00,00,00,
90940764,00000247,false,Rx,1,8,44,7D,44,02,00,00,20,00,
90941012,00000717,false,Rx,1,8,14,00,00,00,F6,FF,00,00,
90949828,00000217,false,Rx,1,8,00,00,01,FC,9C,02,00,00,
91040018,00000207,false,Rx,1,8,00,00,C0,FF,C8,00,04,00,
91040258,00000227,false,Rx,1,8,00,00,60,6F,03,00,1F,C5,
91040507,00000237,false,Rx,1,8,3C,41,00,00,00,00,00,00,
91040739,00000247,false,Rx,1,8,44,7D,44,02,00,00,20,00,
91049810,00000217,false,Rx,1,8,00,00,01,FC,9C,02,00,00,
91139962,00000207,false,Rx,1,8,00,00,C0,FF,C8,00,04,00,
91140201,00000227,false,Rx,1,8,00,00,66,6F,00,00,1F,C5,
91140443,00000237,false,Rx,1,8,3C,41,00,00,00,00,00,00,
91140683,00000247,false,Rx,1,8,44,7D,44,02,00,00,20,00,
91140930,00000717,false,Rx,1,8,16,00,00,00,00,00,0E,46,
91149769,00000217,false,Rx,1,8,00,00,01,FC,9C,02,00,00,
91239983,00000207,false,Rx,1,8,00,00,C0,FF,C8,00,04,00,
91240223,00000227,false,Rx,1,8,00,00,6C,6F,00,00,1F,C5,
91240471,00000237,false,Rx,1,8,3C,41,00,00,00,00,00,00,
91240704,00000247,false,Rx,1,8,44,7D,44,02,00,00,20,00,
91240952,00000537,false,Rx,1,8,14,05,00,00,00,00,00,00,
91241192,00000717,false,Rx,1,8,17,00,00,50,04,00,00,00,
91249771,00000217,false,Rx,1,8,00,00,01,FC,9C,02,00,00,
91339851,00000367,false,Rx,1,8,00,00,00,00,00,00,00,00,
91340099,00000207,false,Rx,1,8,00,00,C0,FF,C8,00,04,00,
91340340,00000227,false,Rx,1,8,00,00,53,6F,00,00,1F,C5,
91340587,00000237,false,Rx,1,8,3C,41,00,00,00,00,00,00,
91340821,00000247,false,Rx,1,8,44,7D,45,02,00,00,20,00,
91341068,00000717,false,Rx,1,8,18,00,00,00,00,00,00,00,
91349746,00000217,false,Rx,1,8,00,00,01,FC,9C,02,00,00,
91349994,00000377,false,Rx,1,8,00,00,00,00,00,00,00,00,
91359847,00000347,false,Rx,1,8,00,00,00,00,00,08,00,00,
91369844,00000357,false,Rx,1,8,00,00,00,00,00,00,00,00,
91379840,00000327,false,Rx,1,8,00,00,00,00,00,00,00,00,
91389837,00000337,false,Rx,1,8,00,00,00,00,00,00,00,00,
91439915,00000207,false,Rx,1,8,00,00,C0,FF,C8,00,04,00,
91440154,00000227,false,Rx,1,8,00,00,57,6F,00,00,1F,C5,
91440402,00000237,false,Rx,1,8,3C,41,00,00,00,00,00,00,
91440643,00000247,false,Rx,1,8,44,7D,44,02,00,00,20,00,
91440883,00000717,false,Rx,1,8,19,00,00,00,00,00,00,00,
91449709,00000217,false,Rx,1,8,00,00,01,FC,9C,02,00,00,
91539923,00000207,false,Rx,1,8,00,00,00,00,C8,00,04,00,
91540162,00000227,false,Rx,1,8,00,00,65,6F,01,00,1F,C5,
91540404,00000237,false,Rx,1,8,3C,41,00,00,00,00,00,00,
91540644,00000247,false,Rx,1,8,44,7D,44,02,00,00,20,00,
91540891,00000717,false,Rx,1,8,01,00,00,00,00,00,00,00,
91549702,00000217,false,Rx,1,8,00,00,01,FC,9C,02,00,00,
91639869,00000207,false,Rx,1,8,00,00,00,00,C8,00,04,00,
91640108,00000227,false,Rx,1,8,00,00,5A,70,01,00,1F,C5,
91640358,00000237,false,Rx,1,8,3C,41,00,00,00,00,00,00,
91640590,00000247,false,Rx,1,8,44,7D,3F,02,00,00,20,00,
91640837,00000717,false,Rx,1,8,02,00,00,00,00,00,00,00,
91649661,00000217,false,Rx,1,8,00,00,01,FC,9C,02,00,00,
91739872,00000207,false,Rx,1,8,00,00,C0,FF,C8,00,04,00,
91740112,00000227,false,Rx,1,8,00,00,20,72,02,00,1F,C5,
91740353,00000237,false,Rx,1,8,3C,41,00,00,00,00,00,00,
91740593,00000247,false,Rx,1,8,44,7D,37,02,00,00,20,00,
91749661,00000217,false,Rx,1,8,00,00,01,FC,9C,02,00,00,
91839860,00000207,false,Rx,1,8,00,00,C0,FF,C8,00,04,00,
91840099,00000227,false,Rx,1,8,00,00,59,73,02,00,1F,C5,
91840340,00000237,false,Rx,1,8,3C,41,00,00,00,00,00,00,
91840579,00000247,false,Rx,1,8,44,7D,31,02,00,00,20,00,
91840828,00000717,false,Rx,1,8,04,00,00,00,00,00,00,00,
91849637,00000217,false,Rx,1,8,00,00,01,FC,9C,02,00,00,
91939807,00000207,false,Rx,1,8,00,00,C0,FF,C8,00,04,00,
91940046,00000227,false,Rx,1,8,00,00,34,74,00,00,1F,C5,
91940294,00000237,false,Rx,1,8,3C,41,00,00,00,00,00,00,
91940528,00000247,false,Rx,1,8,44,7D,2E,02,00,00,20,00,
91940775,00000717,false,Rx,1,8,05,00,00,00,00,00,00,00,
91949597,00000217,false,Rx,1,8,00,00,01,FC,9C,02,00,00,
92039809,00000207,false,Rx,1,8,00,00,C0,FF,C8,00,04,00,
92040048,00000227,false,Rx,1,8,00,00,4C,75,03,00,1F,C5,
92040296,00000237,false,Rx,1,8,3C,41,00,00,00,00,00,00,
92040537,00000247,false,Rx,1,8,44,7D,29,02,00,00,20,00,
92040770,00000717,false,Rx,1,8,06,00,86,45,66,06,00,40,
92049601,00000217,false,Rx,1,8,00,40,01,FC,9C,02,00,00,
92139754,00000207,false,Rx,1,8,00,00,C0,FF,C8,00,04,00,
92140000,00000227,false,Rx,1,8,00,00,5C,76,00,00,1F,C5,
92140250,00000237,false,Rx,1,8,3C,41,00,00,00,00,00,00,
92140482,00000247,false,Rx,1,8,44,7D,25,02,00,00,20,00,
92140729,00000717,false,Rx,1,8,07,00,00,00,00,0A,00,00,
92149575,00000217,false,Rx,1,8,00,40,01,FC,9C,02,00,00,
92239774,00000207,false,Rx,1,8,00,00,C0,FF,C8,00,04,00,
92240014,00000227,false,Rx,1,8,00,00,49,77,01,00,1F,C5,
92240255,00000237,false,Rx,1,8,3C,41,00,00,00,00,00,00,
92240495,00000247,false,Rx,1,8,44,7D,21,02,00,00,20,00,
92240735,00000717,false,Rx,1,8,08,00,00,00,46,46,00,00,
92249551,00000217,false,Rx,1,8,00,40,01,FC,9C,02,00,00,
92339627,00000367,false,Rx,1,8,00,00,00,00,00,00,00,00,
92339875,00000207,false,Rx,1,8,00,00,00,00,C8,00,04,00,
92340122,00000227,false,Rx,1,8,00,00,03,78,00,00,1F,C5,
92340363,00000237,false,Rx,1,8,3C,41,00,00,00,00,00,00,
92340604,00000247,false,Rx,1,8,44,7D,1F,02,00,00,20,00,
92340844,00000717,false,Rx,1,8,09,00,46,46,00,00,00,00,
92349522,00000217,false,Rx,1,8,00,40,01,FC,9C,02,00,00,
92349776,00000377,false,Rx,1,8,00,00,00,00,00,00,00,00,
92359623,00000347,false,Rx,1,8,00,00,00,00,00,08,00,00,
92369622,00000357,false,Rx,1,8,00,00,00,00,00,00,00,00,
92379628,00000327,false,Rx,1,8,00,00,00,00,00,00,00,00,
92389617,00000337,false,Rx,1,8,00,00,00,00,00,00,00,00,
92439697,00000207,false,Rx,1,8,00,00,C0,FF,C8,00,04,00,
92439936,00000227,false,Rx,1,8,00,00,E2,78,03,00,1F,C5,
92440176,00000237,false,Rx,1,8,3C,41,00,00,00,00,00,00,
92440417,00000247,false,Rx,1,8,44,7D,1B,02,00,00,20,00,
92440666,00000717,false,Rx,1,8,0A,00,00,00,00,00,00,00,
92449492,00000217,false,Rx,1,8,00,40,01,FC,9C,02,00,00,
92539711,00000207,false,Rx,1,8,00,00,C0,FF,C8,00,04,00,
92539950,00000227,false,Rx,1,8,00,00,43,79,01,00,1F,C5,
92540197,00000237,false,Rx,1,8,3C,41,00,00,00,00,00,00,
92540439,00000247,false,Rx,1,8,44,7D,1A,02,00,00,20,00,
92540679,00000717,false,Rx,1,8,0B,00,00,00,00,00,00,00,
92549488,00000217,false,Rx,1,8,00,40,01,FC,9C,02,00,00,
92639664,00000207,false,Rx,1,8,00,00,C0,FF,C8,00,04,00,
92639902,00000227,false,Rx,1,8,00,00,83,79,01,00,1F,C5,
92640151,00000237,false,Rx,1,8,3C,41,00,00,00,00,00,00,
92640385,00000247,false,Rx,1,8,44,7D,19,02,00,00,20,00,
92640632,00000717,false,Rx,1,8,0C,01,00,00,00,00,02,00,
92649463,00000217,false,Rx,1,8,00,40,01,FC,9C,02,00,00,
92739646,00000207,false,Rx,1,8,00,00,C0,FF,C8,00,04,00,
92739885,00000227,false,Rx,1,8,00,00,CF,79,00,00,1F,C5,
92740134,00000237,false,Rx,1,8,3C,41,00,00,00,00,00,00,
92740367,00000247,false,Rx,1,8,44,7D,18,02,00,00,20,00,
92740607,00000717,false,Rx,1,8,0E,00,00,02,A6,4F,00,00,
92749440,00000217,false,Rx,1,8,00,40,01,FC,9C,02,00,00,
92839651,00000207,false,Rx,1,8,00,00,C0,FF,C8,00,04,00,
92839891,00000227,false,Rx,1,8,00,00,23,7A,00,00,1F,C5,
92840138,00000237,false,Rx,1,8,3C,41,00,00,00,00,00,00,
92840380,00000247,false,Rx,1,8,44,7D,17,02,00,00,20,00,
92840614,00000717,false,Rx,1,8,0F,00,EB,01,30,11,00,00,
92849429,00000217,false,Rx,1,8,00,40,01,FC,9C,02,00,00,
92939583,00000207,false,Rx,1,8,00,00,C0,FF,C8,00,04,00,
92939831,00000227,false,Rx,1,8,00,00,50,7A,00,00,1F,C5,
92940078,00000237,false,Rx,1,8,3C,41,00,00,00,00,00,00,
92940319,00000247,false,Rx,1,8,44,7D,16,02,00,00,20,00,
92940552,00000717,false,Rx,1,8,10,09,D0,FE,03,80,FF,00,
92949384,00000217,false,Rx,1,8,00,40,01,FC,9C,02,00,00,
93039590,00000207,false,Rx,1,8,00,00,00,00,C8,00,04,00,
93039822,00000227,false,Rx,1,8,00,00,ED,7A,02,00,1F,C5,
93040069,00000237,false,Rx,1,8,3C,41,00,00,00,00,00,00,
93040304,00000247,false,Rx,1,8,44,7D,14,02,00,00,20,00,
93040544,00000537,false,Rx,1,8,0A,01,0E,00,FC,00,3F,00,
93040791,00000717,false,Rx,1,8,11,00,12,E4,00,00,00,00,
93049376,00000217,false,Rx,1,8,00,40,01,FC,9C,02,00,00,
93139543,00000207,false,Rx,1,8,00,00,C0,FF,C8,00,04,00,
93139782,00000227,false,Rx,1,8,00,00,83,7B,00,00,1F,C5,
93140029,00000237,false,Rx,1,8,3C,41,00,00,00,00,00,00,
93140264,00000247,false,Rx,1,8,44,7D,12,02,00,00,20,00,
93140504,00000717,false,Rx,1,8,12,40,29,00,27,00,17,00,
93149353,00000217,false,Rx,1,8,00,40,01,FC,9C,02,00,00,
93239538,00000207,false,Rx,1,8,00,00,00,00,C8,00,04,00,
93239776,00000227,false,Rx,1,8,00,00,D3,7B,01,00,1F,C5,
93240025,00000237,false,Rx,1,8,3C,41,00,00,00,00,00,00,
93240258,00000247,false,Rx,1,8,44,7D,11,02,00,00,20,00,
93240506,00000717,false,Rx,1,8,13,00,00,00,00,00,00,00,
93249316,00000217,false,Rx,1,8,00,40,01,FC,9C,02,00,00,
93339424,00000367,false,Rx,1,8,00,00,00,00,00,00,00,00,
93339670,00000207,false,Rx,1,8,00,00,C0,FF,C8,00,04,00,
93339904,00000227,false,Rx,1,8,00,00,FB,7B,00,00,1F,C5,
93340151,00000237,false,Rx,1,8,3C,41,00,00,00,00,00,00,
93340392,00000247,false,Rx,1,8,44,7D,11,02,00,00,20,00,
93340641,00000717,false,Rx,1,8,14,00,00,00,0A,00,00,00,
93349317,00000217,false,Rx,1,8,00,40,01,FC,9C,02,00,00,
93349563,00000377,false,Rx,1,8,00,00,00,00,00,00,00,00,
93359411,00000347,false,Rx,1,8,00,00,00,00,00,08,00,00,
93369416,00000357,false,Rx,1,8,00,00,00,00,00,00,00,00,
93379414,00000327,false,Rx,1,8,00,00,00,00,00,00,00,00,
93389404,00000337,false,Rx,1,8,00,00,00,00,00,00,00,00,
93439477,00000207,false,Rx,1,8,00,00,00,00,C8,00,04,00,
93439717,00000227,false,Rx,1,8,00,00,5C,7C,01,00,1F,C5,
93439964,00000237,false,Rx,1,8,3C,41,00,00,00,00,00,00,
93440204,00000247,false,Rx,1,8,44,7D,0F,02,00,00,20,00,
93449273,00000217,false,Rx,1,8,00,40,01,FC,9C,02,00,00,
93539481,00000207,false,Rx,1,8,00,00,00,00,C8,00,04,00,
93539719,00000227,false,Rx,1,8,00,00,CC,7C,00,00,1F,C5,
93539967,00000237,false,Rx,1,8,3C,41,00,00,00,00,00,00,
93540199,00000247,false,Rx,1,8,44,7D,0E,02,00,00,20,00,
93540441,00000717,false,Rx,1,8,16,00,00,00,00,00,46,46,
93549271,00000217,false,Rx,1,8,00,40,01,FC,9C,02,00,00,
93639470,00000207,false,Rx,1,8,00,00,C0,FF,C8,00,04,00,
93639709,00000227,false,Rx,1,8,00,00,11,7D,00,00,1F,C5,
93639956,00000237,false,Rx,1,8,3C,41,00,00,00,00,00,00,
93640190,00000247,false,Rx,1,8,44,7D,0D,02,00,00,20,00,
93640438,00000717,false,Rx,1,8,17,00,00,50,04,00,00,00,
93649262,00000217,false,Rx,1,8,00,40,01,FC,9C,02,00,00,
93739414,00000207,false,Rx,1,8,00,00,C0,FF,C8,00,04,00,
93739653,00000227,false,Rx,1,8,00,00,8E,7D,00,00,1F,C5,
93739894,00000237,false,Rx,1,8,3C,41,00,00,00,00,00,00,
93740133,00000247,false,Rx,1,8,44,7D,0C,02,00,00,20,00,
93740383,00000717,false,Rx,1,8,18,00,00,00,00,00,00,00,
93749213,00000217,false,Rx,1,8,00,40,01,FC,9C,02,00,00,
93839412,00000207,false,Rx,1,8,00,00,C0,FF,C8,00,04,00,
93839651,00000227,false,Rx,1,8,00,00,C0,7D,01,00,1F,C5,
93839899,00000237,false,Rx,1,8,3C,41,00,00,00,00,00,00,
93840139,00000247,false,Rx,1,8,44,7D,0B,02,00,00,20,00,
93840380,00000717,false,Rx,1,8,19,00,00,00,00,00,00,00,
93849205,00000217,false,Rx,1,8,00,40,01,FC,9C,02,00,00,
93939387,00000207,false,Rx,1,8,00,00,C0,FF,C8,00,04,00,
93939627,00000227,false,Rx,1,8,00,00,FD,7D,02,00,1F,C5,
93939874,00000237,false,Rx,1,8,3C,41,00,00,00,00,00,00,
93940106,00000247,false,Rx,1,8,44,7D,0B,02,00,00,20,00,
93940356,00000537,false,Rx,1,8,0B,00,05,06,00,00,00,00,
93940603,00000717,false,Rx,1,8,01,00,00,00,00,00,00,00,
93949189,00000217,false,Rx,1,8,00,40,01,FC,9C,02,00,00,
94039376,00000207,false,Rx,1,8,00,00,C0,FF,C8,00,04,00,
94039623,00000227,false,Rx,1,8,00,00,1F,7E,00,00,1F,C5,
94039871,00000237,false,Rx,1,8,3C,41,00,00,00,00,00,00,
94040103,00000247,false,Rx,1,8,44,7D,0A,02,00,00,20,00,
94040353,00000717,false,Rx,1,8,02,00,00,00,00,00,00,00,
94049169,00000217,false,Rx,1,8,00,40,01,FC,9C,02,00,00,
94139367,00000207,false,Rx,1,8,00,00,C0,FF,C8,00,04,00,
94139613,00000227,false,Rx,1,8,00,00,79,7E,01,00,1F,C5,
94139861,00000237,false,Rx,1,8,3C,41,00,00,00,00,00,00,
94140102,00000247,false,Rx,1,8,44,7D,09,02,00,00,20,00,
94149148,00000217,false,Rx,1,8,00,40,01,FC,9C,02,00,00,
94239314,00000207,false,Rx,1,8,00,00,C0,FF,C8,00,04,00,
94239552,00000227,false,Rx,1,8,00,00,90,7E,03,00,1F,C5,
94239800,00000237,false,Rx,1,8,3C,41,00,00,00,00,00,00,
94240041,00000247,false,Rx,1,8,44,7D,09,02,00,00,20,00,
94240291,00000717,false,Rx,1,8,04,00,00,00,00,00,00,00,
94249099,00000217,false,Rx,1,8,00,40,01,FC,9C,02,00,00,
94339199,00000367,false,Rx,1,8,00,00,00,00,00,00,00,00,
94339447,00000207,false,Rx,1,8,00,00,C0,FF,C8,00,04,00,
94339680,00000227,false,Rx,1,8,00,00,CC,7E,03,00,1F,C5,
94339928,00000237,false,Rx,1,8,3C,41,00,00,00,00,00,00,
94340168,00000247,false,Rx,1,8,44,7D,09,02,00,00,20,00,
94340417,00000717,false,Rx,1,8,05,00,00,00,00,00,00,00,
94349109,00000217,false,Rx,1,8,00,40,01,FC,9C,02,00,00,
94349356,00000377,false,Rx,1,8,00,00,00,00,00,00,00,00,
94359202,00000347,false,Rx,1,8,00,00,00,00,00,08,00,00,
94369199,00000357,false,Rx,1,8,00,00,00,00,00,00,00,00,
94379202,00000327,false,Rx,1,8,00,00,00,00,00,00,00,00,
94389199,00000337,false,Rx,1,8,00,00,00,00,00,00,00,00,
94439308,00000207,false,Rx,1,8,00,00,00,00,C8,00,04,00,
94439548,00000227,false,Rx,1,8,00,00,CB,7E,02,00,1F,C5,
94439796,00000237,false,Rx,1,8,3C,41,00,00,00,00,00,00,
94440035,00000247,false,Rx,1,8,44,7D,09,02,00,00,20,00,
94440269,00000717,false,Rx,1,8,06,00,06,46,66,06,00,40,
94449086,00000217,false,Rx,1,8,00,40,01,FC,9C,02,00,00,
94539258,00000207,false,Rx,1,8,00,00,C0,FF,C8,00,04,00,
94539498,00000227,false,Rx,1,8,00,00,C0,7E,07,00,1F,C5,
94539745,00000237,false,Rx,1,8,3C,41,00,00,00,00,00,00,
94539977,00000247,false,Rx,1,8,44,7D,09,02,00,00,20,00,
94540226,00000717,false,Rx,1,8,07,00,00,00,00,0A,00,00,
94549044,00000217,false,Rx,1,8,00,40,01,FC,9C,02,00,00,
94639249,00000207,false,Rx,1,8,00,00,00,00,C8,00,04,00,
94639487,00000227,false,Rx,1,8,00,00,C1,7E,09,00,1F,C5,
94639727,00000237,false,Rx,1,8,3C,41,00,00,00,00,00,00,
94639967,00000247,false,Rx,1,8,44,7D,09,02,00,00,20,00,
94640208,00000717,false,Rx,1,8,08,00,00,00,46,46,00,00,
94649033,00000217,false,Rx,1,8,00,40,01,FC,9C,02,00,00,
94739217,00000207,false,Rx,1,8,00,00,C0,FF,C8,00,04,00,
94739457,00000227,false,Rx,1,8,00,00,BA,7E,00,00,1F,C5,
94739704,00000237,false,Rx,1,8,3C,41,00,00,00,00,00,00,
94739946,00000247,false,Rx,1,8,44,7D,09,02,00,00,20,00,
94740185,00000717,false,Rx,1,8,09,00,06,46,00,00,00,00,
94748996,00000217,false,Rx,1,8,00,40,01,FC,9C,02,00,00,
94839207,00000207,false,Rx,1,8,00,00,C0,FF,C8,00,04,00,
94839447,00000227,false,Rx,1,8,00,00,B7,7E,00,00,1F,C5,
94839695,00000237,false,Rx,1,8,3C,41,00,00,00,00,00,00,
94839928,00000247,false,Rx,1,8,44,7D,09,02,00,00,20,00,
94840168,00000537,false,Rx,1,8,0D,00,00,00,7D,F1,02,85,
94840418,00000717,false,Rx,1,8,0A,00,00,00,00,00,00,00,
94848996,00000217,false,Rx,1,8,00,40,01,FC,9C,02,00,00,
94939184,00000207,false,Rx,1,8,00,00,C0,FF,C8,00,04,00,
94939424,00000227,false,Rx,1,8,00,00,CD,7E,01,00,1F,C5,
94939664,00000237,false,Rx,1,8,3C,41,00,00,00,00,00,00,
94939904,00000247,false,Rx,1,8,44,7D,09,02,00,00,20,00,
94940152,00000717,false,Rx,1,8,0B,00,00,00,00,00,00,00,
94948975,00000217,false,Rx,1,8,00,40,01,FC,9C,02,00,00,
95039143,00000207,false,Rx,1,8,00,00,C0,FF,C8,00,04,00,
95039391,00000227,false,Rx,1,8,00,00,D4,7E,00,00,1F,C5,
95039631,00000237,false,Rx,1,8,3C,41,00,00,00,00,00,00,
95039871,00000247,false,Rx,1,8,44,7D,09,02,00,00,20,00,
95040112,00000717,false,Rx,1,8,0C,01,00,00,00,00,02,00,
95048928,00000217,false,Rx,1,8,00,40,01,FC,9C,02,00,00,
95139146,00000207,false,Rx,1,8,00,00,C0,FF,C8,00,04,00,
95139387,00000227,false,Rx,1,8,00,00,DA,7E,07,00,1F,C5,
95139635,00000237,false,Rx,1,8,3C,41,00,00,00,00,00,00,
95139875,00000247,false,Rx,1,8,44,7D,09,02,00,00,20,00,
95140116,00000717,false,Rx,1,8,0E,00,00,02,06,59,00,00,
95148935,00000217,false,Rx,1,8,00,40,01,FC,9C,02,00,00,
95239107,00000207,false,Rx,1,8,00,00,C0,FF,C8,00,04,00,
95239347,00000227,false,Rx,1,8,00,00,AF,7E,02,00,1F,C5,
95239594,00000237,false,Rx,1,8,3C,41,00,00,00,00,00,00,
95239835,00000247,false,Rx,1,8,44,7D,09,02,00,00,20,00,
95240067,00000717,false,Rx,1,8,0F,00,EB,01,27,11,00,00,
95248912,00000217,false,Rx,1,8,00,40,01,FC,9C,02,00,00,
95339022,00000367,false,Rx,1,8,00,00,00,00,00,00,00,00,
95339269,00000207,false,Rx,1,8,00,00,00,00,C8,00,04,00,
95339509,00000227,false,Rx,1,8,00,00,AA,7E,02,00,1F,C5,
95339750,00000237,false,Rx,1,8,3C,41,00,00,00,00,00,00,
95339990,00000247,false,Rx,1,8,44,7D,09,02,00,00,20,00,
95340230,00000717,false,Rx,1,8,10,09,D0,FE,03,80,FF,00,
95348885,00000217,false,Rx,1,8,00,40,01,FC,9C,02,00,00,
95349131,00000377,false,Rx,1,8,00,00,00,00,00,00,00,00,
95359001,00000347,false,Rx,1,8,00,00,00,00,00,08,00,00,
95368983,00000357,false,Rx,1,8,00,00,00,00,00,00,00,00,
95378979,00000327,false,Rx,1,8,00,00,00,00,00,00,00,00,
95388978,00000337,false,Rx,1,8,00,00,00,00,00,00,00,00,
95439088,00000207,false,Rx,1,8,00,00,00,00,C8,00,04,00,
95439328,00000227,false,Rx,1,8,00,00,B7,7E,02,00,1F,C5,
95439569,00000237,false,Rx,1,8,3C,41,00,00,00,00,00,00,
95439809,00000247,false,Rx,1,8,44,7D,09,02,00,00,20,00,
95440056,00000717,false,Rx,1,8,11,00,12,E4,00,00,00,00,
95448865,00000217,false,Rx,1,8,00,40,01,FC,9C,02,00,00,
95539043,00000207,false,Rx,1,8,00,00,C0,FF,C8,00,04,00,
95539282,00000227,false,Rx,1,8,00,00,AA,7E,01,00,1F,C5,
95539531,00000237,false,Rx,1,8,3C,41,00,00,00,00,00,00,
95539771,00000247,false,Rx,1,8,44,7D,09,02,00,00,20,00,
95540003,00000717,false,Rx,1,8,12,40,29,00,27,00,17,00,
95548822,00000217,false,Rx,1,8,00,40,01,FC,9C,02,00,00,
95639048,00000207,false,Rx,1,8,00,00,C0,FF,C8,00,04,00,
95639289,00000227,false,Rx,1,8,00,00,B1,7E,00,00,1F,C5,
95639536,00000237,false,Rx,1,8,3C,41,00,00,00,00,00,00,
95639776,00000247,false,Rx,1,8,44,7D,09,02,00,00,20,00,
95640025,00000717,false,Rx,1,8,13,00,00,00,00,00,00,00,
95648825,00000217,false,Rx,1,8,00,40,01,FC,9C,02,00,00,
95739001,00000207,false,Rx,1,8,00,00,00,00,C8,00,04,00,
95739242,00000227,false,Rx,1,8,00,00,A6,7E,02,00,1F,C5,
95739482,00000237,false,Rx,1,8,3C,41,00,00,00,00,00,00,
95739722,00000247,false,Rx,1,8,44,7D,09,02,00,00,20,00,
95739971,00000537,false,Rx,1,8,0E,00,00,00,00,00,00,00,
95740218,00000717,false,Rx,1,8,14,00,00,00,09,00,00,00,
95748798,00000217,false,Rx,1,8,00,40,01,FC,9C,02,00,00,
95838976,00000207,false,Rx,1,8,00,00,00,00,C8,00,04,00,
95839215,00000227,false,Rx,1,8,00,00,B2,7E,00,00,1F,C5,
95839463,00000237,false,Rx,1,8,3C,41,00,00,00,00,00,00,
95839697,00000247,false,Rx,1,8,44,7D,09,02,00,00,20,00,
95848774,00000217,false,Rx,1,8,00,40,01,FC,9C,02,00,00,
95938966,00000207,false,Rx,1,8,00,00,C0,FF,C8,00,04,00,
95939204,00000227,false,Rx,1,8,00,00,AC,7E,00,00,1F,C5,
95939446,00000237,false,Rx,1,8,3C,41,00,00,00,00,00,00,
95939686,00000247,false,Rx,1,8,44,7D,09,02,00,00,20,00,
95939934,00000717,false,Rx,1,8,16,00,00,00,00,00,06,46,
95948765,00000217,false,Rx,1,8,00,40,01,FC,9C,02,00,00,
96038922,00000207,false,Rx,1,8,00,00,C0,FF,C8,00,04,00,
96039168,00000227,false,Rx,1,8,00,00,A0,7E,00,00,1F,C5,
96039411,00000237,false,Rx,1,8,3C,41,00,00,00,00,00,00,
96039651,00000247,false,Rx,1,8,44,7D,09,02,00,00,20,00,
96039891,00000717,false,Rx,1,8,17,00,00,50,04,00,00,00,
96048724,00000217,false,Rx,1,8,00,40,01,FC,9C,02,00,00,
96138922,00000207,false,Rx,1,8,00,00,00,00,C8,00,04,00,
96139170,00000227,false,Rx,1,8,00,00,99,7E,00,00,1F,C5,
96139411,00000237,false,Rx,1,8,3C,41,00,00,00,00,00,00,
96139651,00000247,false,Rx,1,8,44,7D,09,02,00,00,20,00,
96139899,00000717,false,Rx,1,8,18,00,00,00,00,00,00,00,
96148716,00000217,false,Rx,1,8,00,40,01,FC,9C,02,00,00,
96238874,00000207,false,Rx,1,8,00,00,C0,FF,C8,00,04,00,
96239114,00000227,false,Rx,1,8,00,00,8F,7E,06,00,1F,C5,
96239355,00000237,false,Rx,1,8,3C,41,00,00,00,00,00,00,
96239595,00000247,false,Rx,1,8,44,7D,09,02,00,00,20,00,
96239843,00000717,false,Rx,1,8,19,00,00,00,00,00,00,00,
96248695,00000217,false,Rx,1,8,00,40,01,FC,9C,02,00,00,
96338786,00000367,false,Rx,1,8,00,00,00,00,00,00,00,00,
96339034,00000207,false,Rx,1,8,00,00,00,00,C8,00,04,00,
96339267,00000227,false,Rx,1,8,00,00,A4,7E,00,00,1F,C5,
96339515,00000237,false,Rx,1,8,3C,41,00,00,00,00,00,00,
96339756,00000247,false,Rx,1,8,44,7D,09,02,00,00,20,00,
96340003,00000717,false,Rx,1,8,01,00,00,00,00,00,00,00,
96348658,00000217,false,Rx,1,8,00,40,01,FC,9C,02,00,00,
96348905,00000377,false,Rx,1,8,00,00,00,00,00,00,00,00,
96358790,00000347,false,Rx,1,8,00,00,00,00,00,08,00,00,
96368795,00000357,false,Rx,1,8,00,00,00,00,00,00,00,00,
96378792,00000327,false,Rx,1,8,00,00,00,00,00,00,00,00,
96388789,00000337,false,Rx,1,8,00,00,00,00,00,00,00,00,
96438883,00000207,false,Rx,1,8,00,00,C0,FF,C8,00,04,00,
96439121,00000227,false,Rx,1,8,00,00,9F,7E,00,00,1F,C5,
96439370,00000237,false,Rx,1,8,3C,41,00,00,00,00,00,00,
96439603,00000247,false,Rx,1,8,44,7D,09,02,00,00,20,00,
96439851,00000717,false,Rx,1,8,02,00,00,00,00,00,00,00,
96448653,00000217,false,Rx,1,8,00,40,01,FC,9C,02,00,00,
96538824,00000207,false,Rx,1,8,00,00,C0,FF,C8,00,04,00,
96539062,00000227,false,Rx,1,8,00,00,A0,7E,01,00,1F,C5,
96539312,00000237,false,Rx,1,8,3C,41,00,00,00,00,00,00,
96539544,00000247,false,Rx,1,8,44,7D,09,02,00,00,20,00,
96548613,00000217,false,Rx,1,8,00,40,01,FC,9C,02,00,00,
96638812,00000207,false,Rx,1,8,00,00,00,00,C8,00,04,00,
96639058,00000227,false,Rx,1,8,00,00,A5,7E,00,00,1F,C5,
96639300,00000237,false,Rx,1,8,3C,41,00,00,00,00,00,00,
96639540,00000247,false,Rx,1,8,44,7D,09,02,00,00,20,00,
96639772,00000537,false,Rx,1,8,0F,00,00,00,8C,A1,70,0A,
96640021,00000717,false,Rx,1,8,04,00,00,00,00,00,00,00,
96648608,00000217,false,Rx,1,8,00,40,01,FC,9C,02,00,00,
96738819,00000207,false,Rx,1,8,00,00,C0,FF,C8,00,04,00,
96739051,00000227,false,Rx,1,8,00,00,A9,7E,05,00,1F,C5,
96739300,00000237,false,Rx,1,8,3C,41,00,00,00,00,00,00,
96739540,00000247,false,Rx,1,8,44,7D,09,02,00,00,20,00,
96739788,00000717,false,Rx,1,8,05,00,00,00,00,00,00,00,
96748595,00000217,false,Rx,1,8,00,40,01,FC,9C,02,00,00,
96838767,00000207,false,Rx,1,8,00,00,C0,FF,C8,00,04,00,
96839006,00000227,false,Rx,1,8,00,00,9C,7E,05,00,1F,C5,
96839255,00000237,false,Rx,1,8,3C,41,00,00,00,00,00,00,
96839487,00000247,false,Rx,1,8,44,7D,09,02,00,00,20,00,
96839728,00000717,false,Rx,1,8,06,00,42,46,66,06,00,40,
96848553,00000217,false,Rx,1,8,00,40,01,FC,9C,02,00,00,
96938772,00000207,false,Rx,1,8,00,00,00,00,C8,00,04,00,
96939011,00000227,false,Rx,1,8,00,00,AB,7E,01,00,1F,C5,
96939260,00000237,false,Rx,1,8,3C,41,00,00,00,00,00,00,
96939494,00000247,false,Rx,1,8,44,7D,09,02,00,00,20,00,
96939741,00000717,false,Rx,1,8,07,00,00,00,00,0A,00,00,
96948542,00000217,false,Rx,1,8,00,40,01,FC,9C,02,00,00,
97038724,00000207,false,Rx,1,8,00,00,00,00,C8,00,04,00,
97038970,00000227,false,Rx,1,8,00,00,A4,7E,00,00,1F,C5,
97039211,00000237,false,Rx,1,8,3C,41,00,00,00,00,00,00,
97039452,00000247,false,Rx,1,8,44,7D,09,02,00,00,20,00,
97039692,00000717,false,Rx,1,8,08,00,00,00,4A,46,00,00,
97048524,00000217,false,Rx,1,8,00,40,01,FC,9C,02,00,00,
97138721,00000207,false,Rx,1,8,00,00,00,00,C8,00,04,00,
97138960,00000227,false,Rx,1,8,00,00,A7,7E,00,00,1F,C5,
97139208,00000237,false,Rx,1,8,3C,41,00,00,00,00,00,00,
97139442,00000247,false,Rx,1,8,44,7D,09,02,00,00,20,00,
97139690,00000717,false,Rx,1,8,09,00,02,46,00,00,00,00,
97148506,00000217,false,Rx,1,8,00,40,01,FC,9C,02,00,00,
97238693,00000207,false,Rx,1,8,00,00,C0,FF,C8,00,04,00,
97238933,00000227,false,Rx,1,8,00,00,B2,7E,00,00,1F,C5,
97239180,00000237,false,Rx,1,8,3C,41,00,00,00,00,00,00,
97239421,00000247,false,Rx,1,8,44,7D,09,02,00,00,20,00,
97239662,00000717,false,Rx,1,8,0A,00,00,00,00,00,00,00,
97248488,00000217,false,Rx,1,8,00,40,01,FC,9C,02,00,00,
97338564,00000367,false,Rx,1,8,00,00,00,00,00,00,00,00,
97338804,00000207,false,Rx,1,8,00,00,C0,FF,C8,00,04,00,
97339044,00000227,false,Rx,1,8,00,00,A2,7E,00,00,1F,C5,
97339293,00000237,false,Rx,1,8,3C,41,00,00,00,00,00,00,
97339534,00000247,false,Rx,1,8,44,7D,09,02,00,00,20,00,
97339781,00000717,false,Rx,1,8,0B,00,00,00,00,00,00,00,
97348442,00000217,false,Rx,1,8,00,40,01,FC,9C,02,00,00,
97348688,00000377,false,Rx,1,8,00,00,00,00,00,00,00,00,
97358557,00000347,false,Rx,1,8,00,00,00,00,00,08,00,00,
97368555,00000357,false,Rx,1,8,00,00,00,00,00,00,00,00,
97378568,00000327,false,Rx,1,8,00,00,00,00,00,00,00,00,
97388565,00000337,false,Rx,1,8,00,00,00,00,00,00,00,00,
97438660,00000207,false,Rx,1,8,00,00,C0,FF,C8,00,04,00,
97438899,00000227,false,Rx,1,8,00,00,AB,7E,00,00,1F,C5,
97439147,00000237,false,Rx,1,8,3C,41,00,00,00,00,00,00,
97439389,00000247,false,Rx,1,8,44,7D,09,02,00,00,20,00,
97439629,00000717,false,Rx,1,8,0C,01,00,00,00,00,02,00,
97448432,00000217,false,Rx,1,8,00,40,01,FC,9C,02,00,00,
97538620,00000207,false,Rx,1,8,00,00,C0,FF,C8,00,04,00,
97538859,00000227,false,Rx,1,8,00,00,A8,7E,00,00,1F,C5,
97539106,00000237,false,Rx,1,8,3C,41,00,00,00,00,00,00,
97539341,00000247,false,Rx,1,8,44,7D,09,02,00,00,20,00,
97539588,00000537,false,Rx,1,8,10,00,00,0A,00,00,00,00,
97539828,00000717,false,Rx,1,8,0E,00,00,02,66,62,00,00,
97548422,00000217,false,Rx,1,8,00,40,01,FC,9C,02,00,00,
97638606,00000207,false,Rx,1,8,00,00,C0,FF,C8,00,04,00,
97638844,00000227,false,Rx,1,8,00,00,A3,7E,00,00,1F,C5,
97639093,00000237,false,Rx,1,8,3C,41,00,00,00,00,00,00,
97639328,00000247,false,Rx,1,8,44,7D,09,02,00,00,20,00,
97639568,00000717,false,Rx,1,8,0F,00,EB,01,58,0E,00,00,
97648383,00000217,false,Rx,1,8,00,40,01,FC,9C,02,00,00,
97738593,00000207,false,Rx,1,8,00,00,C0,FF,C8,00,04,00,
97738840,00000227,false,Rx,1,8,00,00,AA,7E,00,00,1F,C5,
97739081,00000237,false,Rx,1,8,3C,41,00,00,00,00,00,00,
97739322,00000247,false,Rx,1,8,44,7D,09,02,00,00,20,00,
97739555,00000717,false,Rx,1,8,10,09,D0,FE,03,80,FF,00,
97748371,00000217,false,Rx,1,8,00,40,01,FC,9C,02,00,00,
97838537,00000207,false,Rx,1,8,00,00,C0,FF,C8,00,04,00,
97838777,00000227,false,Rx,1,8,00,00,9C,7E,02,00,1F,C5,
97839025,00000237,false,Rx,1,8,3C,41,00,00,00,00,00,00,
97839265,00000247,false,Rx,1,8,44,7D,09,02,00,00,20,00,
97839506,00000717,false,Rx,1,8,11,00,12,E4,00,00,00,00,
97848329,00000217,false,Rx,1,8,00,40,01,FC,9C,02,00,00,
97938550,00000207,false,Rx,1,8,00,00,C0,FF,C8,00,04,00,
97938789,00000227,false,Rx,1,8,00,00,9F,7E,04,00,1F,C5,
97939036,00000237,false,Rx,1,8,3C,41,00,00,00,00,00,00,
97939278,00000247,false,Rx,1,8,44,7D,09,02,00,00,20,00,
97939512,00000717,false,Rx,1,8,12,40,29,00,27,00,17,00,
97948335,00000217,false,Rx,1,8,00,40,01,FC,9C,02,00,00,
98038536,00000207,false,Rx,1,8,00,00,00,00,C8,00,04,00,
98038774,00000227,false,Rx,1,8,00,00,A7,7E,03,00,1F,C5,
98039022,00000237,false,Rx,1,8,3C,41,00,00,00,00,00,00,
98039264,00000247,false,Rx,1,8,44,7D,09,02,00,00,20,00,
98039511,00000717,false,Rx,1,8,13,00,00,00,00,00,00,00,
98048313,00000217,false,Rx,1,8,00,40,01,FC,9C,02,00,00,
98138485,00000207,false,Rx,1,8,00,00,00,00,C8,00,04,00,
98138724,00000227,false,Rx,1,8,00,00,A9,7E,01,00,1F,C5,
98138971,00000237,false,Rx,1,8,3C,41,00,00,00,00,00,00,
98139212,00000247,false,Rx,1,8,44,7D,09,02,00,00,20,00,
98139453,00000717,false,Rx,1,8,14,00,00,00,29,00,00,00,
98148269,00000217,false,Rx,1,8,00,40,01,FC,9C,02,00,00,
98238475,00000207,false,Rx,1,8,00,00,00,00,C8,00,04,00,
98238713,00000227,false,Rx,1,8,00,00,A6,7E,01,00,1F,C5,
98238962,00000237,false,Rx,1,8,3C,41,00,00,00,00,00,00,
98239194,00000247,false,Rx,1,8,44,7D,09,02,00,00,20,00,
98248271,00000217,false,Rx,1,8,00,40,01,FC,9C,02,00,00,
98338359,00000367,false,Rx,1,8,00,00,00,00,00,00,00,00,
98338605,00000207,false,Rx,1,8,00,00,00,00,C8,00,04,00,
98338846,00000227,false,Rx,1,8,00,00,A8,7E,00,00,1F,C5,
98339086,00000237,false,Rx,1,8,3C,41,00,00,00,00,00,00,
98339328,00000247,false,Rx,1,8,44,7D,09,02,00,00,20,00,
98339569,00000717,false,Rx,1,8,16,00,00,00,00,00,C2,45,
98348248,00000217,false,Rx,1,8,00,40,01,FC,9C,02,00,00,
98348502,00000377,false,Rx,1,8,00,00,00,00,00,00,00,00,
98358349,00000347,false,Rx,1,8,00,00,00,00,00,08,00,00,
98368346,00000357,false,Rx,1,8,00,00,00,00,00,00,00,00,
98378343,00000327,false,Rx,1,8,00,00,00,00,00,00,00,00,
98388341,00000337,false,Rx,1,8,00,00,00,00,00,00,00,00,
98438449,00000207,false,Rx,1,8,00,00,00,00,C8,00,04,00,
98438696,00000227,false,Rx,1,8,00,00,A0,7E,01,00,1F,C5,
98438936,00000237,false,Rx,1,8,3C,41,00,00,00,00,00,00,
98439176,00000247,false,Rx,1,8,44,7D,09,02,00,00,20,00,
98439426,00000537,false,Rx,1,8,11,00,00,00,00,00,00,00,
98439673,00000717,false,Rx,1,8,17,00,00,50,04,00,00,00,
98448227,00000217,false,Rx,1,8,00,40,01,FC,9C,02,00,00,
98538409,00000207,false,Rx,1,8,00,00,C0,FF,C8,00,04,00,
98538648,00000227,false,Rx,1,8,00,00,B3,7E,00,00,1F,C5,
98538895,00000237,false,Rx,1,8,3C,41,00,00,00,00,00,00,
98539136,00000247,false,Rx,1,8,44,7D,09,02,00,00,20,00,
98539385,00000717,false,Rx,1,8,18,00,00,00,00,00,00,00,
98548199,00000217,false,Rx,1,8,00,40,01,FC,9C,02,00,00,
98638372,00000207,false,Rx,1,8,00,00,00,00,C8,00,04,00,
98638610,00000227,false,Rx,1,8,00,00,A4,7E,07,00,1F,C5,
98638858,00000237,false,Rx,1,8,3C,41,00,00,00,00,00,00,
98639091,00000247,false,Rx,1,8,44,7D,09,02,00,00,20,00,
98639340,00000717,false,Rx,1,8,19,00,00,00,00,00,00,00,
98648162,00000217,false,Rx,1,8,00,40,01,FC,9C,02,00,00,
98738389,00000207,false,Rx,1,8,00,00,C0,FF,C8,00,04,00,
98738628,00000227,false,Rx,1,8,00,00,AA,7E,00,00,1F,C5,
98738877,00000237,false,Rx,1,8,3C,41,00,00,00,00,00,00,
98739117,00000247,false,Rx,1,8,44,7D,09,02,00,00,20,00,
98739365,00000717,false,Rx,1,8,01,00,00,00,00,00,00,00,
98748167,00000217,false,Rx,1,8,00,40,01,FC,9C,02,00,00,
98838319,00000207,false,Rx,1,8,00,00,C0,FF,C8,00,04,00,
98838558,00000227,false,Rx,1,8,00,00,AB,7E,01,00,1F,C5,
98838806,00000237,false,Rx,1,8,3C,41,00,00,00,00,00,00,
98839046,00000247,false,Rx,1,8,44,7D,09,02,00,00,20,00,
98839287,00000717,false,Rx,1,8,02,00,00,00,00,00,00,00,
98848142,00000217,false,Rx,1,8,00,40,01,FC,9C,02,00,00,
98938341,00000207,false,Rx,1,8,00,00,00,00,C8,00,04,00,
98938581,00000227,false,Rx,1,8,00,00,A2,7E,00,00,1F,C5,
98938828,00000237,false,Rx,1,8,3C,41,00,00,00,00,00,00,
