Time Stamp,ID,Extended,Dir,Bus,LEN,D1,D2,D3,D4,D5,D6,D7,D8
634912765,0000045C,false,Rx,1,8,00,00,09,3E,00,00,00,00,
634921378,0000042C,false,Rx,1,8,45,60,00,00,20,01,00,00,
634921626,0000043C,false,Rx,1,8,45,60,00,00,20,01,00,00,
634921866,0000044C,false,Rx,1,8,45,60,00,00,20,01,00,00,
634931403,0000042C,false,Rx,1,8,4B,60,00,00,20,00,00,00,
634931645,0000043C,false,Rx,1,8,4B,60,00,00,20,00,00,00,
634931892,0000044C,false,Rx,1,8,4B,60,00,00,20,00,00,00,
635002477,0000042C,false,Rx,1,8,6A,60,00,00,20,00,00,00,
635002717,0000043C,false,Rx,1,8,6A,60,00,00,20,00,00,00,
635002972,0000044C,false,Rx,1,8,6A,60,00,00,20,00,00,00,
635012748,0000045C,false,Rx,1,8,00,00,09,3E,00,00,00,00,
635012882,0000010C,false,Rx,1,2,01,00,00,00,00,00,00,00,
635102483,0000042C,false,Rx,1,8,8E,60,00,00,20,00,00,00,
635102722,0000043C,false,Rx,1,8,8E,60,00,00,20,00,00,00,
635102969,0000044C,false,Rx,1,8,8E,60,00,00,20,00,00,00,
635112714,0000045C,false,Rx,1,8,00,00,09,3E,00,00,00,00,
635202483,0000042C,false,Rx,1,8,96,60,00,00,20,00,00,00,
635202721,0000043C,false,Rx,1,8,96,60,00,00,20,00,00,00,
635202969,0000044C,false,Rx,1,8,96,60,00,00,20,00,00,00,
635212721,0000045C,false,Rx,1,8,00,00,09,3E,00,00,00,00,
635212855,0000010C,false,Rx,1,2,02,00,00,00,00,00,00,00,
635302485,0000042C,false,Rx,1,8,96,60,00,00,20,00,00,00,
635302724,0000043C,false,Rx,1,8,96,60,00,00,20,00,00,00,
635302972,0000044C,false,Rx,1,8,96,60,00,00,20,00,00,00,
635312717,0000045C,false,Rx,1,8,00,00,09,3E,00,00,00,00,
635402490,0000042C,false,Rx,1,8,96,60,00,00,20,00,00,00,
635402730,0000043C,false,Rx,1,8,96,60,00,00,20,00,00,00,
635402970,0000044C,false,Rx,1,8,96,60,00,00,20,00,00,00,
635412745,0000045C,false,Rx,1,8,00,00,09,3E,00,00,00,00,
635412879,0000010C,false,Rx,1,2,03,00,00,00,00,00,00,00,
635438394,000005E7,false,Rx,1,8,00,3F,05,06,00,00,00,01,
635502517,0000042C,false,Rx,1,8,96,60,00,00,20,00,00,00,
635502757,0000043C,false,Rx,1,8,96,60,00,00,20,00,00,00,
635502997,0000044C,false,Rx,1,8,96,60,00,00,20,00,00,00,
635512745,0000045C,false,Rx,1,8,00,00,09,3E,00,00,00,00,
635544596,000005E9,false,Rx,1,8,00,3F,05,06,00,00,00,01,
635559761,00000217,false,Rx,1,8,00,00,80,FF,7D,02,00,04,
635602516,0000042C,false,Rx,1,8,96,60,00,00,20,00,00,00,
635602755,0000043C,false,Rx,1,8,96,60,00,00,20,00,00,00,
635603002,0000044C,false,Rx,1,8,96,60,00,00,20,00,00,00,
635612748,0000045C,false,Rx,1,8,00,00,09,3E,00,00,00,00,
635612882,0000010C,false,Rx,1,2,04,00,00,00,00,00,00,00,
635613038,00000547,false,Rx,1,2,04,FF,00,00,00,00,00,00,
635630200,000005EB,false,Rx,1,8,00,3F,05,06,00,00,00,01,
635650006,00000207,false,Rx,1,8,00,01,40,FF,00,00,04,00,
635650252,00000227,false,Rx,1,8,00,00,00,00,03,00,1F,C5,
635650501,00000237,false,Rx,1,8,3E,41,00,00,00,00,00,00,
635650741,00000247,false,Rx,1,8,00,7D,6E,03,00,00,20,00,
635650989,00000717,false,Rx,1,8,02,00,00,00,00,00,00,00,
635659766,00000217,false,Rx,1,8,00,00,80,FF,9C,02,01,04,
635660006,00000507,false,Rx,1,8,74,00,96,00,00,00,00,40,
635660253,00000367,false,Rx,1,8,00,00,00,00,00,00,00,00,
635660494,00000507,false,Rx,1,8,75,00,96,00,00,00,00,40,
635665973,00000219,false,Rx,1,8,00,00,80,FC,7D,02,00,04,
635669863,00000377,false,Rx,1,8,00,00,00,00,00,00,00,00,
635679867,00000347,false,Rx,1,8,00,00,00,00,00,00,00,00,
635689857,00000357,false,Rx,1,8,00,00,00,00,00,00,18,00,
635699862,00000327,false,Rx,1,8,00,00,00,00,00,00,00,00,
635702514,0000042C,false,Rx,1,8,96,60,00,00,20,00,00,00,
635702760,0000043C,false,Rx,1,8,96,60,00,00,20,00,00,00,
635703001,0000044C,false,Rx,1,8,96,60,00,00,20,00,00,00,
635709857,00000337,false,Rx,1,8,00,00,00,00,00,00,00,00,
635712751,0000045C,false,Rx,1,8,00,00,09,3E,00,00,00,00,
635719854,00000367,false,Rx,1,8,00,00,00,00,00,00,00,00,
635729865,00000377,false,Rx,1,8,00,00,00,00,00,00,00,00,
635739849,00000347,false,Rx,1,8,00,00,00,00,00,00,00,00,
635749848,00000357,false,Rx,1,8,00,00,00,00,00,00,18,00,
635750095,00000207,false,Rx,1,8,00,02,80,FF,C8,00,14,00,
635750342,00000227,false,Rx,1,8,00,00,00,00,07,00,1F,C5,
635750583,00000237,false,Rx,1,8,3E,41,00,00,00,00,00,00,
635750824,00000247,false,Rx,1,8,44,7D,6E,03,00,00,20,00,
635751575,0000021B,false,Rx,1,8,00,00,80,FF,7D,02,00,04,
635756220,00000209,false,Rx,1,8,65,00,C0,FF,00,00,04,00,
635756458,00000229,false,Rx,1,8,00,00,00,00,C8,00,1F,C5,
635756707,00000239,false,Rx,1,8,3D,41,00,00,00,00,00,00,
635756948,00000249,false,Rx,1,8,00,7D,6E,03,00,00,20,00,
635757195,00000719,false,Rx,1,8,02,00,00,00,00,00,00,00,
635759752,00000217,false,Rx,1,8,02,40,80,FF,9C,02,01,04,
635760000,00000327,false,Rx,1,8,00,00,00,00,00,00,00,00,
635765969,00000219,false,Rx,1,8,00,00,80,DF,9D,02,00,04,
635766208,00000509,false,Rx,1,8,74,00,96,00,00,00,00,80,
635766455,00000369,false,Rx,1,8,00,00,00,00,00,00,00,00,
635766696,00000509,false,Rx,1,8,75,00,96,00,00,00,00,80,
635769850,00000337,false,Rx,1,8,00,00,00,00,00,00,00,00,
635776066,00000379,false,Rx,1,8,00,00,00,00,00,00,00,00,
635786070,00000349,false,Rx,1,8,00,00,00,00,00,00,00,00,
635796074,00000359,false,Rx,1,8,00,00,00,00,00,00,18,00,
635802519,0000042C,false,Rx,1,8,96,60,00,00,20,00,00,00,
635802757,0000043C,false,Rx,1,8,96,60,00,00,20,00,00,00,
635803006,0000044C,false,Rx,1,8,96,60,00,00,20,00,00,00,
635806075,00000329,false,Rx,1,8,00,00,00,00,00,00,00,00,
635812751,0000045C,false,Rx,1,8,00,00,09,3E,00,00,00,00,
635812886,0000010C,false,Rx,1,2,05,00,00,00,00,00,00,00,
635813035,00000547,false,Rx,1,2,05,FF,00,00,00,00,00,00,
635813177,00000549,false,Rx,1,2,05,FF,00,00,00,00,00,00,
635813311,0000054B,false,Rx,1,2,05,FF,00,00,00,00,00,00,
635816072,00000339,false,Rx,1,8,00,00,00,00,00,00,00,00,
635826072,00000369,false,Rx,1,8,00,00,00,00,00,00,00,00,
635836069,00000379,false,Rx,1,8,00,00,00,00,00,00,00,00,
635841809,0000020B,false,Rx,1,8,00,00,C0,FF,00,02,04,00,
635842049,0000022B,false,Rx,1,8,00,00,00,00,4E,00,1F,C5,
635842296,0000023B,false,Rx,1,8,3D,41,00,00,00,00,00,00,
635842537,0000024B,false,Rx,1,8,00,7D,6E,03,00,00,20,00,
635842786,0000071B,false,Rx,1,8,02,00,00,00,00,00,00,00,
635846063,00000349,false,Rx,1,8,00,00,00,00,00,00,00,00,
635849945,00000207,false,Rx,1,8,00,02,80,FF,C8,00,14,00,
635850184,00000227,false,Rx,1,8,00,00,00,00,01,00,1F,C5,
635850439,00000237,false,Rx,1,8,3E,41,00,00,00,00,00,00,
635850674,00000247,false,Rx,1,8,44,7D,6E,03,00,00,20,00,
635850921,00000717,false,Rx,1,8,04,00,00,00,00,00,00,00,
635851582,0000021B,false,Rx,1,8,00,C0,FF,FF,9C,02,00,04,
635851822,0000050B,false,Rx,1,8,74,00,96,00,00,00,00,C0,
635852072,0000036B,false,Rx,1,8,00,00,00,00,00,00,00,00,
635852312,0000050B,false,Rx,1,8,75,00,96,00,00,00,00,C0,
635856057,00000359,false,Rx,1,8,00,00,00,00,00,00,18,00,
635856296,00000209,false,Rx,1,8,76,00,C0,FF,C8,00,14,00,
635856544,00000229,false,Rx,1,8,00,00,00,00,C9,00,1F,C5,
635856793,00000239,false,Rx,1,8,3D,41,00,00,00,00,00,00,
635857025,00000249,false,Rx,1,8,44,7D,6E,03,00,00,20,00,
635859732,00000217,false,Rx,1,8,02,40,80,FF,9C,02,01,04,
635861681,0000037B,false,Rx,1,8,00,00,00,00,00,00,00,00,
635865954,00000219,false,Rx,1,8,02,C0,FF,C5,9D,02,00,04,
635866207,00000329,false,Rx,1,8,00,00,00,00,00,00,00,00,
635871679,0000034B,false,Rx,1,8,00,00,00,00,00,00,00,00,
635876061,00000339,false,Rx,1,8,00,00,00,00,00,00,00,00,
635881674,0000035B,false,Rx,1,8,00,00,00,00,00,00,18,00,
635891671,0000032B,false,Rx,1,8,00,00,00,00,00,00,00,00,
635901668,0000033B,false,Rx,1,8,00,00,00,00,00,00,00,00,
635902522,0000042C,false,Rx,1,8,96,60,00,00,20,00,00,00,
635902763,0000043C,false,Rx,1,8,96,60,00,00,20,00,00,00,
635903003,0000044C,false,Rx,1,8,96,60,00,00,20,00,00,00,
635911668,0000036B,false,Rx,1,8,00,00,00,00,00,00,00,00,
635912755,0000045C,false,Rx,1,8,00,00,09,3E,00,00,00,00,
635921671,0000037B,false,Rx,1,8,00,00,00,00,00,00,00,00,
635931669,0000034B,false,Rx,1,8,00,00,00,00,00,00,00,00,
635941659,0000035B,false,Rx,1,8,00,00,00,00,00,00,18,00,
635941906,0000020B,false,Rx,1,8,00,00,00,00,C8,02,14,00,
635942146,0000022B,false,Rx,1,8,00,00,00,00,47,00,1F,C5,
635942394,0000023B,false,Rx,1,8,3D,41,00,00,00,00,00,00,
635942636,0000024B,false,Rx,1,8,44,7D,6E,03,00,00,20,00,
635949918,00000207,false,Rx,1,8,00,01,80,FF,C8,00,14,00,
635950164,00000227,false,Rx,1,8,00,00,00,00,04,00,1F,C5,
635950412,00000237,false,Rx,1,8,3E,41,00,00,00,00,00,00,
635950655,00000247,false,Rx,1,8,44,7D,6E,03,00,00,20,00,
635950895,00000717,false,Rx,1,8,05,00,00,00,00,00,00,00,
635951555,0000021B,false,Rx,1,8,02,00,80,FF,9C,02,00,04,
635951803,0000032B,false,Rx,1,8,00,00,00,00,00,00,00,00,
635956127,00000209,false,Rx,1,8,78,00,00,00,C8,00,14,00,
635956374,00000229,false,Rx,1,8,00,00,00,00,B0,00,1F,C5,
635956623,00000239,false,Rx,1,8,3D,41,00,00,00,00,00,00,
635956856,00000249,false,Rx,1,8,44,7D,6E,03,00,00,20,00,
635957103,00000719,false,Rx,1,8,04,00,00,00,00,00,00,00,
635959706,00000217,false,Rx,1,8,02,40,00,FF,9C,02,01,04,
635961654,0000033B,false,Rx,1,8,00,00,00,00,00,00,00,00,
635965933,00000219,false,Rx,1,8,02,C0,7F,AE,9D,02,00,04,
636002519,0000042C,false,Rx,1,8,96,60,00,00,20,00,00,00,
636002765,0000043C,false,Rx,1,8,96,60,00,00,20,00,00,00,
636003005,0000044C,false,Rx,1,8,96,60,00,00,20,00,00,00,
636012753,0000045C,false,Rx,1,8,00,00,09,3E,00,00,00,00,
636012887,0000010C,false,Rx,1,2,06,00,00,00,00,00,00,00,
636013036,00000547,false,Rx,1,2,06,FF,00,00,00,00,00,00,
636013169,00000549,false,Rx,1,2,06,FF,00,00,00,00,00,00,
636013305,0000054B,false,Rx,1,2,06,FF,00,00,00,00,00,00,
636041731,0000020B,false,Rx,1,8,00,00,00,00,C8,02,14,00,
636041970,0000022B,false,Rx,1,8,00,00,00,00,42,00,1F,C5,
636042217,0000023B,false,Rx,1,8,3D,41,00,00,00,00,00,00,
636042458,0000024B,false,Rx,1,8,44,7D,6E,03,00,00,20,00,
636042706,0000071B,false,Rx,1,8,04,00,00,00,00,00,00,00,
636049875,00000207,false,Rx,1,8,01,01,80,FF,C8,00,14,00,
636050121,00000227,false,Rx,1,8,00,00,00,00,02,00,1F,C5,
636050370,00000237,false,Rx,1,8,3E,41,00,00,00,00,00,00,
636050611,00000247,false,Rx,1,8,44,7D,6E,03,00,00,20,00,
636050843,00000717,false,Rx,1,8,06,00,0A,45,66,06,00,40,
636051534,0000021B,false,Rx,1,8,02,C0,FF,FF,9C,02,00,04,
636056111,00000209,false,Rx,1,8,74,00,C0,FF,C8,00,14,00,
636056359,00000229,false,Rx,1,8,00,00,00,00,96,00,1F,C5,
636056607,00000239,false,Rx,1,8,3D,41,00,00,00,00,00,00,
636056840,00000249,false,Rx,1,8,44,7D,6E,03,00,00,20,00,
636057088,00000719,false,Rx,1,8,05,00,00,00,00,00,00,00,
636059659,00000217,false,Rx,1,8,02,40,00,FF,9C,02,01,04,
636065903,00000219,false,Rx,1,8,02,C0,FF,98,9D,02,00,04,
636102524,0000042C,false,Rx,1,8,96,60,00,00,20,00,00,00,
636102763,0000043C,false,Rx,1,8,96,60,00,00,20,00,00,00,
636103010,0000044C,false,Rx,1,8,96,60,00,00,20,00,00,00,
636112754,0000045C,false,Rx,1,8,00,00,09,3E,00,00,00,00,
636141720,0000020B,false,Rx,1,8,00,00,00,00,C8,02,14,00,
636141966,0000022B,false,Rx,1,8,00,00,00,00,3F,00,1F,C5,
636142206,0000023B,false,Rx,1,8,3D,41,00,00,00,00,00,00,
636142447,0000024B,false,Rx,1,8,44,7D,6E,03,00,00,20,00,
636142695,0000071B,false,Rx,1,8,05,00,00,00,00,00,00,00,
636149885,00000207,false,Rx,1,8,01,01,80,FF,C8,00,14,00,
636150125,00000227,false,Rx,1,8,00,00,00,00,05,00,1F,C5,
636150373,00000237,false,Rx,1,8,3E,41,00,00,00,00,00,00,
636150614,00000247,false,Rx,1,8,44,7D,6E,03,00,00,20,00,
636150855,00000717,false,Rx,1,8,07,00,00,00,02,0A,00,00,
636151516,0000021B,false,Rx,1,8,02,C0,7F,FF,9C,02,00,04,
636156076,00000209,false,Rx,1,8,6D,00,C0,FF,C8,00,14,00,
636156316,00000229,false,Rx,1,8,00,00,00,00,A9,00,1F,C5,
636156564,00000239,false,Rx,1,8,3D,41,00,00,00,00,00,00,
636156797,00000249,false,Rx,1,8,44,7D,6E,03,00,00,20,00,
636157038,00000719,false,Rx,1,8,06,00,1E,46,66,06,00,40,
636159667,00000217,false,Rx,1,8,02,80,00,FF,9C,02,01,04,
636165867,00000219,false,Rx,1,8,02,C0,FF,84,9D,02,00,04,
636202523,0000042C,false,Rx,1,8,96,60,00,00,20,00,00,00,
636202769,0000043C,false,Rx,1,8,96,60,00,00,20,00,00,00,
636203010,0000044C,false,Rx,1,8,96,60,00,00,20,00,00,00,
636212754,0000045C,false,Rx,1,8,00,00,09,3E,00,00,00,00,
636212888,0000010C,false,Rx,1,2,07,00,00,00,00,00,00,00,
636213038,0000054B,false,Rx,1,2,07,FF,00,00,00,00,00,00,
636213180,00000547,false,Rx,1,2,07,FF,00,00,00,00,00,00,
636213314,00000549,false,Rx,1,2,07,FF,00,00,00,00,00,00,
636241682,0000020B,false,Rx,1,8,00,00,00,00,C8,02,14,00,
636241921,0000022B,false,Rx,1,8,00,00,00,00,33,00,1F,C5,
636242169,0000023B,false,Rx,1,8,3D,41,00,00,00,00,00,00,
636242401,0000024B,false,Rx,1,8,44,7D,6E,03,00,00,20,00,
636242642,0000071B,false,Rx,1,8,06,00,2A,46,66,06,00,40,
636249841,00000207,false,Rx,1,8,01,01,80,FF,C8,00,14,00,
636250087,00000227,false,Rx,1,8,00,00,00,00,00,00,1F,C5,
636250335,00000237,false,Rx,1,8,3E,41,00,00,00,00,00,00,
636250577,00000247,false,Rx,1,8,44,7D,6E,03,00,00,20,00,
636250817,00000717,false,Rx,1,8,08,00,00,00,CE,44,00,00,
636251478,0000021B,false,Rx,1,8,02,C0,7F,FF,9C,02,00,04,
636256077,00000209,false,Rx,1,8,65,00,00,00,C8,00,14,00,
636256323,00000229,false,Rx,1,8,00,00,00,00,7F,00,1F,C5,
636256572,00000239,false,Rx,1,8,3D,41,00,00,00,00,00,00,
636256806,00000249,false,Rx,1,8,44,7D,6E,03,00,00,20,00,
636257053,00000719,false,Rx,1,8,07,00,00,00,02,0A,00,00,
636259646,00000217,false,Rx,1,8,02,80,00,FF,9C,02,01,04,
636265874,00000219,false,Rx,1,8,02,C0,7F,80,9D,02,00,04,
636302528,0000042C,false,Rx,1,8,96,60,00,00,20,00,00,00,
636302767,0000043C,false,Rx,1,8,96,60,00,00,20,00,00,00,
636303008,0000044C,false,Rx,1,8,96,60,00,00,20,00,00,00,
636312754,0000045C,false,Rx,1,8,00,00,09,3E,00,00,00,00,
636341682,0000020B,false,Rx,1,8,00,00,00,00,C8,02,14,00,
636341928,0000022B,false,Rx,1,8,00,00,00,00,21,00,1F,C5,
636342169,0000023B,false,Rx,1,8,3D,41,00,00,00,00,00,00,
636342409,0000024B,false,Rx,1,8,44,7D,6E,03,00,00,20,00,
636342657,0000071B,false,Rx,1,8,07,00,00,00,02,0A,00,00,
636349826,00000207,false,Rx,1,8,01,01,80,FF,C8,00,14,00,
636350072,00000227,false,Rx,1,8,00,00,00,00,07,00,1F,C5,
636350327,00000237,false,Rx,1,8,3E,41,00,00,00,00,00,00,
636350562,00000247,false,Rx,1,8,44,7D,6E,03,00,00,20,00,
636350802,00000717,false,Rx,1,8,09,00,AE,44,00,00,00,00,
636351478,0000021B,false,Rx,1,8,02,C0,7F,FF,9C,02,00,04,
636356039,00000209,false,Rx,1,8,5D,00,00,00,C8,00,14,00,
636356285,00000229,false,Rx,1,8,00,00,00,00,85,00,1F,C5,
636356533,00000239,false,Rx,1,8,3D,41,00,00,00,00,00,00,
636356767,00000249,false,Rx,1,8,44,7D,6E,03,00,00,20,00,
636357014,00000719,false,Rx,1,8,08,00,00,00,2E,46,00,00,
636359614,00000217,false,Rx,1,8,02,80,80,FE,9C,02,01,04,
636365846,00000219,false,Rx,1,8,02,C0,7F,80,9D,02,00,04,
636402525,0000042C,false,Rx,1,8,96,60,00,00,20,00,00,00,
636402772,0000043C,false,Rx,1,8,96,60,00,00,20,00,00,00,
636403012,0000044C,false,Rx,1,8,96,60,00,00,20,00,00,00,
636412760,0000045C,false,Rx,1,8,00,00,09,3E,00,00,00,00,
636412894,0000010C,false,Rx,1,2,08,00,00,00,00,00,00,00,
636413050,00000549,false,Rx,1,2,08,FF,00,00,00,00,00,00,
636413177,00000547,false,Rx,1,2,08,FF,00,00,00,00,00,00,
636413318,0000054B,false,Rx,1,2,08,FF,00,00,00,00,00,00,
636441631,0000020B,false,Rx,1,8,00,00,C0,FF,C8,02,14,00,
636441871,0000022B,false,Rx,1,8,00,00,00,00,4C,00,1F,C5,
636442118,0000023B,false,Rx,1,8,3D,41,00,00,00,00,00,00,
636442351,0000024B,false,Rx,1,8,44,7D,6E,03,00,00,20,00,
636442593,0000071B,false,Rx,1,8,08,00,00,00,62,46,00,00,
636449820,00000207,false,Rx,1,8,01,01,80,FF,C8,00,14,00,
636450067,00000227,false,Rx,1,8,00,00,00,00,00,00,1F,C5,
636450308,00000237,false,Rx,1,8,3E,41,00,00,00,00,00,00,
636450550,00000247,false,Rx,1,8,44,7D,6E,03,00,00,20,00,
636450797,00000717,false,Rx,1,8,0A,00,00,00,00,00,00,00,
636451450,0000021B,false,Rx,1,8,02,C0,7F,FF,9C,02,00,04,
636456011,00000209,false,Rx,1,8,55,00,00,00,C8,00,14,00,
636456257,00000229,false,Rx,1,8,00,00,00,00,5B,00,1F,C5,
636456507,00000239,false,Rx,1,8,3D,41,00,00,00,00,00,00,
636456739,00000249,false,Rx,1,8,44,7D,6E,03,00,00,20,00,
636456979,00000719,false,Rx,1,8,09,00,32,46,00,00,00,00,
636459602,00000217,false,Rx,1,8,02,80,80,FE,9C,02,00,04,
636465817,00000219,false,Rx,1,8,02,C0,7F,80,9D,02,00,04,
636502526,0000042C,false,Rx,1,8,96,60,00,00,20,00,00,00,
636502772,0000043C,false,Rx,1,8,96,60,00,00,20,00,00,00,
636503012,0000044C,false,Rx,1,8,96,60,00,00,20,00,00,00,
636512758,0000045C,false,Rx,1,8,00,00,09,3E,00,00,00,00,
636541616,0000020B,false,Rx,1,8,00,00,C0,FF,C8,02,14,00,
636541856,0000022B,false,Rx,1,8,00,00,00,00,16,00,1F,C5,
636542103,0000023B,false,Rx,1,8,3D,41,00,00,00,00,00,00,
636542343,0000024B,false,Rx,1,8,44,7D,6E,03,00,00,20,00,
636542585,0000071B,false,Rx,1,8,09,00,22,46,00,00,00,00,
636549692,00000367,false,Rx,1,8,00,00,00,00,00,00,00,00,
636549938,00000207,false,Rx,1,8,01,01,80,FF,C8,00,14,00,
636550179,00000227,false,Rx,1,8,00,00,00,00,00,00,1F,C5,
636550427,00000237,false,Rx,1,8,3E,41,00,00,00,00,00,00,
636550668,00000247,false,Rx,1,8,44,7D,6E,03,00,00,20,00,
636550909,00000717,false,Rx,1,8,0B,00,00,00,00,00,00,00,
636551418,0000021B,false,Rx,1,8,02,C0,7F,FF,9C,02,00,04,
636556006,00000209,false,Rx,1,8,4E,00,00,00,C8,00,14,00,
636556254,00000229,false,Rx,1,8,00,00,00,00,5A,00,1F,C5,
636556502,00000239,false,Rx,1,8,3D,41,00,00,00,00,00,00,
636556734,00000249,false,Rx,1,8,44,7D,6E,03,00,00,20,00,
636556982,00000719,false,Rx,1,8,0A,00,00,00,00,00,00,00,
636559560,00000217,false,Rx,1,8,02,80,80,FE,9C,02,00,04,
636559808,00000507,false,Rx,1,8,2C,00,05,00,00,00,00,40,
636560064,00000377,false,Rx,1,8,00,00,00,00,00,00,00,00,
636565814,00000219,false,Rx,1,8,02,C0,7F,80,9D,02,00,04,
636569681,00000347,false,Rx,1,8,00,00,00,00,00,08,00,00,
636579679,00000357,false,Rx,1,8,00,00,00,00,00,00,18,00,
636589677,00000327,false,Rx,1,8,00,00,00,00,00,00,00,00,
636599676,00000337,false,Rx,1,8,00,00,00,00,00,00,00,00,
636602533,0000042C,false,Rx,1,8,96,60,00,00,20,00,00,00,
636602772,0000043C,false,Rx,1,8,96,60,00,00,20,00,00,00,
636603012,0000044C,false,Rx,1,8,96,60,00,00,20,00,00,00,
636609676,00000367,false,Rx,1,8,00,00,00,00,00,00,00,00,
636612759,0000045C,false,Rx,1,8,00,00,09,3E,00,00,00,00,
636612893,0000010C,false,Rx,1,2,09,00,00,00,00,00,00,00,
636613042,00000547,false,Rx,1,2,09,FF,00,00,00,00,00,00,
636613177,00000549,false,Rx,1,2,09,FF,00,00,00,00,00,00,
636613311,0000054B,false,Rx,1,2,09,FF,00,00,00,00,00,00,
636619686,00000377,false,Rx,1,8,00,00,00,00,00,00,00,00,
636629691,00000347,false,Rx,1,8,00,00,00,00,00,08,00,00,
636639681,00000357,false,Rx,1,8,00,00,00,00,00,00,18,00,
636641623,0000020B,false,Rx,1,8,00,00,C0,FF,C8,00,14,00,
636641862,0000022B,false,Rx,1,8,00,00,00,00,32,00,1F,C5,
636642109,0000023B,false,Rx,1,8,3D,41,00,00,00,00,00,00,
636642350,0000024B,false,Rx,1,8,44,7D,6E,03,00,00,20,00,
636642592,0000071B,false,Rx,1,8,0A,00,00,00,00,00,00,00,
636649677,00000327,false,Rx,1,8,00,00,00,00,00,00,00,00,
636649923,00000207,false,Rx,1,8,01,01,80,FF,C8,00,14,00,
636650171,00000227,false,Rx,1,8,00,00,00,00,01,00,1F,C5,
636650419,00000237,false,Rx,1,8,3E,41,00,00,00,00,00,00,
636650660,00000247,false,Rx,1,8,44,7D,6E,03,00,00,20,00,
636650901,00000717,false,Rx,1,8,0C,01,00,04,04,00,01,00,
636651410,0000021B,false,Rx,1,8,02,C0,7F,FF,9C,02,00,04,
636655900,00000369,false,Rx,1,8,00,00,00,00,00,00,00,00,
636656140,00000209,false,Rx,1,8,47,00,C0,FF,C8,00,14,00,
636656380,00000229,false,Rx,1,8,00,00,00,00,56,00,1F,C5,
636656630,00000239,false,Rx,1,8,3D,41,00,00,00,00,00,00,
636656863,00000249,false,Rx,1,8,44,7D,6E,03,00,00,20,00,
636657111,00000719,false,Rx,1,8,0B,00,00,00,00,00,00,00,
636659557,00000217,false,Rx,1,8,02,C0,80,FE,9C,02,00,04,
636659804,00000337,false,Rx,1,8,00,00,00,00,00,00,00,00,
636665774,00000219,false,Rx,1,8,02,C0,7F,80,9D,02,00,04,
636666021,00000509,false,Rx,1,8,2C,00,05,00,00,00,00,80,
636666269,00000379,false,Rx,1,8,00,00,00,00,00,00,00,00,
636675892,00000349,false,Rx,1,8,00,00,00,00,00,08,00,00,
636685890,00000359,false,Rx,1,8,00,00,00,00,00,00,18,00,
636695888,00000329,false,Rx,1,8,00,00,00,00,00,00,00,00,
636702529,0000042C,false,Rx,1,8,96,60,00,00,20,00,00,00,
636702776,0000043C,false,Rx,1,8,96,60,00,00,20,00,00,00,
636703017,0000044C,false,Rx,1,8,96,60,00,00,20,00,00,00,
636705882,00000339,false,Rx,1,8,00,00,00,00,00,00,00,00,
636712759,0000045C,false,Rx,1,8,00,00,09,3E,00,00,00,00,
636715885,00000369,false,Rx,1,8,00,00,00,00,00,00,00,00,
636725890,00000379,false,Rx,1,8,00,00,00,00,00,00,00,00,
636735902,00000349,false,Rx,1,8,00,00,00,00,00,08,00,00,
636741488,0000036B,false,Rx,1,8,00,00,00,00,00,00,00,00,
636741734,0000020B,false,Rx,1,8,00,00,C0,FF,C8,00,14,00,
636741981,0000022B,false,Rx,1,8,00,00,00,00,1A,00,1F,C5,
636742230,0000023B,false,Rx,1,8,3D,41,00,00,00,00,00,00,
636742471,0000024B,false,Rx,1,8,44,7D,6E,03,00,00,20,00,
636742711,0000071B,false,Rx,1,8,0B,00,00,00,00,00,00,00,
636745887,00000359,false,Rx,1,8,00,00,00,00,00,00,18,00,
636749762,00000207,false,Rx,1,8,00,01,80,FF,C8,00,14,00,
636750002,00000227,false,Rx,1,8,00,00,00,00,03,00,1F,C5,
636750249,00000237,false,Rx,1,8,3E,41,00,00,00,00,00,00,
636750490,00000247,false,Rx,1,8,44,7D,6E,03,00,00,20,00,
636750731,00000717,false,Rx,1,8,0E,00,00,02,A6,04,00,00,
636751369,0000021B,false,Rx,1,8,02,C0,7F,FF,9C,02,00,04,
636751617,0000050B,false,Rx,1,8,2C,00,05,00,00,00,00,C0,
636751866,0000037B,false,Rx,1,8,00,00,00,00,00,00,00,00,
636755885,00000329,false,Rx,1,8,00,00,00,00,00,00,00,00,
636756133,00000209,false,Rx,1,8,40,00,C0,FF,C8,00,14,00,
636756380,00000229,false,Rx,1,8,00,00,00,00,50,00,1F,C5,
636756622,00000239,false,Rx,1,8,3D,41,00,00,00,00,00,00,
636756863,00000249,false,Rx,1,8,44,7D,6E,03,00,00,20,00,
636757103,00000719,false,Rx,1,8,0C,01,00,04,04,00,01,00,
636759535,00000217,false,Rx,1,8,02,C0,80,FE,9C,02,00,04,
636761485,0000034B,false,Rx,1,8,00,00,00,00,00,08,00,00,
636765766,00000219,false,Rx,1,8,02,C0,7F,80,9D,02,00,04,
636766013,00000339,false,Rx,1,8,00,00,00,00,00,00,00,00,
636771477,0000035B,false,Rx,1,8,00,00,00,00,00,00,18,00,
636781481,0000032B,false,Rx,1,8,00,00,00,00,00,00,00,00,
636791478,0000033B,false,Rx,1,8,00,00,00,00,00,00,00,00,
636801475,0000036B,false,Rx,1,8,00,00,00,00,00,00,00,00,
636802532,0000042C,false,Rx,1,8,96,60,00,00,20,00,00,00,
636802773,0000043C,false,Rx,1,8,96,60,00,00,20,00,00,00,
636803013,0000044C,false,Rx,1,8,96,60,00,00,20,00,00,00,
636811478,0000037B,false,Rx,1,8,00,00,00,00,00,00,00,00,
636812768,0000045C,false,Rx,1,8,00,00,09,3E,00,00,00,00,
636812903,0000010C,false,Rx,1,2,0A,00,00,00,00,00,00,00,
636813059,00000549,false,Rx,1,2,0A,FF,00,00,00,00,00,00,
636813193,00000547,false,Rx,1,2,0A,FF,00,00,00,00,00,00,
636813320,0000054B,false,Rx,1,2,0A,FF,00,00,00,00,00,00,
636821501,0000034B,false,Rx,1,8,00,00,00,00,00,08,00,00,
636831483,0000035B,false,Rx,1,8,00,00,00,00,00,00,18,00,
636841480,0000032B,false,Rx,1,8,00,00,00,00,00,00,00,00,
636841726,0000020B,false,Rx,1,8,00,00,C0,FF,C8,00,14,00,
636841967,0000022B,false,Rx,1,8,00,00,00,00,11,00,1F,C5,
636842214,0000023B,false,Rx,1,8,3D,41,00,00,00,00,00,00,
636842454,0000024B,false,Rx,1,8,44,7D,6E,03,00,00,20,00,
636842695,0000071B,false,Rx,1,8,0C,01,00,04,04,00,01,00,
636849717,00000207,false,Rx,1,8,00,01,80,FF,C8,00,14,00,
636849963,00000227,false,Rx,1,8,00,00,00,00,03,00,1F,C5,
636850211,00000237,false,Rx,1,8,3E,41,00,00,00,00,00,00,
636850444,00000247,false,Rx,1,8,44,7D,6E,03,00,00,20,00,
636850685,00000717,false,Rx,1,8,0F,00,EB,01,98,0E,00,00,
636851360,0000021B,false,Rx,1,8,02,C0,7F,FF,9C,02,00,04,
636851610,0000033B,false,Rx,1,8,00,00,00,00,00,00,00,00,
636855925,00000209,false,Rx,1,8,3A,00,C0,FF,C8,00,14,00,
636856164,00000229,false,Rx,1,8,00,00,00,00,4C,00,1F,C5,
636856411,00000239,false,Rx,1,8,3D,41,00,00,00,00,00,00,
636856653,00000249,false,Rx,1,8,44,7D,6E,03,00,00,20,00,
636856893,00000719,false,Rx,1,8,0E,00,00,02,A6,04,00,00,
636859495,00000217,false,Rx,1,8,02,C0,00,FE,9C,02,00,04,
636865742,00000219,false,Rx,1,8,02,C0,7F,80,9D,02,00,04,
636902536,0000042C,false,Rx,1,8,96,60,00,00,20,00,00,00,
636902775,0000043C,false,Rx,1,8,96,60,00,00,20,00,00,00,
636903015,0000044C,false,Rx,1,8,96,60,00,00,20,00,00,00,
636912777,0000045C,false,Rx,1,8,00,00,09,3E,00,00,00,00,
636941546,0000020B,false,Rx,1,8,00,00,C0,FF,C8,00,14,00,
636941793,0000022B,false,Rx,1,8,00,00,00,00,17,00,1F,C5,
636942033,0000023B,false,Rx,1,8,3D,41,00,00,00,00,00,00,
636942273,0000024B,false,Rx,1,8,44,7D,6E,03,00,00,20,00,
636942514,0000071B,false,Rx,1,8,0E,00,00,02,A6,04,00,00,
636949722,00000207,false,Rx,1,8,00,01,C0,FF,C8,00,14,00,
636949968,00000227,false,Rx,1,8,00,00,00,00,00,00,1F,C5,
636950215,00000237,false,Rx,1,8,3E,41,00,00,00,00,00,00,
636950449,00000247,false,Rx,1,8,44,7D,6E,03,00,00,20,00,
636950697,00000717,false,Rx,1,8,10,06,80,FF,03,A0,FF,00,
636951334,0000021B,false,Rx,1,8,02,C0,7F,FF,9C,02,00,04,
636955926,00000209,false,Rx,1,8,35,00,C0,FF,C8,00,14,00,
636956164,00000229,false,Rx,1,8,00,00,00,00,4B,00,1F,C5,
636956413,00000239,false,Rx,1,8,3D,41,00,00,00,00,00,00,
636956654,00000249,false,Rx,1,8,44,7D,6E,03,00,00,20,00,
636956886,00000719,false,Rx,1,8,0F,00,EA,01,DE,0E,00,00,
636959495,00000217,false,Rx,1,8,02,C0,00,FE,9C,02,00,04,
636965710,00000219,false,Rx,1,8,02,C0,7F,80,9D,02,00,04,
637001536,0000042C,false,Rx,1,8,96,60,00,00,20,00,00,00,
637001776,0000043C,false,Rx,1,8,96,60,00,00,20,00,00,00,
637002016,0000044C,false,Rx,1,8,96,60,00,00,20,00,00,00,
637012760,0000045C,false,Rx,1,8,00,00,09,3E,00,00,00,00,
637012894,0000010C,false,Rx,1,2,0B,00,00,00,00,00,00,00,
637013043,0000054B,false,Rx,1,2,0B,FF,00,00,00,00,00,00,
637013184,00000547,false,Rx,1,2,0B,FF,00,00,00,00,00,00,
637013312,00000549,false,Rx,1,2,0B,FF,00,00,00,00,00,00,
637041505,0000020B,false,Rx,1,8,00,00,C0,FF,C8,00,14,00,
637041752,0000022B,false,Rx,1,8,00,00,00,00,24,00,1F,C5,
637041992,0000023B,false,Rx,1,8,3D,41,00,00,00,00,00,00,
637042232,0000024B,false,Rx,1,8,44,7D,6E,03,00,00,20,00,
637042474,0000071B,false,Rx,1,8,0F,00,EB,01,A9,0E,00,00,
637049674,00000207,false,Rx,1,8,00,01,C0,FF,C8,00,14,00,
637049920,00000227,false,Rx,1,8,00,00,00,00,05,00,1F,C5,
637050169,00000237,false,Rx,1,8,3E,41,00,00,00,00,00,00,
637050401,00000247,false,Rx,1,8,44,7D,6E,03,00,00,20,00,
637050650,00000717,false,Rx,1,8,11,00,00,00,00,00,02,02,
637051309,0000021B,false,Rx,1,8,02,C0,FF,FE,9C,02,00,04,
637055917,00000209,false,Rx,1,8,30,00,00,00,C8,00,14,00,
637056156,00000229,false,Rx,1,8,00,00,00,00,3A,00,1F,C5,
637056404,00000239,false,Rx,1,8,3D,41,00,00,00,00,00,00,
637056646,00000249,false,Rx,1,8,44,7D,6E,03,00,00,20,00,
637056878,00000719,false,Rx,1,8,10,FF,0F,B7,00,F0,FF,00,
637059473,00000217,false,Rx,1,8,02,C0,00,FE,9C,02,00,04,
637065709,00000219,false,Rx,1,8,02,C0,7F,80,9D,02,00,04,
637101528,0000042C,false,Rx,1,8,96,60,00,00,21,00,00,00,
637101767,0000043C,false,Rx,1,8,96,60,00,00,21,00,00,00,
637102007,0000044C,false,Rx,1,8,96,60,00,00,21,00,00,00,
637112757,0000045C,false,Rx,1,8,00,00,09,3E,00,00,00,00,
637141513,0000020B,false,Rx,1,8,00,00,C0,FF,C8,00,14,00,
637141759,0000022B,false,Rx,1,8,00,00,00,00,0D,00,1F,C5,
637142006,0000023B,false,Rx,1,8,3D,41,00,00,00,00,00,00,
637142240,0000024B,false,Rx,1,8,44,7D,6E,03,00,00,20,00,
637142481,0000071B,false,Rx,1,8,10,FF,BF,FF,05,00,00,00,
637149671,00000207,false,Rx,1,8,00,01,C0,FF,C8,00,14,00,
637149919,00000227,false,Rx,1,8,00,00,00,00,01,00,1F,C5,
637150166,00000237,false,Rx,1,8,3E,41,00,00,00,00,00,00,
637150406,00000247,false,Rx,1,8,44,7D,6E,03,00,00,20,00,
637150639,00000717,false,Rx,1,8,12,3E,26,00,27,00,15,00,
637151299,0000021B,false,Rx,1,8,02,C0,FF,FE,9C,02,00,04,
637155877,00000209,false,Rx,1,8,2C,00,C0,FF,C8,00,14,00,
637156117,00000229,false,Rx,1,8,00,00,00,00,2C,00,1F,C5,
637156365,00000239,false,Rx,1,8,3D,41,00,00,00,00,00,00,
637156598,00000249,false,Rx,1,8,44,7D,6E,03,00,00,20,00,
637156847,00000719,false,Rx,1,8,11,00,00,00,00,00,02,02,
637159445,00000217,false,Rx,1,8,02,C0,00,FE,9C,02,00,04,
637165684,00000219,false,Rx,1,8,02,C0,7F,80,9D,02,00,04,
637201526,0000042C,false,Rx,1,8,96,60,00,00,21,00,00,00,
637201764,0000043C,false,Rx,1,8,96,60,00,00,21,00,00,00,
637202004,0000044C,false,Rx,1,8,96,60,00,00,21,00,00,00,
637212757,0000045C,false,Rx,1,8,00,00,09,3E,00,00,00,00,
637212892,0000010C,false,Rx,1,2,0C,00,00,00,00,00,00,00,
637213041,00000547,false,Rx,1,2,0C,FF,00,00,00,00,00,00,
637213175,00000549,false,Rx,1,2,0C,FF,00,00,00,00,00,00,
637213308,0000054B,false,Rx,1,2,0C,FF,00,00,00,00,00,00,
637241457,0000020B,false,Rx,1,8,00,00,C0,FF,C8,00,14,00,
637241697,0000022B,false,Rx,1,8,00,00,00,00,1B,00,1F,C5,
637241944,0000023B,false,Rx,1,8,3D,41,00,00,00,00,00,00,
637242185,0000024B,false,Rx,1,8,44,7D,6E,03,00,00,20,00,
637242433,0000071B,false,Rx,1,8,11,00,00,00,00,00,02,02,
637249655,00000207,false,Rx,1,8,00,01,C0,FF,C8,00,14,00,
637249894,00000227,false,Rx,1,8,00,00,00,00,00,00,1F,C5,
637250142,00000237,false,Rx,1,8,3E,41,00,00,00,00,00,00,
637250382,00000247,false,Rx,1,8,44,7D,6E,03,00,00,20,00,
637250631,00000717,false,Rx,1,8,13,00,00,00,00,00,00,00,
637251276,0000021B,false,Rx,1,8,02,C0,FF,FE,9C,02,00,04,
637255866,00000209,false,Rx,1,8,28,00,C0,FF,C8,00,14,00,
637256114,00000229,false,Rx,1,8,00,00,00,00,28,00,1F,C5,
637256361,00000239,false,Rx,1,8,3D,41,00,00,00,00,00,00,
637256594,00000249,false,Rx,1,8,44,7D,6E,03,00,00,20,00,
637256828,00000719,false,Rx,1,8,12,3D,25,00,27,00,15,00,
637259436,00000217,false,Rx,1,8,02,C0,00,FE,9C,02,00,04,
637265659,00000219,false,Rx,1,8,02,C0,7F,80,9D,02,00,04,
637301523,0000042C,false,Rx,1,8,96,60,00,00,21,00,00,00,
637301769,0000043C,false,Rx,1,8,96,60,00,00,21,00,00,00,
637302011,0000044C,false,Rx,1,8,96,60,00,00,21,00,00,00,
637312762,0000045C,false,Rx,1,8,00,00,09,3E,00,00,00,00,
637341462,0000020B,false,Rx,1,8,00,00,C0,FF,C8,00,14,00,
637341702,0000022B,false,Rx,1,8,00,00,00,00,23,00,1F,C5,
637341950,0000023B,false,Rx,1,8,3D,41,00,00,00,00,00,00,
637342190,0000024B,false,Rx,1,8,44,7D,6E,03,00,00,20,00,
637342430,0000071B,false,Rx,1,8,12,3F,28,00,27,00,15,00,
637349609,00000207,false,Rx,1,8,00,00,C0,FF,C8,00,14,00,
637349855,00000227,false,Rx,1,8,00,00,00,00,00,00,1F,C5,
637350102,00000237,false,Rx,1,8,3E,41,00,00,00,00,00,00,
637350342,00000247,false,Rx,1,8,44,7D,6E,03,00,00,20,00,
637350584,00000717,false,Rx,1,8,14,00,00,00,EF,FF,00,00,
637351259,0000021B,false,Rx,1,8,02,C0,FF,FE,9C,02,00,04,
637355851,00000209,false,Rx,1,8,24,00,C0,FF,C8,00,14,00,
637356090,00000229,false,Rx,1,8,00,00,00,00,3A,00,1F,C5,
637356337,00000239,false,Rx,1,8,3D,41,00,00,00,00,00,00,
637356572,00000249,false,Rx,1,8,44,7D,6E,03,00,00,20,00,
637356819,00000719,false,Rx,1,8,13,00,00,00,00,00,00,00,
637359395,00000217,false,Rx,1,8,02,C0,00,FE,9C,02,00,04,
637365648,00000219,false,Rx,1,8,02,C0,7F,80,9D,02,00,04,
637401528,0000042C,false,Rx,1,8,96,60,00,00,21,00,00,00,
637401767,0000043C,false,Rx,1,8,96,60,00,00,21,00,00,00,
637402008,0000044C,false,Rx,1,8,96,60,00,00,21,00,00,00,
637412760,0000045C,false,Rx,1,8,00,00,09,3E,00,00,00,00,
637412894,0000010C,false,Rx,1,2,0D,00,00,00,00,00,00,00,
637413043,0000054B,false,Rx,1,2,0D,FF,00,00,00,00,00,00,
637413184,00000547,false,Rx,1,2,0D,FF,00,00,00,00,00,00,
637413318,00000549,false,Rx,1,2,0D,FF,00,00,00,00,00,00,
637441452,0000020B,false,Rx,1,8,00,00,C0,FF,C8,00,14,00,
637441692,0000022B,false,Rx,1,8,00,00,00,00,11,00,1F,C5,
637441940,0000023B,false,Rx,1,8,3D,41,00,00,00,00,00,00,
637442172,0000024B,false,Rx,1,8,44,7D,6E,03,00,00,20,00,
637442420,0000071B,false,Rx,1,8,13,00,00,00,00,00,00,00,
637449614,00000207,false,Rx,1,8,00,00,C0,FF,C8,00,14,00,
637449860,00000227,false,Rx,1,8,00,00,00,00,03,00,1F,C5,
637450107,00000237,false,Rx,1,8,3E,41,00,00,00,00,00,00,
637450348,00000247,false,Rx,1,8,44,7D,6E,03,00,00,20,00,
637451241,0000021B,false,Rx,1,8,02,C0,FF,FE,9C,02,00,04,
637455816,00000209,false,Rx,1,8,22,00,C0,FF,C8,00,14,00,
637456062,00000229,false,Rx,1,8,00,00,00,00,28,00,1F,C5,
637456309,00000239,false,Rx,1,8,3D,41,00,00,00,00,00,00,
637456544,00000249,false,Rx,1,8,44,7D,6E,03,00,00,20,00,
637456791,00000719,false,Rx,1,8,14,00,00,00,EF,FF,00,00,
637459390,00000217,false,Rx,1,8,02,C0,80,FD,9C,02,00,04,
637465613,00000219,false,Rx,1,8,02,00,00,80,9D,02,00,04,
637500526,0000042C,false,Rx,1,8,96,60,00,00,21,00,00,00,
637500772,0000043C,false,Rx,1,8,96,60,00,00,21,00,00,00,
637501013,0000044C,false,Rx,1,8,96,60,00,00,21,00,00,00,
637501530,0000042C,false,Rx,1,8,96,60,00,00,21,00,00,00,
637501772,0000043C,false,Rx,1,8,96,60,00,00,21,00,00,00,
637502011,0000044C,false,Rx,1,8,96,60,00,00,21,00,00,00,
637512777,0000045C,false,Rx,1,8,00,00,09,3E,00,00,00,00,
637541398,0000020B,false,Rx,1,8,00,00,C0,FF,C8,00,14,00,
637541639,0000022B,false,Rx,1,8,00,00,00,00,18,00,1F,C5,
637541886,0000023B,false,Rx,1,8,3D,41,00,00,00,00,00,00,
637542126,0000024B,false,Rx,1,8,44,7D,6E,03,00,00,20,00,
637542367,0000071B,false,Rx,1,8,14,00,00,00,ED,FF,00,00,
637549469,00000367,false,Rx,1,8,00,00,00,00,00,00,00,00,
637549716,00000207,false,Rx,1,8,00,00,C0,FF,C8,00,14,00,
637549963,00000227,false,Rx,1,8,00,00,00,00,04,00,1F,C5,
637550211,00000237,false,Rx,1,8,3E,41,00,00,00,00,00,00,
637550451,00000247,false,Rx,1,8,44,7D,6E,03,00,00,20,00,
637550692,00000717,false,Rx,1,8,16,00,00,00,00,00,FA,45,
637551195,0000021B,false,Rx,1,8,02,C0,FF,FE,9C,02,00,04,
637555805,00000209,false,Rx,1,8,21,00,C0,FF,C8,00,14,00,
637556051,00000229,false,Rx,1,8,00,00,00,00,29,00,1F,C5,
637556300,00000239,false,Rx,1,8,3D,41,00,00,00,00,00,00,
637556533,00000249,false,Rx,1,8,44,7D,6E,03,00,00,20,00,
637559363,00000217,false,Rx,1,8,02,00,81,FD,9C,02,00,04,
637559611,00000377,false,Rx,1,8,00,00,00,00,00,00,00,00,
637565603,00000219,false,Rx,1,8,02,00,00,80,9D,02,00,04,
637569462,00000347,false,Rx,1,8,00,00,00,00,00,08,00,00,
637579459,00000357,false,Rx,1,8,00,00,00,00,00,00,18,00,
637589456,00000327,false,Rx,1,8,00,00,00,00,00,00,00,00,
637599454,00000337,false,Rx,1,8,00,00,00,00,00,00,00,00,
637601534,0000042C,false,Rx,1,8,96,60,00,00,21,00,00,00,
637601780,0000043C,false,Rx,1,8,96,60,00,00,21,00,00,00,
637602020,0000044C,false,Rx,1,8,96,60,00,00,21,00,00,00,
637612772,0000045C,false,Rx,1,8,00,00,09,3E,00,00,00,00,
637612906,0000010C,false,Rx,1,2,0E,00,00,00,00,00,00,00,
637613056,0000054B,false,Rx,1,2,0E,FF,00,00,00,00,00,00,
637613190,00000547,false,Rx,1,2,0E,FF,00,00,00,00,00,00,
637613324,00000549,false,Rx,1,2,0E,FF,00,00,00,00,00,00,
637641403,0000020B,false,Rx,1,8,00,00,00,00,C8,00,14,00,
637641644,0000022B,false,Rx,1,8,00,00,00,00,22,00,1F,C5,
637641891,0000023B,false,Rx,1,8,3D,41,00,00,00,00,00,00,
637642124,0000024B,false,Rx,1,8,44,7D,6E,03,00,00,20,00,
637649561,00000207,false,Rx,1,8,00,00,C0,FF,C8,00,14,00,
637649807,00000227,false,Rx,1,8,00,00,00,00,03,00,1F,C5,
637650055,00000237,false,Rx,1,8,3E,41,00,00,00,00,00,00,
637650295,00000247,false,Rx,1,8,44,7D,6E,03,00,00,20,00,
637650536,00000717,false,Rx,1,8,17,00,00,C0,03,00,00,00,
637651189,0000021B,false,Rx,1,8,02,C0,FF,FE,9C,02,00,04,
637655682,00000369,false,Rx,1,8,00,00,00,00,00,00,00,00,
637655928,00000209,false,Rx,1,8,20,00,C0,FF,C8,00,14,00,
637656169,00000229,false,Rx,1,8,00,00,00,00,21,00,1F,C5,
637656417,00000239,false,Rx,1,8,3D,41,00,00,00,00,00,00,
637656650,00000249,false,Rx,1,8,44,7D,6E,03,00,00,20,00,
637656891,00000719,false,Rx,1,8,16,00,00,00,00,00,66,46,
637659351,00000217,false,Rx,1,8,02,00,81,FD,9C,02,00,04,
637665591,00000219,false,Rx,1,8,02,00,00,80,9D,02,00,04,
637665837,00000379,false,Rx,1,8,00,00,00,00,00,00,00,00,
637675675,00000349,false,Rx,1,8,00,00,00,00,00,08,00,00,
637685674,00000359,false,Rx,1,8,00,00,00,00,00,00,18,00,
637695685,00000329,false,Rx,1,8,00,00,00,00,00,00,00,00,
637701533,0000042C,false,Rx,1,8,96,60,00,00,21,00,00,00,
637701780,0000043C,false,Rx,1,8,96,60,00,00,21,00,00,00,
637702020,0000044C,false,Rx,1,8,96,60,00,00,21,00,00,00,
637705683,00000339,false,Rx,1,8,00,00,00,00,00,00,00,00,
637712776,0000045C,false,Rx,1,8,00,00,09,3E,00,00,00,00,
637741273,0000036B,false,Rx,1,8,00,00,00,00,00,00,00,00,
637741520,0000020B,false,Rx,1,8,00,00,C0,FF,C8,00,14,00,
637741760,0000022B,false,Rx,1,8,00,00,00,00,29,00,1F,C5,
637742008,0000023B,false,Rx,1,8,3D,41,00,00,00,00,00,00,
637742249,0000024B,false,Rx,1,8,44,7D,6E,03,00,00,20,00,
637742489,0000071B,false,Rx,1,8,16,00,00,00,00,00,DA,45,
637749556,00000207,false,Rx,1,8,00,00,C0,FF,C8,00,14,00,
637749796,00000227,false,Rx,1,8,00,00,00,00,01,00,1F,C5,
637750050,00000237,false,Rx,1,8,3E,41,00,00,00,00,00,00,
637750283,00000247,false,Rx,1,8,44,7D,6E,03,00,00,20,00,
637750534,00000717,false,Rx,1,8,18,00,00,00,00,00,00,00,
637751177,0000021B,false,Rx,1,8,02,C0,FF,FE,9C,02,00,04,
637751426,0000037B,false,Rx,1,8,00,00,00,00,00,00,00,00,
637755766,00000209,false,Rx,1,8,20,00,C0,FF,C8,00,14,00,
637756006,00000229,false,Rx,1,8,00,00,00,00,2A,00,1F,C5,
637756253,00000239,false,Rx,1,8,3D,41,00,00,00,00,00,00,
637756487,00000249,false,Rx,1,8,44,7D,6E,03,00,00,20,00,
637756736,00000719,false,Rx,1,8,17,00,00,40,04,00,E0,00,
637759328,00000217,false,Rx,1,8,02,00,81,FD,9C,02,00,04,
637761278,0000034B,false,Rx,1,8,00,00,00,00,00,08,00,00,
637765564,00000219,false,Rx,1,8,02,00,00,80,9D,02,00,04,
637771268,0000035B,false,Rx,1,8,00,00,00,00,00,00,18,00,
637781273,0000032B,false,Rx,1,8,00,00,00,00,00,00,00,00,
637791271,0000033B,false,Rx,1,8,00,00,00,00,00,00,00,00,
637801540,0000042C,false,Rx,1,8,96,60,00,00,21,00,00,00,
637801779,0000043C,false,Rx,1,8,96,60,00,00,21,00,00,00,
637802020,0000044C,false,Rx,1,8,96,60,00,00,21,00,00,00,
637812770,0000045C,false,Rx,1,8,00,00,09,3E,00,00,00,00,
637812911,0000010C,false,Rx,1,2,0F,00,00,00,00,00,00,00,
637813060,00000549,false,Rx,1,2,0F,FF,00,00,00,00,00,00,
637813194,00000547,false,Rx,1,2,0F,FF,00,00,00,00,00,00,
637813335,0000054B,false,Rx,1,2,0F,FF,00,00,00,00,00,00,
637841346,0000020B,false,Rx,1,8,00,00,C0,FF,C8,00,14,00,
637841593,0000022B,false,Rx,1,8,00,00,00,00,0D,00,1F,C5,
637841841,0000023B,false,Rx,1,8,3D,41,00,00,00,00,00,00,
637842082,0000024B,false,Rx,1,8,44,7D,6E,03,00,00,20,00,
637842322,0000071B,false,Rx,1,8,17,00,00,C0,03,00,50,00,
637849512,00000207,false,Rx,1,8,00,00,C0,FF,C8,00,14,00,
637849752,00000227,false,Rx,1,8,00,00,00,00,00,00,1F,C5,
637850000,00000237,false,Rx,1,8,3E,41,00,00,00,00,00,00,
637850240,00000247,false,Rx,1,8,44,7D,6E,03,00,00,20,00,
637850483,00000717,false,Rx,1,8,19,00,00,00,00,00,00,00,
637851150,0000021B,false,Rx,1,8,02,C0,FF,FE,9C,02,00,04,
637855749,00000209,false,Rx,1,8,20,00,C0,FF,C8,00,14,00,
637855995,00000229,false,Rx,1,8,00,00,00,00,23,00,1F,C5,
637856243,00000239,false,Rx,1,8,3D,41,00,00,00,00,00,00,
637856477,00000249,false,Rx,1,8,44,7D,6E,03,00,00,20,00,
637856725,00000719,false,Rx,1,8,18,00,00,00,00,00,00,00,
637859286,00000217,false,Rx,1,8,02,00,81,FD,9C,02,00,04,
637865548,00000219,false,Rx,1,8,02,00,00,80,9D,02,00,04,
637901535,0000042C,false,Rx,1,8,96,60,00,00,21,00,00,00,
637901783,0000043C,false,Rx,1,8,96,60,00,00,21,00,00,00,
637902023,0000044C,false,Rx,1,8,96,60,00,00,21,00,00,00,
637912779,0000045C,false,Rx,1,8,00,00,09,3E,00,00,00,00,
637941333,0000020B,false,Rx,1,8,00,00,C0,FF,C8,00,14,00,
637941580,0000022B,false,Rx,1,8,00,00,00,00,09,00,1F,C5,
637941828,0000023B,false,Rx,1,8,3D,41,00,00,00,00,00,00,
637942068,0000024B,false,Rx,1,8,44,7D,6E,03,00,00,20,00,
637942316,0000071B,false,Rx,1,8,18,00,00,00,00,00,00,00,
637949501,00000207,false,Rx,1,8,00,00,C0,FF,C8,00,14,00,
637949747,00000227,false,Rx,1,8,00,00,00,00,01,00,1F,C5,
637949994,00000237,false,Rx,1,8,3E,41,00,00,00,00,00,00,
637950235,00000247,false,Rx,1,8,44,7D,6E,03,00,00,20,00,
637950484,00000717,false,Rx,1,8,01,00,00,00,00,00,00,00,
637951129,0000021B,false,Rx,1,8,02,C0,FF,FE,9C,02,00,04,
637955700,00000209,false,Rx,1,8,20,00,C0,FF,C8,00,14,00,
637955938,00000229,false,Rx,1,8,00,00,00,00,1A,00,1F,C5,
637956193,00000239,false,Rx,1,8,3D,41,00,00,00,00,00,00,
637956427,00000249,false,Rx,1,8,44,7D,6E,03,00,00,20,00,
637956675,00000719,false,Rx,1,8,19,00,00,00,00,00,00,00,
637959281,00000217,false,Rx,1,8,02,00,81,FD,9C,02,00,04,
637965498,00000219,false,Rx,1,8,02,00,00,80,9D,02,00,04,
638001537,0000042C,false,Rx,1,8,96,60,00,00,21,00,00,00,
638001785,0000043C,false,Rx,1,8,96,60,00,00,21,00,00,00,
638002025,0000044C,false,Rx,1,8,96,60,00,00,21,00,00,00,
638012775,0000045C,false,Rx,1,8,00,00,09,3E,00,00,00,00,
638012909,0000010C,false,Rx,1,2,10,00,00,00,00,00,00,00,
638013057,00000547,false,Rx,1,2,10,FF,00,00,00,00,00,00,
638013185,00000549,false,Rx,1,2,10,FF,00,00,00,00,00,00,
638013319,0000054B,false,Rx,1,2,10,FF,00,00,00,00,00,00,
638041290,0000020B,false,Rx,1,8,00,00,00,00,C8,00,14,00,
638041530,0000022B,false,Rx,1,8,00,00,00,00,0C,00,1F,C5,
638041778,0000023B,false,Rx,1,8,3D,41,00,00,00,00,00,00,
638042018,0000024B,false,Rx,1,8,44,7D,6E,03,00,00,20,00,
638042265,0000071B,false,Rx,1,8,19,00,00,00,00,00,00,00,
638049480,00000207,false,Rx,1,8,00,00,C0,FF,C8,00,14,00,
638049726,00000227,false,Rx,1,8,00,00,00,00,01,00,1F,C5,
638049973,00000237,false,Rx,1,8,3E,41,00,00,00,00,00,00,
638050207,00000247,false,Rx,1,8,44,7D,6E,03,00,00,20,00,
638050454,00000717,false,Rx,1,8,02,00,00,00,00,00,00,00,
638051078,0000021B,false,Rx,1,8,02,00,80,FE,9C,02,00,04,
638055702,00000209,false,Rx,1,8,20,00,C0,FF,C8,00,14,00,
638055948,00000229,false,Rx,1,8,00,00,00,00,1E,00,1F,C5,
638056197,00000239,false,Rx,1,8,3D,41,00,00,00,00,00,00,
638056429,00000249,false,Rx,1,8,44,7D,6E,03,00,00,20,00,
638056685,00000719,false,Rx,1,8,01,00,00,00,00,00,00,00,
638059263,00000217,false,Rx,1,8,02,00,81,FD,9C,02,00,04,
638065493,00000219,false,Rx,1,8,02,00,00,80,9D,02,00,04,
638101539,0000042C,false,Rx,1,8,96,60,00,00,21,00,00,00,
638101785,0000043C,false,Rx,1,8,96,60,00,00,21,00,00,00,
638102025,0000044C,false,Rx,1,8,96,60,00,00,21,00,00,00,
638112781,0000045C,false,Rx,1,8,00,00,09,3E,00,00,00,00,
638141293,0000020B,false,Rx,1,8,00,00,00,00,C8,00,14,00,
638141535,0000022B,false,Rx,1,8,00,00,00,00,12,00,1F,C5,
638141782,0000023B,false,Rx,1,8,3D,41,00,00,00,00,00,00,
638142022,0000024B,false,Rx,1,8,44,7D,6E,03,00,00,20,00,
638142270,0000071B,false,Rx,1,8,01,00,00,00,00,00,00,00,
638149439,00000207,false,Rx,1,8,00,00,C0,FF,C8,00,14,00,
638149687,00000227,false,Rx,1,8,00,00,00,00,01,00,1F,C5,
638149935,00000237,false,Rx,1,8,3E,41,00,00,00,00,00,00,
638150175,00000247,false,Rx,1,8,44,7D,6E,03,00,00,20,00,
638151090,0000021B,false,Rx,1,8,02,00,80,FE,9C,02,00,04,
638155665,00000209,false,Rx,1,8,20,00,00,00,C8,00,14,00,
638155912,00000229,false,Rx,1,8,00,00,00,00,1E,00,1F,C5,
638156160,00000239,false,Rx,1,8,3D,41,00,00,00,00,00,00,
638156392,00000249,false,Rx,1,8,44,7D,6E,03,00,00,20,00,
638156641,00000719,false,Rx,1,8,02,00,00,00,00,00,00,00,
638159227,00000217,false,Rx,1,8,02,00,81,FD,9C,02,00,04,
638165481,00000219,false,Rx,1,8,02,00,00,80,9D,02,00,04,
638201541,0000042C,false,Rx,1,8,96,60,00,00,21,00,00,00,
638201780,0000043C,false,Rx,1,8,96,60,00,00,21,00,00,00,
638202020,0000044C,false,Rx,1,8,96,60,00,00,21,00,00,00,
638212779,0000045C,false,Rx,1,8,00,00,09,3E,00,00,00,00,
638212907,0000010C,false,Rx,1,2,11,00,00,00,00,00,00,00,
638213056,00000547,false,Rx,1,2,11,FF,00,00,00,00,00,00,
638213183,00000549,false,Rx,1,2,11,FF,00,00,00,00,00,00,
638213317,0000054B,false,Rx,1,2,11,FF,00,00,00,00,00,00,
638241253,0000020B,false,Rx,1,8,00,00,00,00,C8,00,14,00,
638241493,0000022B,false,Rx,1,8,00,00,00,00,1E,00,1F,C5,
638241740,0000023B,false,Rx,1,8,3D,41,00,00,00,00,00,00,
638241980,0000024B,false,Rx,1,8,44,7D,6E,03,00,00,20,00,
638242229,0000071B,false,Rx,1,8,02,00,00,00,00,00,00,00,
638249443,00000207,false,Rx,1,8,00,00,C0,FF,C8,00,14,00,
638249691,00000227,false,Rx,1,8,00,00,00,00,04,00,1F,C5,
638249938,00000237,false,Rx,1,8,3E,41,00,00,00,00,00,00,
638250178,00000247,false,Rx,1,8,44,7D,6E,03,00,00,20,00,
638250425,00000717,false,Rx,1,8,04,00,00,00,00,00,00,00,
638251064,0000021B,false,Rx,1,8,02,00,80,FE,9C,02,00,04,
638255648,00000209,false,Rx,1,8,20,00,C0,FF,C8,00,14,00,
638255896,00000229,false,Rx,1,8,00,00,00,00,0D,00,1F,C5,
638256143,00000239,false,Rx,1,8,3D,41,00,00,00,00,00,00,
638256375,00000249,false,Rx,1,8,44,7D,6E,03,00,00,20,00,
638259222,00000217,false,Rx,1,8,02,00,01,FD,9C,02,00,04,
638265444,00000219,false,Rx,1,8,02,00,00,80,9D,02,00,04,
638301546,0000042C,false,Rx,1,8,96,60,00,00,21,00,00,00,
638301784,0000043C,false,Rx,1,8,96,60,00,00,21,00,00,00,
638302026,0000044C,false,Rx,1,8,96,60,00,00,21,00,00,00,
638312778,0000045C,false,Rx,1,8,00,00,09,3E,00,00,00,00,
638341233,0000020B,false,Rx,1,8,00,00,C0,FF,C8,00,14,00,
638341480,0000022B,false,Rx,1,8,00,00,00,00,07,00,1F,C5,
638341728,0000023B,false,Rx,1,8,3D,41,00,00,00,00,00,00,
638341961,0000024B,false,Rx,1,8,44,7D,6E,03,00,00,20,00,
638349391,00000207,false,Rx,1,8,00,00,C0,FF,C8,00,14,00,
638349633,00000227,false,Rx,1,8,00,00,00,00,00,00,1F,C5,
638349880,00000237,false,Rx,1,8,3E,41,00,00,00,00,00,00,
638350120,00000247,false,Rx,1,8,44,7D,6E,03,00,00,20,00,
638350369,00000717,false,Rx,1,8,05,00,00,00,00,00,00,00,
638351021,0000021B,false,Rx,1,8,02,00,80,FE,9C,02,00,04,
638355642,00000209,false,Rx,1,8,20,00,C0,FF,C8,00,14,00,
638355882,00000229,false,Rx,1,8,00,00,00,00,08,00,1F,C5,
638356130,00000239,false,Rx,1,8,3D,41,00,00,00,00,00,00,
638356370,00000249,false,Rx,1,8,44,7D,6E,03,00,00,20,00,
638356619,00000719,false,Rx,1,8,04,00,00,00,00,00,00,00,
638359181,00000217,false,Rx,1,8,02,00,01,FD,9C,02,00,04,
638365434,00000219,false,Rx,1,8,02,00,00,80,9D,02,00,04,
638401543,0000042C,false,Rx,1,8,96,60,00,00,21,00,00,00,
638401783,0000043C,false,Rx,1,8,96,60,00,00,21,00,00,00,
638402023,0000044C,false,Rx,1,8,96,60,00,00,21,00,00,00,
638412783,0000045C,false,Rx,1,8,00,00,09,3E,00,00,00,00,
638412917,0000010C,false,Rx,1,2,12,00,00,00,00,00,00,00,
638413066,00000547,false,Rx,1,2,12,FF,00,00,00,00,00,00,
638413200,00000549,false,Rx,1,2,12,FF,00,00,00,00,00,00,
638413327,0000054B,false,Rx,1,2,12,FF,00,00,00,00,00,00,
638441224,0000020B,false,Rx,1,8,00,00,C0,FF,C8,00,14,00,
638441471,0000022B,false,Rx,1,8,00,00,00,00,0B,00,1F,C5,
638441720,0000023B,false,Rx,1,8,3D,41,00,00,00,00,00,00,
638441960,0000024B,false,Rx,1,8,44,7D,6E,03,00,00,20,00,
638442207,0000071B,false,Rx,1,8,04,00,00,00,00,00,00,00,
638449379,00000207,false,Rx,1,8,00,00,C0,FF,C8,00,14,00,
638449626,00000227,false,Rx,1,8,00,00,00,00,02,00,1F,C5,
638449874,00000237,false,Rx,1,8,3E,41,00,00,00,00,00,00,
638450114,00000247,false,Rx,1,8,44,7D,6E,03,00,00,20,00,
638450347,00000717,false,Rx,1,8,06,00,BE,45,66,06,00,40,
638451015,0000021B,false,Rx,1,8,02,00,80,FE,9C,02,00,04,
638455602,00000209,false,Rx,1,8,20,00,C0,FF,C8,00,14,00,
638455848,00000229,false,Rx,1,8,00,00,00,00,14,00,1F,C5,
638456095,00000239,false,Rx,1,8,3D,41,00,00,00,00,00,00,
638456329,00000249,false,Rx,1,8,44,7D,6E,03,00,00,20,00,
638456577,00000719,false,Rx,1,8,05,00,00,00,00,00,00,00,
638459184,00000217,false,Rx,1,8,02,00,01,FD,9C,02,00,04,
638465392,00000219,false,Rx,1,8,02,00,00,80,9D,02,00,04,
638501550,0000042C,false,Rx,1,8,96,60,00,00,20,00,00,00,
638501790,0000043C,false,Rx,1,8,96,60,00,00,20,00,00,00,
638502037,0000044C,false,Rx,1,8,96,60,00,00,20,00,00,00,
638512787,0000045C,false,Rx,1,8,00,00,09,3E,00,00,00,00,
638541185,0000020B,false,Rx,1,8,00,00,00,00,C8,00,14,00,
638541431,0000022B,false,Rx,1,8,00,00,00,00,0C,00,1F,C5,
638541681,0000023B,false,Rx,1,8,3D,41,00,00,00,00,00,00,
638541913,0000024B,false,Rx,1,8,44,7D,6E,03,00,00,20,00,
638542161,0000071B,false,Rx,1,8,05,00,00,00,00,00,00,00,
638549261,00000367,false,Rx,1,8,00,00,00,00,00,00,00,00,
638549509,00000207,false,Rx,1,8,00,00,C0,FF,C8,00,14,00,
638549757,00000227,false,Rx,1,8,00,00,00,00,02,00,1F,C5,
638550005,00000237,false,Rx,1,8,3E,41,00,00,00,00,00,00,
638550245,00000247,false,Rx,1,8,44,7D,6E,03,00,00,20,00,
638550488,00000717,false,Rx,1,8,07,00,00,00,02,0A,00,00,
638550975,0000021B,false,Rx,1,8,02,00,80,FE,9C,02,00,04,
638555608,00000209,false,Rx,1,8,20,00,C0,FF,C8,00,14,00,
638555854,00000229,false,Rx,1,8,00,00,00,00,18,00,1F,C5,
638556102,00000239,false,Rx,1,8,3D,41,00,00,00,00,00,00,
638556335,00000249,false,Rx,1,8,44,7D,6E,03,00,00,20,00,
638556569,00000719,false,Rx,1,8,06,00,32,46,66,06,00,40,
638559161,00000217,false,Rx,1,8,02,00,01,FD,9C,02,00,04,
638559409,00000377,false,Rx,1,8,00,00,00,00,00,00,00,00,
638565401,00000219,false,Rx,1,8,02,00,00,80,9D,02,00,04,
638569255,00000347,false,Rx,1,8,00,00,00,00,00,08,00,00,
638579253,00000357,false,Rx,1,8,00,00,00,00,00,00,18,00,
638589251,00000327,false,Rx,1,8,00,00,00,00,00,00,00,00,
638599248,00000337,false,Rx,1,8,00,00,00,00,00,00,00,00,
638601552,0000042C,false,Rx,1,8,96,60,00,00,20,00,00,00,
638601791,0000043C,false,Rx,1,8,96,60,00,00,20,00,00,00,
638602038,0000044C,false,Rx,1,8,96,60,00,00,20,00,00,00,
638612782,0000045C,false,Rx,1,8,00,00,09,3E,00,00,00,00,
638612916,0000010C,false,Rx,1,2,13,00,00,00,00,00,00,00,
638613066,00000549,false,Rx,1,2,13,FF,00,00,00,00,00,00,
638613200,00000547,false,Rx,1,2,13,FF,00,00,00,00,00,00,
638613334,0000054B,false,Rx,1,2,13,FF,00,00,00,00,00,00,
638641192,0000020B,false,Rx,1,8,00,00,00,00,C8,00,14,00,
638641440,0000022B,false,Rx,1,8,00,00,00,00,04,00,1F,C5,
638641682,0000023B,false,Rx,1,8,3D,41,00,00,00,00,00,00,
638641922,0000024B,false,Rx,1,8,44,7D,6E,03,00,00,20,00,
638642155,0000071B,false,Rx,1,8,06,00,2A,46,66,06,00,40,
638649334,00000207,false,Rx,1,8,00,00,C0,FF,C8,00,14,00,
638649574,00000227,false,Rx,1,8,00,00,00,00,03,00,1F,C5,
638649822,00000237,false,Rx,1,8,3E,41,00,00,00,00,00,00,
638650062,00000247,false,Rx,1,8,44,7D,6E,03,00,00,20,00,
638650310,00000717,false,Rx,1,8,08,00,00,00,06,46,00,00,
638650978,0000021B,false,Rx,1,8,02,00,80,FE,9C,02,00,04,
638655480,00000369,false,Rx,1,8,00,00,00,00,00,00,00,00,
638655727,00000209,false,Rx,1,8,20,00,C0,FF,C8,00,14,00,
638655968,00000229,false,Rx,1,8,00,00,00,00,12,00,1F,C5,
638656215,00000239,false,Rx,1,8,3D,41,00,00,00,00,00,00,
638656455,00000249,false,Rx,1,8,44,7D,6E,03,00,00,20,00,
638656696,00000719,false,Rx,1,8,07,00,00,00,02,0A,00,00,
638659119,00000217,false,Rx,1,8,02,00,01,FD,9C,02,00,04,
638665378,00000219,false,Rx,1,8,02,00,00,80,9D,02,00,04,
638665626,00000379,false,Rx,1,8,00,00,00,00,00,00,00,00,
638675479,00000349,false,Rx,1,8,00,00,00,00,00,08,00,00,
638685475,00000359,false,Rx,1,8,00,00,00,00,00,00,18,00,
638695473,00000329,false,Rx,1,8,00,00,00,00,00,00,00,00,
638701549,0000042C,false,Rx,1,8,96,60,00,00,20,00,00,00,
638701795,0000043C,false,Rx,1,8,96,60,00,00,20,00,00,00,
638702036,0000044C,false,Rx,1,8,96,60,00,00,20,00,00,00,
638705472,00000339,false,Rx,1,8,00,00,00,00,00,00,00,00,
638712788,0000045C,false,Rx,1,8,00,00,09,3E,00,00,00,00,
638741063,0000036B,false,Rx,1,8,00,00,00,00,00,00,00,00,
638741310,0000020B,false,Rx,1,8,00,00,00,00,C8,00,14,00,
638741551,0000022B,false,Rx,1,8,00,00,00,00,0C,00,1F,C5,
638741799,0000023B,false,Rx,1,8,3D,41,00,00,00,00,00,00,
638742040,0000024B,false,Rx,1,8,44,7D,6E,03,00,00,20,00,
638742280,0000071B,false,Rx,1,8,07,00,00,00,02,0A,00,00,
638749330,00000207,false,Rx,1,8,00,00,C0,FF,C8,00,14,00,
638749578,00000227,false,Rx,1,8,00,00,00,00,01,00,1F,C5,
638749826,00000237,false,Rx,1,8,3E,41,00,00,00,00,00,00,
638750066,00000247,false,Rx,1,8,44,7D,6E,03,00,00,20,00,
638750299,00000717,false,Rx,1,8,09,00,4A,46,00,00,00,00,
638750952,0000021B,false,Rx,1,8,02,00,80,FE,9C,02,00,04,
638751200,0000037B,false,Rx,1,8,00,00,00,00,00,00,00,00,
638755546,00000209,false,Rx,1,8,20,00,C0,FF,C8,00,14,00,
638755785,00000229,false,Rx,1,8,00,00,00,00,36,00,1F,C5,
638756033,00000239,false,Rx,1,8,3D,41,00,00,00,00,00,00,
638756266,00000249,false,Rx,1,8,44,7D,6E,03,00,00,20,00,
638756507,00000719,false,Rx,1,8,08,00,00,00,36,46,00,00,
638759114,00000217,false,Rx,1,8,02,00,01,FD,9C,02,00,04,
638761056,0000034B,false,Rx,1,8,00,00,00,00,00,08,00,00,
638765335,00000219,false,Rx,1,8,02,00,00,80,9D,02,00,04,
638771048,0000035B,false,Rx,1,8,00,00,00,00,00,00,18,00,
638781053,0000032B,false,Rx,1,8,00,00,00,00,00,00,00,00,
638791051,0000033B,false,Rx,1,8,00,00,00,00,00,00,00,00,
638801548,0000042C,false,Rx,1,8,96,60,00,00,20,00,00,00,
638801794,0000043C,false,Rx,1,8,96,60,00,00,20,00,00,00,
638802035,0000044C,false,Rx,1,8,96,60,00,00,20,00,00,00,
638812791,0000045C,false,Rx,1,8,00,00,09,3E,00,00,00,00,
638812925,0000010C,false,Rx,1,2,14,00,00,00,00,00,00,00,
638813074,00000547,false,Rx,1,2,14,FF,00,00,00,00,00,00,
638813201,00000549,false,Rx,1,2,14,FF,00,00,00,00,00,00,
638813335,0000054B,false,Rx,1,2,14,FF,00,00,00,00,00,00,
638841121,0000020B,false,Rx,1,8,00,00,C0,FF,C8,00,14,00,
638841368,0000022B,false,Rx,1,8,00,00,00,00,05,00,1F,C5,
638841610,0000023B,false,Rx,1,8,3D,41,00,00,00,00,00,00,
638841851,0000024B,false,Rx,1,8,44,7D,6E,03,00,00,20,00,
638842091,0000071B,false,Rx,1,8,08,00,00,00,62,46,00,00,
638849290,00000207,false,Rx,1,8,00,00,C0,FF,C8,00,14,00,
638849539,00000227,false,Rx,1,8,00,00,00,00,04,00,1F,C5,
638849786,00000237,false,Rx,1,8,3E,41,00,00,00,00,00,00,
638850026,00000247,false,Rx,1,8,44,7D,6E,03,00,00,20,00,
638850267,00000717,false,Rx,1,8,0A,00,00,00,00,00,00,00,
638850912,0000021B,false,Rx,1,8,02,00,80,FE,9C,02,00,04,
638855541,00000209,false,Rx,1,8,20,00,C0,FF,C8,00,14,00,
638855781,00000229,false,Rx,1,8,00,00,00,00,1C,00,1F,C5,
638856028,00000239,false,Rx,1,8,3D,41,00,00,00,00,00,00,
638856268,00000249,false,Rx,1,8,44,7D,6E,03,00,00,20,00,
638856510,00000719,false,Rx,1,8,09,00,36,46,00,00,00,00,
638859071,00000217,false,Rx,1,8,02,00,01,FD,9C,02,00,04,
638865338,00000219,false,Rx,1,8,02,00,00,80,9D,02,00,04,
638901550,0000042C,false,Rx,1,8,96,60,00,00,20,00,00,00,
638901797,0000043C,false,Rx,1,8,96,60,00,00,20,00,00,00,
638902037,0000044C,false,Rx,1,8,96,60,00,00,20,00,00,00,
638912795,0000045C,false,Rx,1,8,00,00,09,3E,00,00,00,00,
638941117,0000020B,false,Rx,1,8,00,00,00,00,C8,00,14,00,
638941363,0000022B,false,Rx,1,8,00,00,00,00,0E,00,1F,C5,
638941612,0000023B,false,Rx,1,8,3D,41,00,00,00,00,00,00,
638941845,0000024B,false,Rx,1,8,44,7D,6E,03,00,00,20,00,
638942085,0000071B,false,Rx,1,8,09,00,2A,46,00,00,00,00,
638949277,00000207,false,Rx,1,8,00,00,C0,FF,C8,00,14,00,
638949526,00000227,false,Rx,1,8,00,00,00,00,00,00,1F,C5,
638949773,00000237,false,Rx,1,8,3E,41,00,00,00,00,00,00,
638950013,00000247,false,Rx,1,8,44,7D,6E,03,00,00,20,00,
638950254,00000717,false,Rx,1,8,0B,00,00,00,00,00,00,00,
638950915,0000021B,false,Rx,1,8,02,00,80,FE,9C,02,00,04,
638955499,00000209,false,Rx,1,8,20,00,C0,FF,C8,00,14,00,
638955738,00000229,false,Rx,1,8,00,00,00,00,17,00,1F,C5,
638955993,00000239,false,Rx,1,8,3D,41,00,00,00,00,00,00,
638956225,00000249,false,Rx,1,8,44,7D,6E,03,00,00,20,00,
638956475,00000719,false,Rx,1,8,0A,00,00,00,00,00,00,00,
638959074,00000217,false,Rx,1,8,02,00,01,FD,9C,02,00,04,
638965318,00000219,false,Rx,1,8,02,00,00,80,9D,02,00,04,
639001554,0000042C,false,Rx,1,8,96,60,00,00,20,00,00,00,
639001800,0000043C,false,Rx,1,8,96,60,00,00,20,00,00,00,
639002040,0000044C,false,Rx,1,8,96,60,00,00,20,00,00,00,
639012790,0000045C,false,Rx,1,8,00,00,09,3E,00,00,00,00,
639012924,0000010C,false,Rx,1,2,15,00,00,00,00,00,00,00,
639013074,00000547,false,Rx,1,2,15,FF,00,00,00,00,00,00,
639013200,00000549,false,Rx,1,2,15,FF,00,00,00,00,00,00,
639013334,0000054B,false,Rx,1,2,15,FF,00,00,00,00,00,00,
639041089,0000020B,false,Rx,1,8,00,00,C0,FF,C8,00,14,00,
639041328,0000022B,false,Rx,1,8,00,00,00,00,0E,00,1F,C5,
639041571,0000023B,false,Rx,1,8,3D,41,00,00,00,00,00,00,
639041811,0000024B,false,Rx,1,8,44,7D,6E,03,00,00,20,00,
639042058,0000071B,false,Rx,1,8,0A,00,00,00,00,00,00,00,
639049273,00000207,false,Rx,1,8,00,00,C0,FF,C8,00,14,00,
639049513,00000227,false,Rx,1,8,00,00,00,00,00,00,1F,C5,
639049760,00000237,false,Rx,1,8,3E,41,00,00,00,00,00,00,
639050001,00000247,false,Rx,1,8,44,7D,6E,03,00,00,20,00,
639050241,00000717,false,Rx,1,8,0C,01,00,04,04,00,01,00,
639050895,0000021B,false,Rx,1,8,02,00,80,FE,9C,02,00,04,
639055501,00000209,false,Rx,1,8,20,00,C0,FF,C8,00,14,00,
639055747,00000229,false,Rx,1,8,00,00,00,00,10,00,1F,C5,
639055994,00000239,false,Rx,1,8,3D,41,00,00,00,00,00,00,
639056235,00000249,false,Rx,1,8,44,7D,6E,03,00,00,20,00,
639056476,00000719,false,Rx,1,8,0B,00,00,00,00,00,00,00,
639059052,00000217,false,Rx,1,8,02,00,01,FD,9C,02,00,04,
639065299,00000219,false,Rx,1,8,02,00,00,80,9D,02,00,04,
639101553,0000042C,false,Rx,1,8,96,60,00,00,20,00,00,00,
639101799,0000043C,false,Rx,1,8,96,60,00,00,20,00,00,00,
639102039,0000044C,false,Rx,1,8,96,60,00,00,20,00,00,00,
639112790,0000045C,false,Rx,1,8,00,00,09,3E,00,00,00,00,
639141097,0000020B,false,Rx,1,8,00,00,00,00,C8,00,14,00,
639141337,0000022B,false,Rx,1,8,00,00,00,00,09,00,1F,C5,
639141585,0000023B,false,Rx,1,8,3D,41,00,00,00,00,00,00,
639141825,0000024B,false,Rx,1,8,44,7D,6E,03,00,00,20,00,
639142072,0000071B,false,Rx,1,8,0B,00,00,00,00,00,00,00,
639149212,00000207,false,Rx,1,8,00,00,C0,FF,C8,00,14,00,
639149459,00000227,false,Rx,1,8,00,00,00,00,01,00,1F,C5,
639149707,00000237,false,Rx,1,8,3E,41,00,00,00,00,00,00,
639149948,00000247,false,Rx,1,8,44,7D,6E,03,00,00,20,00,
639150188,00000717,false,Rx,1,8,0E,00,00,02,06,0E,00,00,
639150865,0000021B,false,Rx,1,8,02,00,80,FE,9C,02,00,04,
639155481,00000209,false,Rx,1,8,20,00,C0,FF,C8,00,14,00,
639155720,00000229,false,Rx,1,8,00,00,00,00,0F,00,1F,C5,
639155968,00000239,false,Rx,1,8,3D,41,00,00,00,00,00,00,
639156208,00000249,false,Rx,1,8,44,7D,6E,03,00,00,20,00,
639156448,00000719,false,Rx,1,8,0C,01,00,04,04,00,01,00,
639159004,00000217,false,Rx,1,8,02,00,01,FD,9C,02,00,04,
639165271,00000219,false,Rx,1,8,02,00,00,80,9D,02,00,04,
639201558,0000042C,false,Rx,1,8,96,60,00,00,20,00,00,00,
639201797,0000043C,false,Rx,1,8,96,60,00,00,20,00,00,00,
639202038,0000044C,false,Rx,1,8,96,60,00,00,20,00,00,00,
639212795,0000045C,false,Rx,1,8,00,00,09,3E,00,00,00,00,
639212921,0000010C,false,Rx,1,2,16,00,00,00,00,00,00,00,
639213070,00000547,false,Rx,1,2,16,FF,00,00,00,00,00,00,
639213196,00000549,false,Rx,1,2,16,FF,00,00,00,00,00,00,
639213330,0000054B,false,Rx,1,2,16,FF,00,00,00,00,00,00,
639241055,0000020B,false,Rx,1,8,00,00,C0,FF,C8,00,14,00,
639241295,0000022B,false,Rx,1,8,00,00,00,00,16,00,1F,C5,
639241544,0000023B,false,Rx,1,8,3D,41,00,00,00,00,00,00,
639241784,0000024B,false,Rx,1,8,44,7D,6E,03,00,00,20,00,
639242025,0000071B,false,Rx,1,8,0C,01,00,04,04,00,01,00,
639249207,00000207,false,Rx,1,8,00,00,C0,FF,C8,00,14,00,
639249453,00000227,false,Rx,1,8,00,00,00,00,00,00,1F,C5,
639249703,00000237,false,Rx,1,8,3E,41,00,00,00,00,00,00,
639249943,00000247,false,Rx,1,8,44,7D,6E,03,00,00,20,00,
639250175,00000717,false,Rx,1,8,0F,00,EB,01,77,11,00,00,
639250844,0000021B,false,Rx,1,8,02,00,80,FE,9C,02,00,04,
639255435,00000209,false,Rx,1,8,20,00,00,00,C8,00,14,00,
639255682,00000229,false,Rx,1,8,00,00,00,00,0F,00,1F,C5,
639255931,00000239,false,Rx,1,8,3D,41,00,00,00,00,00,00,
639256163,00000249,false,Rx,1,8,44,7D,6E,03,00,00,20,00,
639256403,00000719,false,Rx,1,8,0E,00,00,02,06,0E,00,00,
639259012,00000217,false,Rx,1,8,02,00,01,FD,9C,02,00,04,
639265227,00000219,false,Rx,1,8,02,00,00,80,9D,02,00,04,
639301561,0000042C,false,Rx,1,8,96,60,00,00,20,00,00,00,
639301800,0000043C,false,Rx,1,8,96,60,00,00,20,00,00,00,
639302041,0000044C,false,Rx,1,8,96,60,00,00,20,00,00,00,
639312793,0000045C,false,Rx,1,8,00,00,09,3E,00,00,00,00,
639341017,0000020B,false,Rx,1,8,00,00,C0,FF,C8,00,14,00,
639341263,0000022B,false,Rx,1,8,00,00,00,00,08,00,1F,C5,
639341505,0000023B,false,Rx,1,8,3D,41,00,00,00,00,00,00,
639341745,0000024B,false,Rx,1,8,44,7D,6E,03,00,00,20,00,
639341986,0000071B,false,Rx,1,8,0E,00,00,02,06,0E,00,00,
639349177,00000207,false,Rx,1,8,00,00,C0,FF,C8,00,14,00,
639349423,00000227,false,Rx,1,8,00,00,00,00,03,00,1F,C5,
639349673,00000237,false,Rx,1,8,3E,41,00,00,00,00,00,00,
639349913,00000247,false,Rx,1,8,44,7D,6E,03,00,00,20,00,
639350145,00000717,false,Rx,1,8,10,09,10,FF,03,90,FF,00,
639350813,0000021B,false,Rx,1,8,02,00,80,FE,9C,02,00,04,
639355442,00000209,false,Rx,1,8,20,00,00,00,C8,00,14,00,
639355683,00000229,false,Rx,1,8,00,00,00,00,0E,00,1F,C5,
639355931,00000239,false,Rx,1,8,3D,41,00,00,00,00,00,00,
639356171,00000249,false,Rx,1,8,44,7D,6E,03,00,00,20,00,
639356404,00000719,false,Rx,1,8,0F,00,EB,01,76,11,00,00,
639358989,00000217,false,Rx,1,8,02,00,01,FD,9C,02,00,04,
639365233,00000219,false,Rx,1,8,02,00,00,80,9D,02,00,04,
639401558,0000042C,false,Rx,1,8,96,60,00,00,20,00,00,00,
639401798,0000043C,false,Rx,1,8,96,60,00,00,20,00,00,00,
639402046,0000044C,false,Rx,1,8,96,60,00,00,20,00,00,00,
639412797,0000045C,false,Rx,1,8,00,00,09,3E,00,00,00,00,
639412924,0000010C,false,Rx,1,2,17,00,00,00,00,00,00,00,
639413080,00000547,false,Rx,1,2,17,FF,00,00,00,00,00,00,
639413215,00000549,false,Rx,1,2,17,FF,00,00,00,00,00,00,
639413342,0000054B,false,Rx,1,2,17,FF,00,00,00,00,00,00,
639441034,0000020B,false,Rx,1,8,00,00,C0,FF,C8,00,14,00,
639441281,0000022B,false,Rx,1,8,00,00,00,00,07,00,1F,C5,
639441522,0000023B,false,Rx,1,8,3D,41,00,00,00,00,00,00,
639441763,0000024B,false,Rx,1,8,44,7D,6E,03,00,00,20,00,
639441995,0000071B,false,Rx,1,8,0F,00,EB,01,69,0E,00,00,
639449156,00000207,false,Rx,1,8,00,00,C0,FF,C8,00,14,00,
639449404,00000227,false,Rx,1,8,00,00,00,00,01,00,1F,C5,
639449652,00000237,false,Rx,1,8,3E,41,00,00,00,00,00,00,
639449885,00000247,false,Rx,1,8,44,7D,6E,03,00,00,20,00,
639450133,00000717,false,Rx,1,8,11,00,00,00,00,00,02,02,
639450809,0000021B,false,Rx,1,8,02,00,80,FE,9C,02,00,04,
639455408,00000209,false,Rx,1,8,20,00,C0,FF,C8,00,14,00,
639455649,00000229,false,Rx,1,8,00,00,00,00,09,00,1F,C5,
639455896,00000239,false,Rx,1,8,3D,41,00,00,00,00,00,00,
639456136,00000249,false,Rx,1,8,44,7D,6E,03,00,00,20,00,
639456369,00000719,false,Rx,1,8,10,00,80,A0,00,F0,FF,00,
639458962,00000217,false,Rx,1,8,02,00,01,FD,9C,02,00,04,
639465215,00000219,false,Rx,1,8,02,00,00,80,9D,02,00,04,
639500558,0000042C,false,Rx,1,8,96,60,00,00,20,00,00,00,
639500805,0000043C,false,Rx,1,8,96,60,00,00,20,00,00,00,
639501045,0000044C,false,Rx,1,8,96,60,00,00,20,00,00,00,
639502568,0000042C,false,Rx,1,8,96,60,00,00,20,00,00,00,
639502811,0000043C,false,Rx,1,8,96,60,00,00,20,00,00,00,
639503052,0000044C,false,Rx,1,8,96,60,00,00,20,00,00,00,
639512797,0000045C,false,Rx,1,8,00,00,09,3E,00,00,00,00,
639540969,0000020B,false,Rx,1,8,00,00,00,00,C8,00,14,00,
639541215,0000022B,false,Rx,1,8,00,00,00,00,0C,00,1F,C5,
639541463,0000023B,false,Rx,1,8,3D,41,00,00,00,00,00,00,
639541697,0000024B,false,Rx,1,8,44,7D,6E,03,00,00,20,00,
639541937,0000071B,false,Rx,1,8,10,00,90,FF,06,00,00,00,
639549043,00000367,false,Rx,1,8,00,00,00,00,00,00,00,00,
639549283,00000207,false,Rx,1,8,00,00,C0,FF,C8,00,14,00,
639549532,00000227,false,Rx,1,8,00,00,00,00,02,00,1F,C5,
639549780,00000237,false,Rx,1,8,3E,41,00,00,00,00,00,00,
639550021,00000247,false,Rx,1,8,44,7D,6E,03,00,00,20,00,
639550260,00000717,false,Rx,1,8,12,3E,29,00,27,00,15,00,
639550780,0000021B,false,Rx,1,8,02,00,80,FE,9C,02,00,04,
639555381,00000209,false,Rx,1,8,20,00,C0,FF,C8,00,14,00,
639555622,00000229,false,Rx,1,8,00,00,00,00,0E,00,1F,C5,
639555869,00000239,false,Rx,1,8,3D,41,00,00,00,00,00,00,
639556110,00000249,false,Rx,1,8,44,7D,6E,03,00,00,20,00,
639556350,00000719,false,Rx,1,8,11,00,00,00,00,00,02,02,
639558936,00000217,false,Rx,1,8,02,00,01,FD,9C,02,00,04,
639559185,00000377,false,Rx,1,8,00,00,00,00,00,00,00,00,
639565185,00000219,false,Rx,1,8,02,00,00,80,9D,02,00,04,
639569037,00000347,false,Rx,1,8,00,00,00,00,00,08,00,00,
639579033,00000357,false,Rx,1,8,00,00,00,00,00,00,18,00,
639589045,00000327,false,Rx,1,8,00,00,00,00,00,00,00,00,
639599026,00000337,false,Rx,1,8,00,00,00,00,00,00,00,00,
639602563,0000042C,false,Rx,1,8,96,60,00,00,20,00,00,00,
639602809,0000043C,false,Rx,1,8,96,60,00,00,20,00,00,00,
639603050,0000044C,false,Rx,1,8,96,60,00,00,20,00,00,00,
639612804,0000045C,false,Rx,1,8,00,00,09,3E,00,00,00,00,
639612932,0000010C,false,Rx,1,2,18,00,00,00,00,00,00,00,
639613080,00000549,false,Rx,1,2,18,FF,00,00,00,00,00,00,
639613214,00000547,false,Rx,1,2,18,FF,00,00,00,00,00,00,
639613348,0000054B,false,Rx,1,2,18,FF,00,00,00,00,00,00,
639640956,0000020B,false,Rx,1,8,00,00,C0,FF,C8,00,14,00,
639641194,0000022B,false,Rx,1,8,00,00,00,00,13,00,1F,C5,
639641443,0000023B,false,Rx,1,8,3D,41,00,00,00,00,00,00,
639641677,0000024B,false,Rx,1,8,44,7D,6E,03,00,00,20,00,
639641924,0000071B,false,Rx,1,8,11,00,00,00,00,00,02,02,
639649102,00000207,false,Rx,1,8,00,00,C0,FF,C8,00,14,00,
639649348,00000227,false,Rx,1,8,00,00,00,00,00,00,1F,C5,
639649597,00000237,false,Rx,1,8,3E,41,00,00,00,00,00,00,
639649838,00000247,false,Rx,1,8,44,7D,6E,03,00,00,20,00,
639650085,00000717,false,Rx,1,8,13,00,00,00,00,00,00,00,
639650761,0000021B,false,Rx,1,8,02,00,80,FE,9C,02,00,04,
639655279,00000369,false,Rx,1,8,00,00,00,00,00,00,00,00,
639655526,00000209,false,Rx,1,8,20,00,C0,FF,C8,00,14,00,
639655766,00000229,false,Rx,1,8,00,00,00,00,0A,00,1F,C5,
639656014,00000239,false,Rx,1,8,3D,41,00,00,00,00,00,00,
639656247,00000249,false,Rx,1,8,44,7D,6E,03,00,00,20,00,
639656488,00000719,false,Rx,1,8,12,40,28,00,27,00,17,00,
639658911,00000217,false,Rx,1,8,02,00,01,FD,9C,02,00,04,
639665171,00000219,false,Rx,1,8,02,00,00,80,9D,02,00,04,
639665425,00000379,false,Rx,1,8,00,00,00,00,00,00,00,00,
639675275,00000349,false,Rx,1,8,00,00,00,00,00,08,00,00,
639685264,00000359,false,Rx,1,8,00,00,00,00,00,00,18,00,
639695271,00000329,false,Rx,1,8,00,00,00,00,00,00,00,00,
639702570,0000042C,false,Rx,1,8,96,60,00,00,20,00,00,00,
639702810,0000043C,false,Rx,1,8,96,60,00,00,20,00,00,00,
639703050,0000044C,false,Rx,1,8,96,60,00,00,20,00,00,00,
639705270,00000339,false,Rx,1,8,00,00,00,00,00,00,00,00,
639712802,0000045C,false,Rx,1,8,00,00,09,3E,00,00,00,00,
639740850,0000036B,false,Rx,1,8,00,00,00,00,00,00,00,00,
639741096,0000020B,false,Rx,1,8,00,00,00,00,C8,00,14,00,
639741345,0000022B,false,Rx,1,8,00,00,00,00,09,00,1F,C5,
639741593,0000023B,false,Rx,1,8,3D,41,00,00,00,00,00,00,
639741826,0000024B,false,Rx,1,8,44,7D,6E,03,00,00,20,00,
639742067,0000071B,false,Rx,1,8,12,40,28,00,27,00,18,00,
639749111,00000207,false,Rx,1,8,00,00,C0,FF,C8,00,14,00,
639749357,00000227,false,Rx,1,8,00,00,00,00,00,00,1F,C5,
639749599,00000237,false,Rx,1,8,3E,41,00,00,00,00,00,00,
639749839,00000247,false,Rx,1,8,44,7D,6E,03,00,00,20,00,
639750087,00000717,false,Rx,1,8,14,00,00,00,00,00,00,00,
639750747,0000021B,false,Rx,1,8,02,00,80,FE,9C,02,00,04,
639750995,0000037B,false,Rx,1,8,00,00,00,00,00,00,00,00,
639755333,00000209,false,Rx,1,8,20,00,00,00,C8,00,14,00,
639755573,00000229,false,Rx,1,8,00,00,00,00,12,00,1F,C5,
639755821,00000239,false,Rx,1,8,3D,41,00,00,00,00,00,00,
639756061,00000249,false,Rx,1,8,44,7D,6E,03,00,00,20,00,
639756308,00000719,false,Rx,1,8,13,00,00,00,00,00,00,00,
639758902,00000217,false,Rx,1,8,02,00,01,FD,9C,02,00,04,
639760850,0000034B,false,Rx,1,8,00,00,00,00,00,08,00,00,
639765137,00000219,false,Rx,1,8,02,00,00,80,9D,02,00,04,
639770840,0000035B,false,Rx,1,8,00,00,00,00,00,00,18,00,
639780845,0000032B,false,Rx,1,8,00,00,00,00,00,00,00,00,
639790843,0000033B,false,Rx,1,8,00,00,00,00,00,00,00,00,
639802572,0000042C,false,Rx,1,8,96,60,00,00,20,00,00,00,
639802810,0000043C,false,Rx,1,8,96,60,00,00,20,00,00,00,
639803050,0000044C,false,Rx,1,8,96,60,00,00,20,00,00,00,
639812805,0000045C,false,Rx,1,8,00,00,09,3E,00,00,00,00,
639812932,0000010C,false,Rx,1,2,19,00,00,00,00,00,00,00,
639813080,00000549,false,Rx,1,2,19,FF,00,00,00,00,00,00,
639813214,00000547,false,Rx,1,2,19,FF,00,00,00,00,00,00,
639813350,0000054B,false,Rx,1,2,19,FF,00,00,00,00,00,00,
639840923,0000020B,false,Rx,1,8,00,00,C0,FF,C8,00,14,00,
639841163,0000022B,false,Rx,1,8,00,00,00,00,10,00,1F,C5,
639841410,0000023B,false,Rx,1,8,3D,41,00,00,00,00,00,00,
639841652,0000024B,false,Rx,1,8,44,7D,6E,03,00,00,20,00,
639841893,0000071B,false,Rx,1,8,13,00,00,00,00,00,00,00,
639849069,00000207,false,Rx,1,8,00,00,C0,FF,C8,00,14,00,
639849315,00000227,false,Rx,1,8,00,00,00,00,03,00,1F,C5,
639849558,00000237,false,Rx,1,8,3E,41,00,00,00,00,00,00,
639849797,00000247,false,Rx,1,8,44,7D,6E,03,00,00,20,00,
639850705,0000021B,false,Rx,1,8,02,00,80,FE,9C,02,00,04,
639855340,00000209,false,Rx,1,8,20,00,00,00,C8,00,14,00,
639855581,00000229,false,Rx,1,8,00,00,00,00,20,00,1F,C5,
639855829,00000239,false,Rx,1,8,3D,41,00,00,00,00,00,00,
639856068,00000249,false,Rx,1,8,44,7D,6E,03,00,00,20,00,
639856316,00000719,false,Rx,1,8,14,00,00,00,07,00,00,00,
639858879,00000217,false,Rx,1,8,02,00,01,FD,9C,02,00,04,
639865132,00000219,false,Rx,1,8,02,00,00,80,9D,02,00,04,
639902564,0000042C,false,Rx,1,8,96,60,00,00,20,00,00,00,
639902810,0000043C,false,Rx,1,8,96,60,00,00,20,00,00,00,
639903050,0000044C,false,Rx,1,8,96,60,00,00,20,00,00,00,
639912812,0000045C,false,Rx,1,8,00,00,09,3E,00,00,00,00,
639940909,0000020B,false,Rx,1,8,00,00,C0,FF,C8,00,14,00,
639941155,0000022B,false,Rx,1,8,00,00,00,00,08,00,1F,C5,
639941402,0000023B,false,Rx,1,8,3D,41,00,00,00,00,00,00,
639941638,0000024B,false,Rx,1,8,44,7D,6E,03,00,00,20,00,
639941886,0000071B,false,Rx,1,8,14,00,00,00,01,00,00,00,
639949048,00000207,false,Rx,1,8,00,00,00,00,C8,00,14,00,
639949295,00000227,false,Rx,1,8,00,00,00,00,01,00,1F,C5,
639949543,00000237,false,Rx,1,8,3E,41,00,00,00,00,00,00,
639949776,00000247,false,Rx,1,8,44,7D,6E,03,00,00,20,00,
639950016,00000717,false,Rx,1,8,16,00,00,00,00,00,2A,46,
639950699,0000021B,false,Rx,1,8,02,00,80,FE,9C,02,00,04,
639955290,00000209,false,Rx,1,8,20,00,C0,FF,C8,00,14,00,
639955532,00000229,false,Rx,1,8,00,00,00,00,09,00,1F,C5,
639955787,00000239,false,Rx,1,8,3D,41,00,00,00,00,00,00,
639956020,00000249,false,Rx,1,8,44,7D,6E,03,00,00,20,00,
639958837,00000217,false,Rx,1,8,02,00,01,FD,9C,02,00,04,
639965105,00000219,false,Rx,1,8,02,00,00,80,9D,02,00,04,
640002571,0000042C,false,Rx,1,8,96,60,00,00,20,00,00,00,
640002810,0000043C,false,Rx,1,8,96,60,00,00,20,00,00,00,
640003051,0000044C,false,Rx,1,8,96,60,00,00,20,00,00,00,
640012796,0000045C,false,Rx,1,8,00,00,09,3E,00,00,00,00,
640012930,0000010C,false,Rx,1,2,1A,00,00,00,00,00,00,00,
640013080,00000549,false,Rx,1,2,1A,FF,00,00,00,00,00,00,
640013207,00000547,false,Rx,1,2,1A,FF,00,00,00,00,00,00,
640013341,0000054B,false,Rx,1,2,1A,FF,00,00,00,00,00,00,
640040853,0000020B,false,Rx,1,8,00,00,C0,FF,C8,00,14,00,
640041099,0000022B,false,Rx,1,8,00,00,00,00,0F,00,1F,C5,
640041346,0000023B,false,Rx,1,8,3D,41,00,00,00,00,00,00,
640041589,0000024B,false,Rx,1,8,44,7D,6E,03,00,00,20,00,
640049061,00000207,false,Rx,1,8,00,00,00,00,C8,00,14,00,
640049301,00000227,false,Rx,1,8,00,00,00,00,00,00,1F,C5,
640049549,00000237,false,Rx,1,8,3E,41,00,00,00,00,00,00,
640049789,00000247,false,Rx,1,8,44,7D,6E,03,00,00,20,00,
640050030,00000717,false,Rx,1,8,17,00,00,40,04,00,00,00,
640050684,0000021B,false,Rx,1,8,02,00,80,FE,9C,02,00,04,
640055274,00000209,false,Rx,1,8,20,00,C0,FF,C8,00,14,00,
640055514,00000229,false,Rx,1,8,00,00,00,00,0B,00,1F,C5,
640055762,00000239,false,Rx,1,8,3D,41,00,00,00,00,00,00,
640056001,00000249,false,Rx,1,8,44,7D,6E,03,00,00,20,00,
640056243,00000719,false,Rx,1,8,16,00,00,00,00,00,4A,46,
640058843,00000217,false,Rx,1,8,02,00,81,FC,9C,02,00,04,
640065064,00000219,false,Rx,1,8,02,00,00,80,9D,02,00,04,
640102568,0000042C,false,Rx,1,8,96,60,00,00,20,00,00,00,
640102814,0000043C,false,Rx,1,8,96,60,00,00,20,00,00,00,
640103055,0000044C,false,Rx,1,8,96,60,00,00,20,00,00,00,
640112802,0000045C,false,Rx,1,8,00,00,09,3E,00,00,00,00,
640140845,0000020B,false,Rx,1,8,00,00,C0,FF,C8,00,14,00,
640141092,0000022B,false,Rx,1,8,00,00,00,00,0C,00,1F,C5,
640141333,0000023B,false,Rx,1,8,3D,41,00,00,00,00,00,00,
640141573,0000024B,false,Rx,1,8,44,7D,6E,03,00,00,20,00,
640141813,0000071B,false,Rx,1,8,16,00,00,00,00,00,E2,45,
640149022,00000207,false,Rx,1,8,00,00,00,00,C8,00,14,00,
640149268,00000227,false,Rx,1,8,00,00,00,00,01,00,1F,C5,
640149517,00000237,false,Rx,1,8,3E,41,00,00,00,00,00,00,
640149758,00000247,false,Rx,1,8,44,7D,6E,03,00,00,20,00,
640150005,00000717,false,Rx,1,8,18,00,00,00,00,00,00,00,
640150636,0000021B,false,Rx,1,8,02,00,80,FE,9C,02,00,04,
640155280,00000209,false,Rx,1,8,20,00,C0,FF,C8,00,14,00,
640155520,00000229,false,Rx,1,8,00,00,00,00,05,00,1F,C5,
640155767,00000239,false,Rx,1,8,3D,41,00,00,00,00,00,00,
640156008,00000249,false,Rx,1,8,44,7D,6E,03,00,00,20,00,
640156248,00000719,false,Rx,1,8,17,00,00,D0,04,00,00,01,
640158796,00000217,false,Rx,1,8,02,00,81,FC,9C,02,00,04,
640165072,00000219,false,Rx,1,8,02,00,00,80,9D,02,00,04,
640202568,0000042C,false,Rx,1,8,96,60,00,00,20,00,00,00,
640202816,0000043C,false,Rx,1,8,96,60,00,00,20,00,00,00,
640203056,0000044C,false,Rx,1,8,96,60,00,00,20,00,00,00,
640212802,0000045C,false,Rx,1,8,00,00,09,3E,00,00,00,00,
640212936,0000010C,false,Rx,1,2,1B,00,00,00,00,00,00,00,
640213093,00000549,false,Rx,1,2,1B,FF,00,00,00,00,00,00,
640213227,00000547,false,Rx,1,2,1B,FF,00,00,00,00,00,00,
640213353,0000054B,false,Rx,1,2,1B,FF,00,00,00,00,00,00,
640240852,0000020B,false,Rx,1,8,00,00,00,00,C8,00,14,00,
640241099,0000022B,false,Rx,1,8,00,00,00,00,0B,00,1F,C5,
640241339,0000023B,false,Rx,1,8,3D,41,00,00,00,00,00,00,
640241580,0000024B,false,Rx,1,8,44,7D,6E,03,00,00,20,00,
640241820,0000071B,false,Rx,1,8,17,00,00,40,04,00,60,00,
640249004,00000207,false,Rx,1,8,00,00,00,00,C8,00,14,00,
640249250,00000227,false,Rx,1,8,00,00,00,00,02,00,1F,C5,
640249498,00000237,false,Rx,1,8,3E,41,00,00,00,00,00,00,
640249739,00000247,false,Rx,1,8,44,7D,6E,03,00,00,20,00,
640249987,00000717,false,Rx,1,8,19,00,00,00,00,00,00,00,
640250633,0000021B,false,Rx,1,8,02,00,80,FE,9C,02,00,04,
640255223,00000209,false,Rx,1,8,20,00,C0,FF,C8,00,14,00,
640255470,00000229,false,Rx,1,8,00,00,00,00,07,00,1F,C5,
640255719,00000239,false,Rx,1,8,3D,41,00,00,00,00,00,00,
640255951,00000249,false,Rx,1,8,44,7D,6E,03,00,00,20,00,
640256199,00000719,false,Rx,1,8,18,00,00,00,00,00,00,00,
640258792,00000217,false,Rx,1,8,02,00,81,FC,9C,02,00,04,
640265029,00000219,false,Rx,1,8,02,00,00,80,9D,02,00,04,
640295127,00000509,false,Rx,1,8,5A,00,02,00,7D,C3,01,80,
640295373,00000369,false,Rx,1,8,00,00,00,00,00,00,00,00,
640302569,0000042C,false,Rx,1,8,96,60,00,00,20,00,00,00,
640302815,0000043C,false,Rx,1,8,96,60,00,00,20,00,00,00,
640303055,0000044C,false,Rx,1,8,96,60,00,00,20,00,00,00,
640305141,00000379,false,Rx,1,8,00,00,00,00,00,00,00,00,
640312800,0000045C,false,Rx,1,8,00,00,09,3E,00,00,00,00,
640315134,00000349,false,Rx,1,8,00,00,00,00,00,08,00,00,
640325139,00000359,false,Rx,1,8,00,00,00,02,00,00,18,00,
640335144,00000329,false,Rx,1,8,00,00,00,00,00,00,00,00,
640340796,0000020B,false,Rx,1,8,00,00,00,00,C8,00,14,00,
640341044,0000022B,false,Rx,1,8,00,00,00,00,03,00,1F,C5,
640341284,0000023B,false,Rx,1,8,3D,41,00,00,00,00,00,00,
640341525,0000024B,false,Rx,1,8,44,7D,6E,03,00,00,20,00,
640341773,0000071B,false,Rx,1,8,18,00,00,00,00,00,00,00,
640345154,00000339,false,Rx,1,8,00,00,00,00,00,00,00,00,
640348978,00000207,false,Rx,1,8,00,00,00,00,C8,00,14,00,
640349224,00000227,false,Rx,1,8,00,00,00,00,00,00,1F,C5,
640349474,00000237,false,Rx,1,8,3E,41,00,00,00,00,00,00,
640349706,00000247,false,Rx,1,8,44,7D,6E,03,00,00,20,00,
640349953,00000717,false,Rx,1,8,01,00,00,00,00,00,00,00,
640350592,0000021B,false,Rx,1,8,02,00,80,FE,9C,02,00,04,
640355250,00000209,false,Rx,1,8,20,00,C0,FF,C8,00,14,00,
640355489,00000229,false,Rx,1,8,00,00,00,00,1A,00,1F,C5,
640355738,00000239,false,Rx,1,8,3D,41,00,00,00,00,00,00,
640355970,00000249,false,Rx,1,8,44,7D,6E,03,00,00,20,00,
640356218,00000719,false,Rx,1,8,19,00,00,00,00,00,00,00,
640358774,00000217,false,Rx,1,8,02,00,81,FC,9C,02,00,04,
640365019,00000219,false,Rx,1,8,02,00,00,80,9D,02,00,04,
640402573,0000042C,false,Rx,1,8,96,60,00,00,20,00,00,00,
640402819,0000043C,false,Rx,1,8,96,60,00,00,20,00,00,00,
640403059,0000044C,false,Rx,1,8,96,60,00,00,20,00,00,00,
640412805,0000045C,false,Rx,1,8,00,00,09,3E,00,00,00,00,
640412939,0000010C,false,Rx,1,2,1C,00,00,00,00,00,00,00,
640413088,00000547,false,Rx,1,2,1C,FF,00,00,00,00,00,00,
640413215,00000549,false,Rx,1,2,1C,FF,00,00,00,00,00,00,
640413349,0000054B,false,Rx,1,2,1C,FF,00,00,00,00,00,00,
640440798,0000020B,false,Rx,1,8,00,00,00,00,C8,00,14,00,
640441044,0000022B,false,Rx,1,8,00,00,00,00,0C,00,1F,C5,
640441291,0000023B,false,Rx,1,8,3D,41,00,00,00,00,00,00,
640441525,0000024B,false,Rx,1,8,44,7D,6E,03,00,00,20,00,
640441774,0000071B,false,Rx,1,8,19,00,00,00,00,00,00,00,
640448943,00000207,false,Rx,1,8,00,00,00,00,C8,00,14,00,
640449182,00000227,false,Rx,1,8,00,00,00,00,00,00,1F,C5,
640449430,00000237,false,Rx,1,8,3E,41,00,00,00,00,00,00,
640449671,00000247,false,Rx,1,8,44,7D,6E,03,00,00,20,00,
640449918,00000717,false,Rx,1,8,02,00,00,00,00,00,00,00,
640450594,0000021B,false,Rx,1,8,02,00,80,FE,9C,02,00,04,
640455207,00000209,false,Rx,1,8,20,00,C0,FF,C8,00,14,00,
640455447,00000229,false,Rx,1,8,00,00,00,00,11,00,1F,C5,
640455697,00000239,false,Rx,1,8,3D,41,00,00,00,00,00,00,
640455937,00000249,false,Rx,1,8,44,7D,6E,03,00,00,20,00,
640456185,00000719,false,Rx,1,8,01,00,00,00,00,00,00,00,
640458733,00000217,false,Rx,1,8,02,00,81,FC,9C,02,00,04,
640465007,00000219,false,Rx,1,8,02,00,00,80,9D,02,00,04,
640502573,0000042C,false,Rx,1,8,96,60,00,00,20,00,00,00,
640502819,0000043C,false,Rx,1,8,96,60,00,00,20,00,00,00,
640503061,0000044C,false,Rx,1,8,96,60,00,00,20,00,00,00,
640512804,0000045C,false,Rx,1,8,00,00,09,3E,00,00,00,00,
640540787,0000020B,false,Rx,1,8,00,00,C0,FF,C8,00,14,00,
640541034,0000022B,false,Rx,1,8,00,00,00,00,0D,00,1F,C5,
640541281,0000023B,false,Rx,1,8,3D,41,00,00,00,00,00,00,
640541516,0000024B,false,Rx,1,8,44,7D,6E,03,00,00,20,00,
640541763,0000071B,false,Rx,1,8,01,00,00,00,00,00,00,00,
640548840,00000367,false,Rx,1,8,00,00,00,00,00,00,00,00,
640549080,00000207,false,Rx,1,8,00,00,C0,FF,C8,00,14,00,
640549327,00000227,false,Rx,1,8,00,00,00,00,02,00,1F,C5,
640549576,00000237,false,Rx,1,8,3E,41,00,00,00,00,00,00,
640549815,00000247,false,Rx,1,8,44,7D,6E,03,00,00,20,00,
640550574,0000021B,false,Rx,1,8,02,00,80,FE,9C,02,00,04,
640555175,00000209,false,Rx,1,8,20,00,C0,FF,C8,00,14,00,
640555422,00000229,false,Rx,1,8,00,00,00,00,0D,00,1F,C5,
640555670,00000239,false,Rx,1,8,3D,41,00,00,00,00,00,00,
640555910,00000249,false,Rx,1,8,44,7D,6E,03,00,00,20,00,
640556151,00000719,false,Rx,1,8,02,00,00,00,00,00,00,00,
640558729,00000217,false,Rx,1,8,02,00,81,FC,9C,02,00,04,
640558984,00000377,false,Rx,1,8,00,00,00,00,00,00,00,00,
640564968,00000219,false,Rx,1,8,02,00,00,80,9D,02,00,04,
640568828,00000347,false,Rx,1,8,00,00,00,00,00,08,00,00,
640578825,00000357,false,Rx,1,8,00,00,00,00,00,00,18,00,
640588830,00000327,false,Rx,1,8,00,00,00,00,00,00,00,00,
640598826,00000337,false,Rx,1,8,00,00,00,00,00,00,00,00,
640602573,0000042C,false,Rx,1,8,96,60,00,00,20,00,00,00,
640602820,0000043C,false,Rx,1,8,96,60,00,00,20,00,00,00,
640603061,0000044C,false,Rx,1,8,96,60,00,00,20,00,00,00,
640612807,0000045C,false,Rx,1,8,00,00,09,3E,00,00,00,00,
640612935,0000010C,false,Rx,1,2,1D,00,00,00,00,00,00,00,
640613084,00000547,false,Rx,1,2,1D,FF,00,00,00,00,00,00,
640613218,00000549,false,Rx,1,2,1D,FF,00,00,00,00,00,00,
640613351,0000054B,false,Rx,1,2,1D,FF,00,00,00,00,00,00,
640640752,0000020B,false,Rx,1,8,00,00,C0,FF,C8,00,14,00,
640640990,0000022B,false,Rx,1,8,00,00,00,00,0A,00,1F,C5,
640641239,0000023B,false,Rx,1,8,3D,41,00,00,00,00,00,00,
640641480,0000024B,false,Rx,1,8,44,7D,6E,03,00,00,20,00,
640641727,0000071B,false,Rx,1,8,02,00,00,00,00,00,00,00,
640648894,00000207,false,Rx,1,8,00,00,C0,FF,C8,00,14,00,
640649142,00000227,false,Rx,1,8,00,00,00,00,03,00,1F,C5,
640649389,00000237,false,Rx,1,8,3E,41,00,00,00,00,00,00,
640649630,00000247,false,Rx,1,8,44,7D,6E,03,00,00,20,00,
640649878,00000717,false,Rx,1,8,04,00,00,00,00,00,00,00,
640650532,0000021B,false,Rx,1,8,02,00,80,FE,9C,02,00,04,
640655069,00000369,false,Rx,1,8,00,00,00,00,00,00,00,00,
640655308,00000209,false,Rx,1,8,20,00,C0,FF,C8,00,14,00,
640655557,00000229,false,Rx,1,8,00,00,00,00,03,00,1F,C5,
640655804,00000239,false,Rx,1,8,3D,41,00,00,00,00,00,00,
640656038,00000249,false,Rx,1,8,44,7D,6E,03,00,00,20,00,
640658706,00000217,false,Rx,1,8,02,00,81,FC,9C,02,00,04,
640664966,00000219,false,Rx,1,8,02,00,00,80,9D,02,00,04,
640665213,00000379,false,Rx,1,8,00,00,00,00,00,00,00,00,
640675063,00000349,false,Rx,1,8,00,00,00,00,00,08,00,00,
640685052,00000359,false,Rx,1,8,00,00,00,02,00,00,18,00,
640695057,00000329,false,Rx,1,8,00,00,00,00,00,00,00,00,
640702575,0000042C,false,Rx,1,8,96,60,00,00,20,00,00,00,
640702822,0000043C,false,Rx,1,8,96,60,00,00,20,00,00,00,
640703062,0000044C,false,Rx,1,8,96,60,00,00,20,00,00,00,
640705059,00000339,false,Rx,1,8,00,00,00,00,00,00,00,00,
640712808,0000045C,false,Rx,1,8,00,00,09,3E,00,00,00,00,
640740631,0000036B,false,Rx,1,8,00,00,00,00,00,00,00,00,
640740877,0000020B,false,Rx,1,8,00,00,C0,FF,C8,00,14,00,
640741119,0000022B,false,Rx,1,8,00,00,00,00,07,00,1F,C5,
640741366,0000023B,false,Rx,1,8,3D,41,00,00,00,00,00,00,
640741607,0000024B,false,Rx,1,8,44,7D,6E,03,00,00,20,00,
640748888,00000207,false,Rx,1,8,00,00,C0,FF,C8,00,14,00,
640749135,00000227,false,Rx,1,8,00,00,00,00,03,00,1F,C5,
640749382,00000237,false,Rx,1,8,3E,41,00,00,00,00,00,00,
640749624,00000247,false,Rx,1,8,44,7D,6E,03,00,00,20,00,
640749871,00000717,false,Rx,1,8,05,00,00,00,00,00,00,00,
640750525,0000021B,false,Rx,1,8,02,00,80,FE,9C,02,00,04,
640750772,0000037B,false,Rx,1,8,00,00,00,00,00,00,00,00,
640755126,00000209,false,Rx,1,8,20,00,C0,FF,C8,00,14,00,
640755373,00000229,false,Rx,1,8,00,00,00,00,07,00,1F,C5,
640755622,00000239,false,Rx,1,8,3D,41,00,00,00,00,00,00,
640755855,00000249,false,Rx,1,8,44,7D,6E,03,00,00,20,00,
640756103,00000719,false,Rx,1,8,04,00,00,00,00,00,00,00,
640758689,00000217,false,Rx,1,8,02,00,81,FC,9C,02,00,04,
640760623,0000034B,false,Rx,1,8,00,00,00,00,00,08,00,00,
640764948,00000219,false,Rx,1,8,02,00,00,80,9D,02,00,04,
640770621,0000035B,false,Rx,1,8,00,00,00,00,00,00,18,00,
640780618,0000032B,false,Rx,1,8,00,00,00,00,00,00,00,00,
640790616,0000033B,false,Rx,1,8,00,00,00,00,00,00,00,00,
640802579,0000042C,false,Rx,1,8,96,60,00,00,20,00,00,00,
640802818,0000043C,false,Rx,1,8,96,60,00,00,20,00,00,00,
640803065,0000044C,false,Rx,1,8,96,60,00,00,20,00,00,00,
640812805,0000045C,false,Rx,1,8,00,00,09,3E,00,00,00,00,
640812939,0000010C,false,Rx,1,2,1E,00,00,00,00,00,00,00,
640813095,00000549,false,Rx,1,2,1E,FF,00,00,00,00,00,00,
640813229,00000547,false,Rx,1,2,1E,FF,00,00,00,00,00,00,
640813364,0000054B,false,Rx,1,2,1E,FF,00,00,00,00,00,00,
640840694,0000020B,false,Rx,1,8,00,00,00,00,C8,00,14,00,
640840941,0000022B,false,Rx,1,8,00,00,00,00,0F,00,1F,C5,
640841189,0000023B,false,Rx,1,8,3D,41,00,00,00,00,00,00,
640841429,0000024B,false,Rx,1,8,44,7D,6E,03,00,00,20,00,
640841678,0000071B,false,Rx,1,8,04,00,00,00,00,00,00,00,
640848875,00000207,false,Rx,1,8,00,00,C0,FF,C8,00,14,00,
640849129,00000227,false,Rx,1,8,00,00,00,00,04,00,1F,C5,
640849378,00000237,false,Rx,1,8,3E,41,00,00,00,00,00,00,
640849611,00000247,false,Rx,1,8,44,7D,6E,03,00,00,20,00,
640849851,00000717,false,Rx,1,8,06,00,32,46,66,06,00,40,
640850497,0000021B,false,Rx,1,8,02,00,80,FE,9C,02,00,04,
640855125,00000209,false,Rx,1,8,20,00,C0,FF,C8,00,14,00,
640855363,00000229,false,Rx,1,8,00,00,00,00,0B,00,1F,C5,
640855613,00000239,false,Rx,1,8,3D,41,00,00,00,00,00,00,
640855846,00000249,false,Rx,1,8,44,7D,6E,03,00,00,20,00,
640856093,00000719,false,Rx,1,8,05,00,00,00,00,00,00,00,
640858672,00000217,false,Rx,1,8,02,00,81,FC,9C,02,00,04,
640864926,00000219,false,Rx,1,8,02,00,00,80,9D,02,00,04,
640902580,0000042C,false,Rx,1,8,96,60,00,00,20,00,00,00,
640902819,0000043C,false,Rx,1,8,96,60,00,00,20,00,00,00,
640903066,0000044C,false,Rx,1,8,96,60,00,00,20,00,00,00,
640912812,0000045C,false,Rx,1,8,00,00,09,3E,00,00,00,00,
640940688,0000020B,false,Rx,1,8,00,00,00,00,C8,00,14,00,
640940928,0000022B,false,Rx,1,8,00,00,00,00,0A,00,1F,C5,
640941176,0000023B,false,Rx,1,8,3D,41,00,00,00,00,00,00,
640941415,0000024B,false,Rx,1,8,44,7D,6E,03,00,00,20,00,
640941657,0000071B,false,Rx,1,8,05,00,00,00,00,00,00,00,
640948856,00000207,false,Rx,1,8,00,00,00,00,C8,00,14,00,
640949095,00000227,false,Rx,1,8,00,00,00,00,0D,00,1F,C5,
640949344,00000237,false,Rx,1,8,3E,41,00,00,00,00,00,00,
640949585,00000247,false,Rx,1,8,44,7D,6E,03,00,00,20,00,
640949832,00000717,false,Rx,1,8,07,00,00,00,02,0A,00,00,
640950485,0000021B,false,Rx,1,8,02,00,80,FE,9C,02,00,04,
640955114,00000209,false,Rx,1,8,20,00,C0,FF,C8,00,14,00,
640955362,00000229,false,Rx,1,8,00,00,00,00,14,00,1F,C5,
640955610,00000239,false,Rx,1,8,3D,41,00,00,00,00,00,00,
640955842,00000249,false,Rx,1,8,44,7D,6E,03,00,00,20,00,
640956082,00000719,false,Rx,1,8,06,00,4A,46,66,06,00,40,
640958624,00000217,false,Rx,1,8,02,00,81,FC,9C,02,00,04,
640964913,00000219,false,Rx,1,8,02,00,00,80,9D,02,00,04,
641002583,0000042C,false,Rx,1,8,96,60,00,00,20,00,00,00,
641002822,0000043C,false,Rx,1,8,96,60,00,00,20,00,00,00,
641003063,0000044C,false,Rx,1,8,96,60,00,00,20,00,00,00,
641012807,0000045C,false,Rx,1,8,00,00,09,3E,00,00,00,00,
641012942,0000010C,false,Rx,1,2,1F,00,00,00,00,00,00,00,
641013098,00000547,false,Rx,1,2,1F,FF,00,00,00,00,00,00,
641013232,00000549,false,Rx,1,2,1F,FF,00,00,00,00,00,00,
641013366,0000054B,false,Rx,1,2,1F,FF,00,00,00,00,00,00,
641040677,0000020B,false,Rx,1,8,00,00,00,00,C8,00,14,00,
641040923,0000022B,false,Rx,1,8,00,00,00,00,0C,00,1F,C5,
641041171,0000023B,false,Rx,1,8,3D,41,00,00,00,00,00,00,
641041404,0000024B,false,Rx,1,8,44,7D,6E,03,00,00,20,00,
641041645,0000071B,false,Rx,1,8,06,00,5E,46,66,06,00,40,
641048850,00000207,false,Rx,1,8,00,00,00,00,C8,00,14,00,
641049097,00000227,false,Rx,1,8,00,00,00,00,02,00,1F,C5,
641049345,00000237,false,Rx,1,8,3E,41,00,00,00,00,00,00,
641049586,00000247,false,Rx,1,8,44,7D,6E,03,00,00,20,00,
641049819,00000717,false,Rx,1,8,08,00,00,00,5A,46,00,00,
641050463,0000021B,false,Rx,1,8,02,00,80,FE,9C,02,00,04,
641055070,00000209,false,Rx,1,8,20,00,C0,FF,C8,00,14,00,
641055318,00000229,false,Rx,1,8,00,00,00,00,07,00,1F,C5,
641055566,00000239,false,Rx,1,8,3D,41,00,00,00,00,00,00,
641055798,00000249,false,Rx,1,8,44,7D,6E,03,00,00,20,00,
641056039,00000719,false,Rx,1,8,07,00,00,00,02,0A,00,00,
641058617,00000217,false,Rx,1,8,02,00,81,FC,9C,02,00,04,
641064861,00000219,false,Rx,1,8,02,00,00,80,9D,02,00,04,
641102581,0000042C,false,Rx,1,8,96,60,00,00,20,00,00,00,
641102821,0000043C,false,Rx,1,8,96,60,00,00,20,00,00,00,
641103068,0000044C,false,Rx,1,8,96,60,00,00,20,00,00,00,
641112808,0000045C,false,Rx,1,8,00,00,09,3E,00,00,00,00,
641140631,0000020B,false,Rx,1,8,00,00,00,00,C8,00,14,00,
641140878,0000022B,false,Rx,1,8,00,00,00,00,0A,00,1F,C5,
641141125,0000023B,false,Rx,1,8,3D,41,00,00,00,00,00,00,
641141358,0000024B,false,Rx,1,8,44,7D,6E,03,00,00,20,00,
641141607,0000071B,false,Rx,1,8,07,00,00,00,02,0A,00,00,
641148820,00000207,false,Rx,1,8,00,00,C0,FF,C8,00,14,00,
641149067,00000227,false,Rx,1,8,00,00,00,00,07,00,1F,C5,
641149315,00000237,false,Rx,1,8,3E,41,00,00,00,00,00,00,
641149556,00000247,false,Rx,1,8,44,7D,6E,03,00,00,20,00,
641149797,00000717,false,Rx,1,8,09,00,16,46,00,00,00,00,
641150419,0000021B,false,Rx,1,8,02,00,80,FE,9C,02,00,04,
641155064,00000209,false,Rx,1,8,20,00,C0,FF,C8,00,14,00,
641155303,00000229,false,Rx,1,8,00,00,00,00,11,00,1F,C5,
641155551,00000239,false,Rx,1,8,3D,41,00,00,00,00,00,00,
641155793,00000249,false,Rx,1,8,44,7D,6E,03,00,00,20,00,
641156032,00000719,false,Rx,1,8,08,00,00,00,0E,46,00,00,
641158604,00000217,false,Rx,1,8,02,00,81,FC,9C,02,00,04,
641164863,00000219,false,Rx,1,8,02,00,00,80,9D,02,00,04,
641202581,0000042C,false,Rx,1,8,96,60,00,00,20,00,00,00,
641202821,0000043C,false,Rx,1,8,96,60,00,00,20,00,00,00,
641203068,0000044C,false,Rx,1,8,96,60,00,00,20,00,00,00,
641212814,0000045C,false,Rx,1,8,00,00,09,3E,00,00,00,00,
641212948,0000010C,false,Rx,1,2,20,00,00,00,00,00,00,00,
641213097,00000547,false,Rx,1,2,20,FF,00,00,00,00,00,00,
641213231,00000549,false,Rx,1,2,20,FF,00,00,00,00,00,00,
641213365,0000054B,false,Rx,1,2,20,FF,00,00,00,00,00,00,
641240629,0000020B,false,Rx,1,8,00,00,00,00,C8,00,14,00,
641240875,0000022B,false,Rx,1,8,00,00,00,00,0C,00,1F,C5,
641241123,0000023B,false,Rx,1,8,3D,41,00,00,00,00,00,00,
641241356,0000024B,false,Rx,1,8,44,7D,6E,03,00,00,20,00,
641241597,0000071B,false,Rx,1,8,08,00,00,00,F2,45,00,00,
641248774,00000207,false,Rx,1,8,00,00,00,00,C8,00,14,00,
641249012,00000227,false,Rx,1,8,00,00,00,00,00,00,1F,C5,
641249260,00000237,false,Rx,1,8,3E,41,00,00,00,00,00,00,
641249502,00000247,false,Rx,1,8,44,7D,6E,03,00,00,20,00,
641249749,00000717,false,Rx,1,8,0A,00,00,00,00,00,00,00,
641250424,0000021B,false,Rx,1,8,02,00,80,FE,9C,02,00,04,
641255024,00000209,false,Rx,1,8,20,00,00,00,C8,00,14,00,
641255270,00000229,false,Rx,1,8,00,00,00,00,06,00,1F,C5,
641255518,00000239,false,Rx,1,8,3D,41,00,00,00,00,00,00,
641255752,00000249,false,Rx,1,8,44,7D,6E,03,00,00,20,00,
641255999,00000719,false,Rx,1,8,09,00,3E,46,00,00,00,00,
641258569,00000217,false,Rx,1,8,02,00,81,FC,9C,02,00,04,
641264846,00000219,false,Rx,1,8,02,00,00,80,9D,02,00,04,
641302584,0000042C,false,Rx,1,8,96,60,00,00,20,00,00,00,
641302823,0000043C,false,Rx,1,8,96,60,00,00,20,00,00,00,
641303070,0000044C,false,Rx,1,8,96,60,00,00,20,00,00,00,
641312810,0000045C,false,Rx,1,8,00,00,09,3E,00,00,00,00,
641340589,0000020B,false,Rx,1,8,00,00,C0,FF,C8,00,14,00,
641340828,0000022B,false,Rx,1,8,00,00,00,00,13,00,1F,C5,
641341076,0000023B,false,Rx,1,8,3D,41,00,00,00,00,00,00,
641341316,0000024B,false,Rx,1,8,44,7D,6E,03,00,00,20,00,
641341557,0000071B,false,Rx,1,8,09,00,F2,45,00,00,00,00,
641348793,00000207,false,Rx,1,8,00,00,00,00,C8,00,14,00,
641349032,00000227,false,Rx,1,8,00,00,00,00,00,00,1F,C5,
641349279,00000237,false,Rx,1,8,3E,41,00,00,00,00,00,00,
641349521,00000247,false,Rx,1,8,44,7D,6E,03,00,00,20,00,
641349769,00000717,false,Rx,1,8,0B,00,00,00,00,00,00,00,
641350406,0000021B,false,Rx,1,8,02,00,80,FE,9C,02,00,04,
641355013,00000209,false,Rx,1,8,20,00,C0,FF,C8,00,14,00,
641355259,00000229,false,Rx,1,8,00,00,00,00,0D,00,1F,C5,
641355502,00000239,false,Rx,1,8,3D,41,00,00,00,00,00,00,
641355742,00000249,false,Rx,1,8,44,7D,6E,03,00,00,20,00,
641355989,00000719,false,Rx,1,8,0A,00,00,00,00,00,00,00,
641358560,00000217,false,Rx,1,8,02,00,81,FC,9C,02,00,04,
641364813,00000219,false,Rx,1,8,02,00,00,80,9D,02,00,04,
641402588,0000042C,false,Rx,1,8,96,60,00,00,20,00,00,00,
641402827,0000043C,false,Rx,1,8,96,60,00,00,20,00,00,00,
641403067,0000044C,false,Rx,1,8,96,60,00,00,20,00,00,00,
641412820,0000045C,false,Rx,1,8,00,00,09,3E,00,00,00,00,
641412947,0000010C,false,Rx,1,2,21,00,00,00,00,00,00,00,
641413104,00000547,false,Rx,1,2,21,FF,00,00,00,00,00,00,
641413238,00000549,false,Rx,1,2,21,FF,00,00,00,00,00,00,
641413372,0000054B,false,Rx,1,2,21,FF,00,00,00,00,00,00,
641440563,0000020B,false,Rx,1,8,00,00,C0,FF,C8,00,14,00,
641440810,0000022B,false,Rx,1,8,00,00,00,00,07,00,1F,C5,
641441050,0000023B,false,Rx,1,8,3D,41,00,00,00,00,00,00,
641441290,0000024B,false,Rx,1,8,44,7D,6E,03,00,00,20,00,
641441540,0000071B,false,Rx,1,8,0A,00,00,00,00,00,00,00,
641448746,00000207,false,Rx,1,8,00,00,00,00,C8,00,14,00,
641448985,00000227,false,Rx,1,8,00,00,00,00,09,00,1F,C5,
641449233,00000237,false,Rx,1,8,3E,41,00,00,00,00,00,00,
641449476,00000247,false,Rx,1,8,44,7D,6E,03,00,00,20,00,
641449715,00000717,false,Rx,1,8,0C,01,00,04,04,00,01,00,
641450360,0000021B,false,Rx,1,8,02,00,80,FE,9C,02,00,04,
641455006,00000209,false,Rx,1,8,20,00,00,00,C8,00,14,00,
641455245,00000229,false,Rx,1,8,00,00,00,00,0B,00,1F,C5,
641455494,00000239,false,Rx,1,8,3D,41,00,00,00,00,00,00,
641455734,00000249,false,Rx,1,8,44,7D,6E,03,00,00,20,00,
641455982,00000719,false,Rx,1,8,0B,00,00,00,00,00,00,00,
641458515,00000217,false,Rx,1,8,02,00,81,FC,9C,02,00,04,
641464806,00000219,false,Rx,1,8,02,00,00,80,9D,02,00,04,
641501584,0000042C,false,Rx,1,8,96,60,00,00,20,00,00,00,
641501830,0000043C,false,Rx,1,8,96,60,00,00,20,00,00,00,
641502070,0000044C,false,Rx,1,8,96,60,00,00,20,00,00,00,
641512804,0000045C,false,Rx,1,8,00,00,09,3E,00,00,00,00,
641540569,0000020B,false,Rx,1,8,00,00,C0,FF,C8,00,14,00,
641540808,0000022B,false,Rx,1,8,00,00,00,00,13,00,1F,C5,
641541055,0000023B,false,Rx,1,8,3D,41,00,00,00,00,00,00,
641541295,0000024B,false,Rx,1,8,44,7D,6E,03,00,00,20,00,
641541537,0000071B,false,Rx,1,8,0B,00,00,00,00,00,00,00,
641548630,00000367,false,Rx,1,8,00,00,00,00,00,00,00,00,
641548876,00000207,false,Rx,1,8,00,00,C0,FF,C8,00,14,00,
641549117,00000227,false,Rx,1,8,00,00,00,00,01,00,1F,C5,
641549372,00000237,false,Rx,1,8,3E,41,00,00,00,00,00,00,
641549606,00000247,false,Rx,1,8,44,7D,6E,03,00,00,20,00,
641549847,00000717,false,Rx,1,8,0E,00,00,02,66,17,00,00,
641550348,0000021B,false,Rx,1,8,02,00,80,FE,9C,02,00,04,
641554967,00000209,false,Rx,1,8,20,00,C0,FF,C8,00,14,00,
641555207,00000229,false,Rx,1,8,00,00,00,00,13,00,1F,C5,
641555454,00000239,false,Rx,1,8,3D,41,00,00,00,00,00,00,
641555687,00000249,false,Rx,1,8,44,7D,6E,03,00,00,20,00,
641555936,00000719,false,Rx,1,8,0C,01,00,04,04,00,01,00,
641558521,00000217,false,Rx,1,8,02,00,81,FC,9C,02,00,04,
641558768,00000377,false,Rx,1,8,00,00,00,00,00,00,00,00,
641564754,00000219,false,Rx,1,8,02,00,00,80,9D,02,00,04,
641568616,00000347,false,Rx,1,8,00,00,00,00,00,08,00,00,
641578621,00000357,false,Rx,1,8,00,00,00,00,00,00,18,00,
641588618,00000327,false,Rx,1,8,00,00,00,00,00,00,00,00,
641598616,00000337,false,Rx,1,8,00,00,00,00,00,00,00,00,
641601577,0000042C,false,Rx,1,8,96,60,00,00,21,00,00,00,
641601815,0000043C,false,Rx,1,8,96,60,00,00,21,00,00,00,
641602056,0000044C,false,Rx,1,8,96,60,00,00,21,00,00,00,
641612808,0000045C,false,Rx,1,8,00,00,09,3E,00,00,00,00,
641612934,0000010C,false,Rx,1,2,22,00,00,00,00,00,00,00,
641613083,00000547,false,Rx,1,2,22,FF,00,00,00,00,00,00,
641613210,00000549,false,Rx,1,2,22,FF,00,00,00,00,00,00,
641613344,0000054B,false,Rx,1,2,22,FF,00,00,00,00,00,00,
641640528,0000020B,false,Rx,1,8,00,00,00,00,C8,00,14,00,
641640767,0000022B,false,Rx,1,8,00,00,00,00,09,00,1F,C5,
641641014,0000023B,false,Rx,1,8,3D,41,00,00,00,00,00,00,
641641255,0000024B,false,Rx,1,8,44,7D,6E,03,00,00,20,00,
641641496,0000071B,false,Rx,1,8,0C,01,00,04,04,00,01,00,
641648725,00000207,false,Rx,1,8,00,00,C0,FF,C8,00,14,00,
641648973,00000227,false,Rx,1,8,00,00,00,00,01,00,1F,C5,
641649220,00000237,false,Rx,1,8,3E,41,00,00,00,00,00,00,
641649460,00000247,false,Rx,1,8,44,7D,6E,03,00,00,20,00,
641649695,00000717,false,Rx,1,8,0F,00,EB,01,6D,11,00,00,
641650308,0000021B,false,Rx,1,8,02,00,80,FE,9C,02,00,04,
641654877,00000369,false,Rx,1,8,00,00,00,00,00,00,00,00,
641655124,00000209,false,Rx,1,8,20,00,C0,FF,C8,00,14,00,
641655372,00000229,false,Rx,1,8,00,00,00,00,06,00,1F,C5,
641655620,00000239,false,Rx,1,8,3D,41,00,00,00,00,00,00,
641655854,00000249,false,Rx,1,8,44,7D,6E,03,00,00,20,00,
641656093,00000719,false,Rx,1,8,0E,00,00,02,66,17,00,00,
641658502,00000217,false,Rx,1,8,02,00,81,FC,9C,02,00,04,
641664763,00000219,false,Rx,1,8,02,00,00,80,9D,02,00,04,
641665011,00000379,false,Rx,1,8,00,00,00,00,00,00,00,00,
641674857,00000349,false,Rx,1,8,00,00,00,00,00,08,00,00,
641684854,00000359,false,Rx,1,8,00,00,00,02,00,00,18,00,
641694860,00000329,false,Rx,1,8,00,00,00,00,00,00,00,00,
641701578,0000042C,false,Rx,1,8,96,60,00,00,21,00,00,00,
641701817,0000043C,false,Rx,1,8,96,60,00,00,21,00,00,00,
641702058,0000044C,false,Rx,1,8,96,60,00,00,21,00,00,00,
641704849,00000339,false,Rx,1,8,00,00,00,00,00,00,00,00,
641712808,0000045C,false,Rx,1,8,00,00,09,3E,00,00,00,00,
641740442,0000036B,false,Rx,1,8,00,00,00,00,00,00,00,00,
641740689,0000020B,false,Rx,1,8,00,00,C0,FF,C8,00,14,00,
641740929,0000022B,false,Rx,1,8,00,00,00,00,0C,00,1F,C5,
641741178,0000023B,false,Rx,1,8,3D,41,00,00,00,00,00,00,
641741418,0000024B,false,Rx,1,8,44,7D,6E,03,00,00,20,00,
641741652,0000071B,false,Rx,1,8,0E,00,00,02,66,17,00,00,
641748673,00000207,false,Rx,1,8,00,00,00,00,C8,00,14,00,
641748920,00000227,false,Rx,1,8,00,00,00,00,02,00,1F,C5,
641749168,00000237,false,Rx,1,8,3E,41,00,00,00,00,00,00,
641749407,00000247,false,Rx,1,8,44,7D,6E,03,00,00,20,00,
641749650,00000717,false,Rx,1,8,10,09,00,FF,03,80,FF,00,
641750317,0000021B,false,Rx,1,8,02,00,80,FE,9C,02,00,04,
641750565,0000037B,false,Rx,1,8,00,00,00,00,00,00,00,00,
641754949,00000209,false,Rx,1,8,20,00,C0,FF,C8,00,14,00,
641755188,00000229,false,Rx,1,8,00,00,00,00,0F,00,1F,C5,
641755435,00000239,false,Rx,1,8,3D,41,00,00,00,00,00,00,
641755671,00000249,false,Rx,1,8,44,7D,6E,03,00,00,20,00,
641755910,00000719,false,Rx,1,8,0F,00,EB,01,AF,11,00,00,
641758458,00000217,false,Rx,1,8,02,00,81,FC,9C,02,00,04,
641760415,0000034B,false,Rx,1,8,00,00,00,00,00,08,00,00,
641764747,00000219,false,Rx,1,8,02,00,00,80,9D,02,00,04,
641770414,0000035B,false,Rx,1,8,00,00,00,00,00,00,18,00,
641780418,0000032B,false,Rx,1,8,00,00,00,00,00,00,00,00,
641790411,0000033B,false,Rx,1,8,00,00,00,00,00,00,00,00,
641801580,0000042C,false,Rx,1,8,96,60,00,00,21,00,00,00,
641801820,0000043C,false,Rx,1,8,96,60,00,00,21,00,00,00,
641802060,0000044C,false,Rx,1,8,96,60,00,00,21,00,00,00,
641812805,0000045C,false,Rx,1,8,00,00,09,3E,00,00,00,00,
641812939,0000010C,false,Rx,1,2,23,00,00,00,00,00,00,00,
641813088,0000054B,false,Rx,1,2,23,FF,00,00,00,00,00,00,
641813215,00000547,false,Rx,1,2,23,FF,00,00,00,00,00,00,
641813349,00000549,false,Rx,1,2,23,FF,00,00,00,00,00,00,
641840506,0000020B,false,Rx,1,8,00,00,C0,FF,C8,00,14,00,
641840752,0000022B,false,Rx,1,8,00,00,00,00,0D,00,1F,C5,
641840993,0000023B,false,Rx,1,8,3D,41,00,00,00,00,00,00,
641841233,0000024B,false,Rx,1,8,44,7D,6E,03,00,00,20,00,
641841474,0000071B,false,Rx,1,8,0F,00,EB,01,3C,11,00,00,
641848674,00000207,false,Rx,1,8,00,00,C0,FF,C8,00,14,00,
641848920,00000227,false,Rx,1,8,00,00,00,00,02,00,1F,C5,
641849175,00000237,false,Rx,1,8,3E,41,00,00,00,00,00,00,
641849409,00000247,false,Rx,1,8,44,7D,6E,03,00,00,20,00,
641849657,00000717,false,Rx,1,8,11,00,00,00,00,00,02,02,
641850287,0000021B,false,Rx,1,8,02,00,80,FE,9C,02,00,04,
641854901,00000209,false,Rx,1,8,20,00,00,00,C8,00,14,00,
641855147,00000229,false,Rx,1,8,00,00,00,00,12,00,1F,C5,
641855394,00000239,false,Rx,1,8,3D,41,00,00,00,00,00,00,
641855629,00000249,false,Rx,1,8,44,7D,6E,03,00,00,20,00,
641855861,00000719,false,Rx,1,8,10,00,50,9E,00,F0,FF,00,
641858453,00000217,false,Rx,1,8,02,00,81,FC,9C,02,00,04,
641864692,00000219,false,Rx,1,8,02,00,00,80,9D,02,00,04,
641901577,0000042C,false,Rx,1,8,96,60,00,00,21,00,00,00,
641901823,0000043C,false,Rx,1,8,96,60,00,00,21,00,00,00,
641902063,0000044C,false,Rx,1,8,96,60,00,00,21,00,00,00,
641912814,0000045C,false,Rx,1,8,00,00,09,3E,00,00,00,00,
641940459,0000020B,false,Rx,1,8,00,00,C0,FF,C8,00,14,00,
641940707,0000022B,false,Rx,1,8,00,00,00,00,09,00,1F,C5,
641940954,0000023B,false,Rx,1,8,3D,41,00,00,00,00,00,00,
641941187,0000024B,false,Rx,1,8,44,7D,6E,03,00,00,20,00,
641941434,0000071B,false,Rx,1,8,10,00,90,FF,06,00,00,00,
641948628,00000207,false,Rx,1,8,00,00,C0,FF,C8,00,14,00,
641948875,00000227,false,Rx,1,8,00,00,00,00,01,00,1F,C5,
641949129,00000237,false,Rx,1,8,3E,41,00,00,00,00,00,00,
641949363,00000247,false,Rx,1,8,44,7D,6E,03,00,00,20,00,
641949604,00000717,false,Rx,1,8,12,40,29,00,27,00,15,00,
641950249,0000021B,false,Rx,1,8,02,00,80,FE,9C,02,00,04,
641954901,00000209,false,Rx,1,8,20,00,C0,FF,C8,00,14,00,
641955147,00000229,false,Rx,1,8,00,00,00,00,07,00,1F,C5,
641955389,00000239,false,Rx,1,8,3D,41,00,00,00,00,00,00,
641955629,00000249,false,Rx,1,8,44,7D,6E,03,00,00,20,00,
641955869,00000719,false,Rx,1,8,11,00,00,00,00,00,02,02,
