Time Stamp,ID,Extended,Dir,Bus,LEN,D1,D2,D3,D4,D5,D6,D7,D8
13103962,0000045C,false,Rx,1,8,00,00,09,3E,00,00,00,00,
13112583,0000042C,false,Rx,1,8,45,60,00,00,20,01,00,00,
13112830,0000043C,false,Rx,1,8,45,60,00,00,20,01,00,00,
13113070,0000044C,false,Rx,1,8,45,60,00,00,20,01,00,00,
13122606,0000042C,false,Rx,1,8,4B,60,00,00,20,00,00,00,
13122845,0000043C,false,Rx,1,8,4B,60,00,00,20,00,00,00,
13123093,0000044C,false,Rx,1,8,4B,60,00,00,20,00,00,00,
13193685,0000042C,false,Rx,1,8,6A,60,00,00,20,00,00,00,
13193926,0000043C,false,Rx,1,8,6A,60,00,00,20,00,00,00,
13194173,0000044C,false,Rx,1,8,6A,60,00,00,20,00,00,00,
13203948,0000045C,false,Rx,1,8,00,00,09,3E,00,00,00,00,
13204082,0000010C,false,Rx,1,2,01,00,00,00,00,00,00,00,
13293684,0000042C,false,Rx,1,8,8E,60,00,00,20,00,00,00,
13293931,0000043C,false,Rx,1,8,8E,60,00,00,20,00,00,00,
13294171,0000044C,false,Rx,1,8,8E,60,00,00,20,00,00,00,
13303917,0000045C,false,Rx,1,8,00,00,09,3E,00,00,00,00,
13393686,0000042C,false,Rx,1,8,96,60,00,00,20,00,00,00,
13393926,0000043C,false,Rx,1,8,96,60,00,00,20,00,00,00,
13394174,0000044C,false,Rx,1,8,96,60,00,00,20,00,00,00,
13403919,0000045C,false,Rx,1,8,00,00,09,3E,00,00,00,00,
13404060,0000010C,false,Rx,1,2,02,00,00,00,00,00,00,00,
13493690,0000042C,false,Rx,1,8,96,60,00,00,20,00,00,00,
13493930,0000043C,false,Rx,1,8,96,60,00,00,20,00,00,00,
13494171,0000044C,false,Rx,1,8,96,60,00,00,20,00,00,00,
13503923,0000045C,false,Rx,1,8,00,00,09,3E,00,00,00,00,
13593693,0000042C,false,Rx,1,8,96,60,00,00,20,00,00,00,
13593934,0000043C,false,Rx,1,8,96,60,00,00,20,00,00,00,
13594173,0000044C,false,Rx,1,8,96,60,00,00,20,00,00,00,
13603949,0000045C,false,Rx,1,8,00,00,09,3E,00,00,00,00,
13604083,0000010C,false,Rx,1,2,03,00,00,00,00,00,00,00,
13693718,0000042C,false,Rx,1,8,96,60,00,00,20,00,00,00,
13693959,0000043C,false,Rx,1,8,96,60,00,00,20,00,00,00,
13694199,0000044C,false,Rx,1,8,96,60,00,00,20,00,00,00,
13703951,0000045C,false,Rx,1,8,00,00,09,3E,00,00,00,00,
13735843,000005E9,false,Rx,1,8,00,3F,05,06,00,00,00,01,
13793718,0000042C,false,Rx,1,8,96,60,00,00,20,00,00,00,
13793958,0000043C,false,Rx,1,8,96,60,00,00,20,00,00,00,
13794205,0000044C,false,Rx,1,8,96,60,00,00,20,00,00,00,
13803951,0000045C,false,Rx,1,8,00,00,09,3E,00,00,00,00,
13804085,0000010C,false,Rx,1,2,04,00,00,00,00,00,00,00,
13857217,00000219,false,Rx,1,8,00,00,80,FC,7D,02,00,04,
13893716,0000042C,false,Rx,1,8,96,60,00,00,20,00,00,00,
13893963,0000043C,false,Rx,1,8,96,60,00,00,20,00,00,00,
13894204,0000044C,false,Rx,1,8,96,60,00,00,20,00,00,00,
13903951,0000045C,false,Rx,1,8,00,00,09,3E,00,00,00,00,
13947469,00000209,false,Rx,1,8,65,00,C0,FF,00,00,04,00,
13947708,00000229,false,Rx,1,8,00,00,00,00,AA,00,1F,C5,
13947958,00000239,false,Rx,1,8,3D,41,00,00,00,00,00,00,
13948198,00000249,false,Rx,1,8,00,7D,6E,03,00,00,20,00,
13948445,00000719,false,Rx,1,8,02,00,00,00,00,00,00,00,
13957226,00000219,false,Rx,1,8,00,00,00,E0,9D,02,00,04,
13957464,00000509,false,Rx,1,8,74,00,96,00,00,00,00,80,
13957712,00000369,false,Rx,1,8,00,00,00,00,00,00,00,00,
13957954,00000509,false,Rx,1,8,75,00,96,00,00,00,00,80,
13967318,00000379,false,Rx,1,8,00,00,00,00,00,00,00,00,
13977316,00000349,false,Rx,1,8,00,00,00,00,00,00,00,00,
13987320,00000359,false,Rx,1,8,00,00,00,00,00,00,18,00,
13993719,0000042C,false,Rx,1,8,96,60,00,00,20,00,00,00,
13993959,0000043C,false,Rx,1,8,96,60,00,00,20,00,00,00,
13994208,0000044C,false,Rx,1,8,96,60,00,00,20,00,00,00,
13997322,00000329,false,Rx,1,8,00,00,00,00,00,00,00,00,
14003953,0000045C,false,Rx,1,8,00,00,09,3E,00,00,00,00,
14004088,0000010C,false,Rx,1,2,05,00,00,00,00,00,00,00,
14004245,00000549,false,Rx,1,2,05,FF,00,00,00,00,00,00,
14007317,00000339,false,Rx,1,8,00,00,00,00,00,00,00,00,
14017316,00000369,false,Rx,1,8,00,00,00,00,00,00,00,00,
14027313,00000379,false,Rx,1,8,00,00,00,00,00,00,00,00,
14037319,00000349,false,Rx,1,8,00,00,00,00,00,00,00,00,
14047308,00000359,false,Rx,1,8,00,00,00,00,00,00,18,00,
14047547,00000209,false,Rx,1,8,76,00,C0,FF,C8,00,14,00,
14047796,00000229,false,Rx,1,8,00,00,00,00,C5,00,1F,C5,
14048037,00000239,false,Rx,1,8,3D,41,00,00,00,00,00,00,
14048277,00000249,false,Rx,1,8,44,7D,6E,03,00,00,20,00,
14057200,00000219,false,Rx,1,8,02,00,80,C5,9D,02,00,04,
14057454,00000329,false,Rx,1,8,00,00,00,00,00,00,00,00,
14067308,00000339,false,Rx,1,8,00,00,00,00,00,00,00,00,
14093719,0000042C,false,Rx,1,8,96,60,00,00,20,00,00,00,
14093961,0000043C,false,Rx,1,8,96,60,00,00,20,00,00,00,
14094208,0000044C,false,Rx,1,8,96,60,00,00,20,00,00,00,
14103956,0000045C,false,Rx,1,8,00,00,09,3E,00,00,00,00,
14147391,00000209,false,Rx,1,8,78,00,C0,FF,C8,00,14,00,
14147631,00000229,false,Rx,1,8,00,00,00,00,A9,00,1F,C5,
14147880,00000239,false,Rx,1,8,3D,41,00,00,00,00,00,00,
14148112,00000249,false,Rx,1,8,44,7D,6E,03,00,00,20,00,
14148359,00000719,false,Rx,1,8,04,00,00,00,00,00,00,00,
14157176,00000219,false,Rx,1,8,02,00,00,AE,9D,02,00,04,
14193724,0000042C,false,Rx,1,8,96,60,00,00,20,00,00,00,
14193964,0000043C,false,Rx,1,8,96,60,00,00,20,00,00,00,
14194204,0000044C,false,Rx,1,8,96,60,00,00,20,00,00,00,
14203948,0000045C,false,Rx,1,8,00,00,09,3E,00,00,00,00,
14204083,0000010C,false,Rx,1,2,06,00,00,00,00,00,00,00,
14204239,00000549,false,Rx,1,2,06,FF,00,00,00,00,00,00,
14247363,00000209,false,Rx,1,8,74,00,C0,FF,C8,00,14,00,
14247603,00000229,false,Rx,1,8,00,00,00,00,9E,00,1F,C5,
14247851,00000239,false,Rx,1,8,3D,41,00,00,00,00,00,00,
14248083,00000249,false,Rx,1,8,44,7D,6E,03,00,00,20,00,
14248332,00000719,false,Rx,1,8,05,00,00,00,00,00,00,00,
14257154,00000219,false,Rx,1,8,02,00,80,98,9D,02,00,04,
14293723,0000042C,false,Rx,1,8,96,60,00,00,20,00,00,00,
14293962,0000043C,false,Rx,1,8,96,60,00,00,20,00,00,00,
14294210,0000044C,false,Rx,1,8,96,60,00,00,20,00,00,00,
14303948,0000045C,false,Rx,1,8,00,00,09,3E,00,00,00,00,
14347334,00000209,false,Rx,1,8,6D,00,C0,FF,C8,00,14,00,
14347580,00000229,false,Rx,1,8,00,00,00,00,99,00,1F,C5,
14347829,00000239,false,Rx,1,8,3D,41,00,00,00,00,00,00,
14348061,00000249,false,Rx,1,8,44,7D,6E,03,00,00,20,00,
14348302,00000719,false,Rx,1,8,06,00,12,46,66,06,00,40,
14357111,00000219,false,Rx,1,8,02,00,00,85,9D,02,00,04,
14393726,0000042C,false,Rx,1,8,96,60,00,00,20,00,00,00,
14393967,0000043C,false,Rx,1,8,96,60,00,00,20,00,00,00,
14394208,0000044C,false,Rx,1,8,96,60,00,00,20,00,00,00,
14403953,0000045C,false,Rx,1,8,00,00,09,3E,00,00,00,00,
14404087,0000010C,false,Rx,1,2,07,00,00,00,00,00,00,00,
14404237,00000549,false,Rx,1,2,07,FF,00,00,00,00,00,00,
14447321,00000209,false,Rx,1,8,65,00,C0,FF,C8,00,14,00,
14447567,00000229,false,Rx,1,8,00,00,00,00,72,00,1F,C5,
14447815,00000239,false,Rx,1,8,3D,41,00,00,00,00,00,00,
14448051,00000249,false,Rx,1,8,44,7D,6E,03,00,00,20,00,
14448298,00000719,false,Rx,1,8,07,00,00,00,02,0A,00,00,
14457124,00000219,false,Rx,1,8,02,00,00,80,9D,02,00,04,
14493728,0000042C,false,Rx,1,8,96,60,00,00,20,00,00,00,
14493968,0000043C,false,Rx,1,8,96,60,00,00,20,00,00,00,
14494209,0000044C,false,Rx,1,8,96,60,00,00,20,00,00,00,
14503953,0000045C,false,Rx,1,8,00,00,09,3E,00,00,00,00,
14547290,00000209,false,Rx,1,8,5D,00,C0,FF,C8,00,14,00,
14547529,00000229,false,Rx,1,8,00,00,00,00,6A,00,1F,C5,
14547778,00000239,false,Rx,1,8,3D,41,00,00,00,00,00,00,
14548019,00000249,false,Rx,1,8,44,7D,6E,03,00,00,20,00,
14548259,00000719,false,Rx,1,8,08,00,00,00,2E,46,00,00,
14557097,00000219,false,Rx,1,8,02,00,00,80,9D,02,00,04,
14593725,0000042C,false,Rx,1,8,96,60,00,00,20,00,00,00,
14593966,0000043C,false,Rx,1,8,96,60,00,00,20,00,00,00,
14594213,0000044C,false,Rx,1,8,96,60,00,00,20,00,00,00,
14603959,0000045C,false,Rx,1,8,00,00,09,3E,00,00,00,00,
14604093,0000010C,false,Rx,1,2,08,00,00,00,00,00,00,00,
14604242,00000549,false,Rx,1,2,08,FF,00,00,00,00,00,00,
14647260,00000209,false,Rx,1,8,55,00,C0,FF,C8,00,14,00,
14647499,00000229,false,Rx,1,8,00,00,00,00,64,00,1F,C5,
14647748,00000239,false,Rx,1,8,3D,41,00,00,00,00,00,00,
14647982,00000249,false,Rx,1,8,44,7D,6E,03,00,00,20,00,
14648222,00000719,false,Rx,1,8,09,00,26,46,00,00,00,00,
14657068,00000219,false,Rx,1,8,02,00,00,80,9D,02,00,04,
14693724,0000042C,false,Rx,1,8,96,60,00,00,20,00,00,00,
14693971,0000043C,false,Rx,1,8,96,60,00,00,20,00,00,00,
14694211,0000044C,false,Rx,1,8,96,60,00,00,20,00,00,00,
14703956,0000045C,false,Rx,1,8,00,00,09,3E,00,00,00,00,
14747270,00000209,false,Rx,1,8,4E,00,C0,FF,C8,00,14,00,
14747510,00000229,false,Rx,1,8,00,00,00,00,61,00,1F,C5,
14747757,00000239,false,Rx,1,8,3D,41,00,00,00,00,00,00,
14747992,00000249,false,Rx,1,8,44,7D,6E,03,00,00,20,00,
14748241,00000719,false,Rx,1,8,0A,00,00,00,00,00,00,00,
14757064,00000219,false,Rx,1,8,02,00,00,80,9D,02,00,04,
14793732,0000042C,false,Rx,1,8,96,60,00,00,20,00,00,00,
14793972,0000043C,false,Rx,1,8,96,60,00,00,20,00,00,00,
14794211,0000044C,false,Rx,1,8,96,60,00,00,20,00,00,00,
14803958,0000045C,false,Rx,1,8,00,00,09,3E,00,00,00,00,
14804092,0000010C,false,Rx,1,2,09,00,00,00,00,00,00,00,
14804249,00000549,false,Rx,1,2,09,FF,00,00,00,00,00,00,
14847142,00000369,false,Rx,1,8,00,00,00,00,00,00,00,00,
14847382,00000209,false,Rx,1,8,47,00,C0,FF,C8,00,14,00,
14847629,00000229,false,Rx,1,8,00,00,00,00,5A,00,1F,C5,
14847878,00000239,false,Rx,1,8,3D,41,00,00,00,00,00,00,
14848111,00000249,false,Rx,1,8,44,7D,6E,03,00,00,20,00,
14848358,00000719,false,Rx,1,8,0B,00,00,00,00,00,00,00,
14857019,00000219,false,Rx,1,8,02,00,00,80,9D,02,00,04,
14857266,00000509,false,Rx,1,8,2C,00,05,00,00,00,00,80,
14857514,00000379,false,Rx,1,8,00,00,00,00,00,00,00,00,
14867137,00000349,false,Rx,1,8,00,00,00,00,00,08,00,00,
14877134,00000359,false,Rx,1,8,00,00,00,00,00,00,18,00,
14887132,00000329,false,Rx,1,8,00,00,00,00,00,00,00,00,
14893728,0000042C,false,Rx,1,8,96,60,00,00,20,00,00,00,
14893968,0000043C,false,Rx,1,8,96,60,00,00,20,00,00,00,
14894209,0000044C,false,Rx,1,8,96,60,00,00,20,00,00,00,
14897128,00000339,false,Rx,1,8,00,00,00,00,00,00,00,00,
14903961,0000045C,false,Rx,1,8,00,00,09,3E,00,00,00,00,
14907127,00000369,false,Rx,1,8,00,00,00,00,00,00,00,00,
14917139,00000379,false,Rx,1,8,00,00,00,00,00,00,00,00,
14927153,00000349,false,Rx,1,8,00,00,00,00,00,08,00,00,
14937142,00000359,false,Rx,1,8,00,00,00,00,00,00,18,00,
14947130,00000329,false,Rx,1,8,00,00,00,00,00,00,00,00,
14947377,00000209,false,Rx,1,8,40,00,C0,FF,C8,00,14,00,
14947624,00000229,false,Rx,1,8,00,00,00,00,40,00,1F,C5,
14947872,00000239,false,Rx,1,8,3D,41,00,00,00,00,00,00,
14948106,00000249,false,Rx,1,8,44,7D,6E,03,00,00,20,00,
14948346,00000719,false,Rx,1,8,0C,01,00,04,04,00,01,00,
14957015,00000219,false,Rx,1,8,02,00,00,80,9D,02,00,04,
14957263,00000339,false,Rx,1,8,00,00,00,00,00,00,00,00,
14993731,0000042C,false,Rx,1,8,96,60,00,00,20,00,00,00,
14993972,0000043C,false,Rx,1,8,96,60,00,00,20,00,00,00,
14994212,0000044C,false,Rx,1,8,96,60,00,00,20,00,00,00,
15003964,0000045C,false,Rx,1,8,00,00,09,3E,00,00,00,00,
15004098,0000010C,false,Rx,1,2,0A,00,00,00,00,00,00,00,
15004255,00000549,false,Rx,1,2,0A,FF,00,00,00,00,00,00,
15047193,00000209,false,Rx,1,8,3A,00,C0,FF,C8,00,14,00,
15047439,00000229,false,Rx,1,8,00,00,00,00,47,00,1F,C5,
15047686,00000239,false,Rx,1,8,3D,41,00,00,00,00,00,00,
15047922,00000249,false,Rx,1,8,44,7D,6E,03,00,00,20,00,
15048162,00000719,false,Rx,1,8,0E,00,00,02,A6,04,00,00,
15056987,00000219,false,Rx,1,8,02,00,00,80,9D,02,00,04,
15093733,0000042C,false,Rx,1,8,96,60,00,00,20,00,00,00,
15093974,0000043C,false,Rx,1,8,96,60,00,00,20,00,00,00,
15094214,0000044C,false,Rx,1,8,96,60,00,00,20,00,00,00,
15103974,0000045C,false,Rx,1,8,00,00,09,3E,00,00,00,00,
15147151,00000209,false,Rx,1,8,35,00,00,00,C8,00,14,00,
15147398,00000229,false,Rx,1,8,00,00,00,00,44,00,1F,C5,
15147646,00000239,false,Rx,1,8,3D,41,00,00,00,00,00,00,
15147880,00000249,false,Rx,1,8,44,7D,6E,03,00,00,20,00,
15148112,00000719,false,Rx,1,8,0F,00,EA,01,DB,0E,00,00,
15156959,00000219,false,Rx,1,8,02,00,00,80,9D,02,00,04,
15192730,0000042C,false,Rx,1,8,96,60,00,00,20,00,00,00,
15192971,0000043C,false,Rx,1,8,96,60,00,00,20,00,00,00,
15193219,0000044C,false,Rx,1,8,96,60,00,00,20,00,00,00,
15203954,0000045C,false,Rx,1,8,00,00,09,3E,00,00,00,00,
15204088,0000010C,false,Rx,1,2,0B,00,00,00,00,00,00,00,
15204237,00000549,false,Rx,1,2,0B,FF,00,00,00,00,00,00,
15247182,00000209,false,Rx,1,8,30,00,C0,FF,C8,00,14,00,
15247422,00000229,false,Rx,1,8,00,00,00,00,3A,00,1F,C5,
15247669,00000239,false,Rx,1,8,3D,41,00,00,00,00,00,00,
15247903,00000249,false,Rx,1,8,44,7D,6E,03,00,00,20,00,
15248143,00000719,false,Rx,1,8,10,01,00,B7,00,E0,FF,00,
15256951,00000219,false,Rx,1,8,02,00,00,80,9D,02,00,04,
15292724,0000042C,false,Rx,1,8,96,60,00,00,21,00,00,00,
15292964,0000043C,false,Rx,1,8,96,60,00,00,21,00,00,00,
15293204,0000044C,false,Rx,1,8,96,60,00,00,21,00,00,00,
15303953,0000045C,false,Rx,1,8,00,00,09,3E,00,00,00,00,
15347114,00000209,false,Rx,1,8,2C,00,C0,FF,C8,00,14,00,
15347361,00000229,false,Rx,1,8,00,00,00,00,33,00,1F,C5,
15347608,00000239,false,Rx,1,8,3D,41,00,00,00,00,00,00,
15347842,00000249,false,Rx,1,8,44,7D,6E,03,00,00,20,00,
15348091,00000719,false,Rx,1,8,11,00,00,00,00,00,02,02,
15356930,00000219,false,Rx,1,8,02,00,00,80,9D,02,00,04,
15392721,0000042C,false,Rx,1,8,96,60,00,00,21,00,00,00,
15392961,0000043C,false,Rx,1,8,96,60,00,00,21,00,00,00,
15393201,0000044C,false,Rx,1,8,96,60,00,00,21,00,00,00,
15403959,0000045C,false,Rx,1,8,00,00,09,3E,00,00,00,00,
15404094,0000010C,false,Rx,1,2,0C,00,00,00,00,00,00,00,
15404235,00000549,false,Rx,1,2,0C,FF,00,00,00,00,00,00,
15447109,00000209,false,Rx,1,8,28,00,C0,FF,C8,00,14,00,
15447356,00000229,false,Rx,1,8,00,00,00,00,40,00,1F,C5,
15447603,00000239,false,Rx,1,8,3D,41,00,00,00,00,00,00,
15447844,00000249,false,Rx,1,8,44,7D,6E,03,00,00,20,00,
15448077,00000719,false,Rx,1,8,12,3F,26,00,27,00,15,00,
15456908,00000219,false,Rx,1,8,02,00,00,80,9D,02,00,04,
15492726,0000042C,false,Rx,1,8,96,60,00,00,21,00,00,00,
15492965,0000043C,false,Rx,1,8,96,60,00,00,21,00,00,00,
15493206,0000044C,false,Rx,1,8,96,60,00,00,21,00,00,00,
15503957,0000045C,false,Rx,1,8,00,00,09,3E,00,00,00,00,
15547097,00000209,false,Rx,1,8,24,00,00,00,C8,00,14,00,
15547343,00000229,false,Rx,1,8,00,00,00,00,24,00,1F,C5,
15547591,00000239,false,Rx,1,8,3D,41,00,00,00,00,00,00,
15547824,00000249,false,Rx,1,8,44,7D,6E,03,00,00,20,00,
15548073,00000719,false,Rx,1,8,13,00,00,00,00,00,00,00,
15556895,00000219,false,Rx,1,8,02,00,00,80,9D,02,00,04,
15592721,0000042C,false,Rx,1,8,96,60,00,00,21,00,00,00,
15592969,0000043C,false,Rx,1,8,96,60,00,00,21,00,00,00,
15593203,0000044C,false,Rx,1,8,96,60,00,00,21,00,00,00,
15603954,0000045C,false,Rx,1,8,00,00,09,3E,00,00,00,00,
15604088,0000010C,false,Rx,1,2,0D,00,00,00,00,00,00,00,
15604244,00000549,false,Rx,1,2,0D,FF,00,00,00,00,00,00,
15647054,00000209,false,Rx,1,8,22,00,00,00,C8,00,14,00,
15647292,00000229,false,Rx,1,8,00,00,00,00,2F,00,1F,C5,
15647541,00000239,false,Rx,1,8,3D,41,00,00,00,00,00,00,
15647773,00000249,false,Rx,1,8,44,7D,6E,03,00,00,20,00,
15648022,00000719,false,Rx,1,8,14,00,00,00,02,00,00,00,
15656855,00000219,false,Rx,1,8,02,00,00,80,9D,02,00,04,
15691726,0000042C,false,Rx,1,8,96,60,00,00,21,00,00,00,
15691965,0000043C,false,Rx,1,8,96,60,00,00,21,00,00,00,
15692206,0000044C,false,Rx,1,8,96,60,00,00,21,00,00,00,
15692731,0000042C,false,Rx,1,8,96,60,00,00,21,00,00,00,
15692973,0000043C,false,Rx,1,8,96,60,00,00,21,00,00,00,
15693213,0000044C,false,Rx,1,8,96,60,00,00,21,00,00,00,
15703969,0000045C,false,Rx,1,8,00,00,09,3E,00,00,00,00,
15747049,00000209,false,Rx,1,8,21,00,C0,FF,C8,00,14,00,
15747295,00000229,false,Rx,1,8,00,00,00,00,26,00,1F,C5,
15747544,00000239,false,Rx,1,8,3D,41,00,00,00,00,00,00,
15747776,00000249,false,Rx,1,8,44,7D,6E,03,00,00,20,00,
15756846,00000219,false,Rx,1,8,02,00,00,80,9D,02,00,04,
15792732,0000042C,false,Rx,1,8,96,60,00,00,21,00,00,00,
15792972,0000043C,false,Rx,1,8,96,60,00,00,21,00,00,00,
15793211,0000044C,false,Rx,1,8,96,60,00,00,21,00,00,00,
15803968,0000045C,false,Rx,1,8,00,00,09,3E,00,00,00,00,
15804102,0000010C,false,Rx,1,2,0E,00,00,00,00,00,00,00,
15804260,00000549,false,Rx,1,2,0E,FF,00,00,00,00,00,00,
15846924,00000369,false,Rx,1,8,00,00,00,00,00,00,00,00,
15847170,00000209,false,Rx,1,8,20,00,C0,FF,C8,00,14,00,
15847411,00000229,false,Rx,1,8,00,00,00,00,2D,00,1F,C5,
15847666,00000239,false,Rx,1,8,3D,41,00,00,00,00,00,00,
15847899,00000249,false,Rx,1,8,44,7D,6E,03,00,00,20,00,
15848140,00000719,false,Rx,1,8,16,00,00,00,00,00,62,46,
15856833,00000219,false,Rx,1,8,02,00,00,80,9D,02,00,04,
15857087,00000379,false,Rx,1,8,00,00,00,00,00,00,00,00,
15866933,00000349,false,Rx,1,8,00,00,00,00,00,08,00,00,
15876915,00000359,false,Rx,1,8,00,00,00,00,00,00,18,00,
15886929,00000329,false,Rx,1,8,00,00,00,00,00,00,00,00,
15892732,0000042C,false,Rx,1,8,96,60,00,00,21,00,00,00,
15892972,0000043C,false,Rx,1,8,96,60,00,00,21,00,00,00,
15893211,0000044C,false,Rx,1,8,96,60,00,00,21,00,00,00,
15896918,00000339,false,Rx,1,8,00,00,00,00,00,00,00,00,
15903968,0000045C,false,Rx,1,8,00,00,09,3E,00,00,00,00,
15947021,00000209,false,Rx,1,8,20,00,C0,FF,C8,00,14,00,
15947268,00000229,false,Rx,1,8,00,00,00,00,20,00,1F,C5,
15947516,00000239,false,Rx,1,8,3D,41,00,00,00,00,00,00,
15947748,00000249,false,Rx,1,8,44,7D,6E,03,00,00,20,00,
15947990,00000719,false,Rx,1,8,17,00,00,50,04,00,E0,00,
15956811,00000219,false,Rx,1,8,02,00,00,80,9D,02,00,04,
15992736,0000042C,false,Rx,1,8,96,60,00,00,21,00,00,00,
15992977,0000043C,false,Rx,1,8,96,60,00,00,21,00,00,00,
15993218,0000044C,false,Rx,1,8,96,60,00,00,21,00,00,00,
16003969,0000045C,false,Rx,1,8,00,00,09,3E,00,00,00,00,
16004103,0000010C,false,Rx,1,2,0F,00,00,00,00,00,00,00,
16004260,00000549,false,Rx,1,2,0F,FF,00,00,00,00,00,00,
16046994,00000209,false,Rx,1,8,20,00,00,00,C8,00,14,00,
16047240,00000229,false,Rx,1,8,00,00,00,00,1E,00,1F,C5,
16047488,00000239,false,Rx,1,8,3D,41,00,00,00,00,00,00,
16047721,00000249,false,Rx,1,8,44,7D,6E,03,00,00,20,00,
16047970,00000719,false,Rx,1,8,18,00,00,00,00,00,00,00,
16056786,00000219,false,Rx,1,8,02,00,00,80,9D,02,00,04,
16092738,0000042C,false,Rx,1,8,96,60,00,00,21,00,00,00,
16092979,0000043C,false,Rx,1,8,96,60,00,00,21,00,00,00,
16093218,0000044C,false,Rx,1,8,96,60,00,00,21,00,00,00,
16103977,0000045C,false,Rx,1,8,00,00,09,3E,00,00,00,00,
16146951,00000209,false,Rx,1,8,20,00,00,00,C8,00,14,00,
16147197,00000229,false,Rx,1,8,00,00,00,00,16,00,1F,C5,
16147444,00000239,false,Rx,1,8,3D,41,00,00,00,00,00,00,
16147678,00000249,false,Rx,1,8,44,7D,6E,03,00,00,20,00,
16147926,00000719,false,Rx,1,8,19,00,00,00,00,00,00,00,
16156744,00000219,false,Rx,1,8,02,00,00,80,9D,02,00,04,
16192738,0000042C,false,Rx,1,8,96,60,00,00,21,00,00,00,
16192979,0000043C,false,Rx,1,8,96,60,00,00,21,00,00,00,
16193219,0000044C,false,Rx,1,8,96,60,00,00,21,00,00,00,
16203968,0000045C,false,Rx,1,8,00,00,09,3E,00,00,00,00,
16204102,0000010C,false,Rx,1,2,10,00,00,00,00,00,00,00,
16204251,00000549,false,Rx,1,2,10,FF,00,00,00,00,00,00,
16246963,00000209,false,Rx,1,8,20,00,C0,FF,C8,00,14,00,
16247209,00000229,false,Rx,1,8,00,00,00,00,15,00,1F,C5,
16247458,00000239,false,Rx,1,8,3D,41,00,00,00,00,00,00,
16247690,00000249,false,Rx,1,8,44,7D,6E,03,00,00,20,00,
16247940,00000719,false,Rx,1,8,01,00,00,00,00,00,00,00,
16256748,00000219,false,Rx,1,8,02,00,00,80,9D,02,00,04,
16292739,0000042C,false,Rx,1,8,96,60,00,00,21,00,00,00,
16292979,0000043C,false,Rx,1,8,96,60,00,00,21,00,00,00,
16293219,0000044C,false,Rx,1,8,96,60,00,00,21,00,00,00,
16303976,0000045C,false,Rx,1,8,00,00,09,3E,00,00,00,00,
16346910,00000209,false,Rx,1,8,20,00,C0,FF,C8,00,14,00,
16347149,00000229,false,Rx,1,8,00,00,00,00,17,00,1F,C5,
16347398,00000239,false,Rx,1,8,3D,41,00,00,00,00,00,00,
16347638,00000249,false,Rx,1,8,44,7D,6E,03,00,00,20,00,
16347879,00000719,false,Rx,1,8,02,00,00,00,00,00,00,00,
16356726,00000219,false,Rx,1,8,02,00,00,80,9D,02,00,04,
16392734,0000042C,false,Rx,1,8,96,60,00,00,21,00,00,00,
16392982,0000043C,false,Rx,1,8,96,60,00,00,21,00,00,00,
16393222,0000044C,false,Rx,1,8,96,60,00,00,21,00,00,00,
16403973,0000045C,false,Rx,1,8,00,00,09,3E,00,00,00,00,
16404101,0000010C,false,Rx,1,2,11,00,00,00,00,00,00,00,
16404250,00000549,false,Rx,1,2,11,FF,00,00,00,00,00,00,
16446895,00000209,false,Rx,1,8,20,00,C0,FF,C8,00,14,00,
16447135,00000229,false,Rx,1,8,00,00,00,00,17,00,1F,C5,
16447382,00000239,false,Rx,1,8,3D,41,00,00,00,00,00,00,
16447622,00000249,false,Rx,1,8,44,7D,6E,03,00,00,20,00,
16456685,00000219,false,Rx,1,8,02,00,00,80,9D,02,00,04,
16492736,0000042C,false,Rx,1,8,96,60,00,00,21,00,00,00,
16492983,0000043C,false,Rx,1,8,96,60,00,00,21,00,00,00,
16493224,0000044C,false,Rx,1,8,96,60,00,00,21,00,00,00,
16503976,0000045C,false,Rx,1,8,00,00,09,3E,00,00,00,00,
16546886,00000209,false,Rx,1,8,20,00,C0,FF,C8,00,14,00,
16547132,00000229,false,Rx,1,8,00,00,00,00,16,00,1F,C5,
16547380,00000239,false,Rx,1,8,3D,41,00,00,00,00,00,00,
16547612,00000249,false,Rx,1,8,44,7D,6E,03,00,00,20,00,
16547862,00000719,false,Rx,1,8,04,00,00,00,00,00,00,00,
16556677,00000219,false,Rx,1,8,02,00,00,80,9D,02,00,04,
16592738,0000042C,false,Rx,1,8,96,60,00,00,21,00,00,00,
16592979,0000043C,false,Rx,1,8,96,60,00,00,21,00,00,00,
16593219,0000044C,false,Rx,1,8,96,60,00,00,21,00,00,00,
16603976,0000045C,false,Rx,1,8,00,00,09,3E,00,00,00,00,
16604110,0000010C,false,Rx,1,2,12,00,00,00,00,00,00,00,
16604259,00000549,false,Rx,1,2,12,FF,00,00,00,00,00,00,
16646843,00000209,false,Rx,1,8,20,00,C0,FF,C8,00,14,00,
16647089,00000229,false,Rx,1,8,00,00,00,00,14,00,1F,C5,
16647344,00000239,false,Rx,1,8,3D,41,00,00,00,00,00,00,
16647578,00000249,false,Rx,1,8,44,7D,6E,03,00,00,20,00,
16647825,00000719,false,Rx,1,8,05,00,00,00,00,00,00,00,
16656635,00000219,false,Rx,1,8,02,00,00,80,9D,02,00,04,
16692740,0000042C,false,Rx,1,8,96,60,00,00,20,00,00,00,
16692989,0000043C,false,Rx,1,8,96,60,00,00,20,00,00,00,
16693229,0000044C,false,Rx,1,8,96,60,00,00,20,00,00,00,
16703980,0000045C,false,Rx,1,8,00,00,09,3E,00,00,00,00,
16746850,00000209,false,Rx,1,8,20,00,00,00,C8,00,14,00,
16747096,00000229,false,Rx,1,8,00,00,00,00,14,00,1F,C5,
16747345,00000239,false,Rx,1,8,3D,41,00,00,00,00,00,00,
16747585,00000249,false,Rx,1,8,44,7D,6E,03,00,00,20,00,
16747817,00000719,false,Rx,1,8,06,00,26,46,66,06,00,40,
16756648,00000219,false,Rx,1,8,02,00,00,80,9D,02,00,04,
16792746,0000042C,false,Rx,1,8,96,60,00,00,20,00,00,00,
16792986,0000043C,false,Rx,1,8,96,60,00,00,20,00,00,00,
16793233,0000044C,false,Rx,1,8,96,60,00,00,20,00,00,00,
16803976,0000045C,false,Rx,1,8,00,00,09,3E,00,00,00,00,
16804110,0000010C,false,Rx,1,2,13,00,00,00,00,00,00,00,
16804260,00000549,false,Rx,1,2,13,FF,00,00,00,00,00,00,
16846724,00000369,false,Rx,1,8,00,00,00,00,00,00,00,00,
16846971,00000209,false,Rx,1,8,20,00,C0,FF,C8,00,14,00,
16847212,00000229,false,Rx,1,8,00,00,00,00,17,00,1F,C5,
16847460,00000239,false,Rx,1,8,3D,41,00,00,00,00,00,00,
16847699,00000249,false,Rx,1,8,44,7D,6E,03,00,00,20,00,
16847942,00000719,false,Rx,1,8,07,00,00,00,02,0A,00,00,
16856619,00000219,false,Rx,1,8,02,00,00,80,9D,02,00,04,
16856874,00000379,false,Rx,1,8,00,00,00,00,00,00,00,00,
16866719,00000349,false,Rx,1,8,00,00,00,00,00,08,00,00,
16876715,00000359,false,Rx,1,8,00,00,00,00,00,00,18,00,
16886720,00000329,false,Rx,1,8,00,00,00,00,00,00,00,00,
16892749,0000042C,false,Rx,1,8,96,60,00,00,20,00,00,00,
16892989,0000043C,false,Rx,1,8,96,60,00,00,20,00,00,00,
16893230,0000044C,false,Rx,1,8,96,60,00,00,20,00,00,00,
16896709,00000339,false,Rx,1,8,00,00,00,00,00,00,00,00,
16903978,0000045C,false,Rx,1,8,00,00,09,3E,00,00,00,00,
16946781,00000209,false,Rx,1,8,20,00,C0,FF,C8,00,14,00,
16947023,00000229,false,Rx,1,8,00,00,00,00,0E,00,1F,C5,
16947278,00000239,false,Rx,1,8,3D,41,00,00,00,00,00,00,
16947511,00000249,false,Rx,1,8,44,7D,6E,03,00,00,20,00,
16947750,00000719,false,Rx,1,8,08,00,00,00,26,46,00,00,
16956575,00000219,false,Rx,1,8,02,00,00,80,9D,02,00,04,
16992750,0000042C,false,Rx,1,8,96,60,00,00,20,00,00,00,
16992990,0000043C,false,Rx,1,8,96,60,00,00,20,00,00,00,
16993231,0000044C,false,Rx,1,8,96,60,00,00,20,00,00,00,
17003981,0000045C,false,Rx,1,8,00,00,09,3E,00,00,00,00,
17004115,0000010C,false,Rx,1,2,14,00,00,00,00,00,00,00,
17004272,00000549,false,Rx,1,2,14,FF,00,00,00,00,00,00,
17046780,00000209,false,Rx,1,8,20,00,00,00,C8,00,14,00,
17047029,00000229,false,Rx,1,8,00,00,00,00,14,00,1F,C5,
17047276,00000239,false,Rx,1,8,3D,41,00,00,00,00,00,00,
17047509,00000249,false,Rx,1,8,44,7D,6E,03,00,00,20,00,
17047750,00000719,false,Rx,1,8,09,00,26,46,00,00,00,00,
17056579,00000219,false,Rx,1,8,02,00,00,80,9D,02,00,04,
17092746,0000042C,false,Rx,1,8,96,60,00,00,20,00,00,00,
17092987,0000043C,false,Rx,1,8,96,60,00,00,20,00,00,00,
17093234,0000044C,false,Rx,1,8,96,60,00,00,20,00,00,00,
17103984,0000045C,false,Rx,1,8,00,00,09,3E,00,00,00,00,
17146744,00000209,false,Rx,1,8,20,00,C0,FF,C8,00,14,00,
17146985,00000229,false,Rx,1,8,00,00,00,00,11,00,1F,C5,
17147232,00000239,false,Rx,1,8,3D,41,00,00,00,00,00,00,
17147466,00000249,false,Rx,1,8,44,7D,6E,03,00,00,20,00,
17147713,00000719,false,Rx,1,8,0A,00,00,00,00,00,00,00,
17156559,00000219,false,Rx,1,8,02,00,00,80,9D,02,00,04,
17192748,0000042C,false,Rx,1,8,96,60,00,00,20,00,00,00,
17192989,0000043C,false,Rx,1,8,96,60,00,00,20,00,00,00,
17193237,0000044C,false,Rx,1,8,96,60,00,00,20,00,00,00,
17203979,0000045C,false,Rx,1,8,00,00,09,3E,00,00,00,00,
17204113,0000010C,false,Rx,1,2,15,00,00,00,00,00,00,00,
17204308,00000549,false,Rx,1,2,15,FF,00,00,00,00,00,00,
17246749,00000209,false,Rx,1,8,20,00,C0,FF,C8,00,14,00,
17246989,00000229,false,Rx,1,8,00,00,00,00,09,00,1F,C5,
17247237,00000239,false,Rx,1,8,3D,41,00,00,00,00,00,00,
17247470,00000249,false,Rx,1,8,44,7D,6E,03,00,00,20,00,
17247718,00000719,false,Rx,1,8,0B,00,00,00,00,00,00,00,
17256536,00000219,false,Rx,1,8,02,00,00,80,9D,02,00,04,
17292748,0000042C,false,Rx,1,8,96,60,00,00,20,00,00,00,
17292996,0000043C,false,Rx,1,8,96,60,00,00,20,00,00,00,
17293236,0000044C,false,Rx,1,8,96,60,00,00,20,00,00,00,
17303985,0000045C,false,Rx,1,8,00,00,09,3E,00,00,00,00,
17346719,00000209,false,Rx,1,8,20,00,00,00,C8,00,14,00,
17346967,00000229,false,Rx,1,8,00,00,00,00,07,00,1F,C5,
17347208,00000239,false,Rx,1,8,3D,41,00,00,00,00,00,00,
17347448,00000249,false,Rx,1,8,44,7D,6E,03,00,00,20,00,
17347688,00000719,false,Rx,1,8,0C,01,00,04,04,00,01,00,
17356512,00000219,false,Rx,1,8,02,00,00,80,9D,02,00,04,
17392754,0000042C,false,Rx,1,8,96,60,00,00,20,00,00,00,
17392994,0000043C,false,Rx,1,8,96,60,00,00,20,00,00,00,
17393235,0000044C,false,Rx,1,8,96,60,00,00,20,00,00,00,
17403984,0000045C,false,Rx,1,8,00,00,09,3E,00,00,00,00,
17404111,0000010C,false,Rx,1,2,16,00,00,00,00,00,00,00,
17404267,00000549,false,Rx,1,2,16,FF,00,00,00,00,00,00,
17446683,00000209,false,Rx,1,8,20,00,00,00,C8,00,14,00,
17446922,00000229,false,Rx,1,8,00,00,00,00,16,00,1F,C5,
17447171,00000239,false,Rx,1,8,3D,41,00,00,00,00,00,00,
17447403,00000249,false,Rx,1,8,44,7D,6E,03,00,00,20,00,
17447651,00000719,false,Rx,1,8,0E,00,00,02,06,0E,00,00,
17456482,00000219,false,Rx,1,8,02,00,00,80,9D,02,00,04,
17492755,0000042C,false,Rx,1,8,96,60,00,00,20,00,00,00,
17492995,0000043C,false,Rx,1,8,96,60,00,00,20,00,00,00,
17493236,0000044C,false,Rx,1,8,96,60,00,00,20,00,00,00,
17503986,0000045C,false,Rx,1,8,00,00,09,3E,00,00,00,00,
17546686,00000209,false,Rx,1,8,20,00,C0,FF,C8,00,14,00,
17546927,00000229,false,Rx,1,8,00,00,00,00,0E,00,1F,C5,
17547174,00000239,false,Rx,1,8,3D,41,00,00,00,00,00,00,
17547414,00000249,false,Rx,1,8,44,7D,6E,03,00,00,20,00,
17547647,00000719,false,Rx,1,8,0F,00,EB,01,59,0B,00,00,
17556479,00000219,false,Rx,1,8,02,00,00,80,9D,02,00,04,
17592756,0000042C,false,Rx,1,8,96,60,00,00,20,00,00,00,
17592997,0000043C,false,Rx,1,8,96,60,00,00,20,00,00,00,
17593236,0000044C,false,Rx,1,8,96,60,00,00,20,00,00,00,
17603986,0000045C,false,Rx,1,8,00,00,09,3E,00,00,00,00,
17604120,0000010C,false,Rx,1,2,17,00,00,00,00,00,00,00,
17604269,00000549,false,Rx,1,2,17,FF,00,00,00,00,00,00,
17646641,00000209,false,Rx,1,8,20,00,00,00,C8,00,14,00,
17646881,00000229,false,Rx,1,8,00,00,00,00,0C,00,1F,C5,
17647136,00000239,false,Rx,1,8,3D,41,00,00,00,00,00,00,
17647368,00000249,false,Rx,1,8,44,7D,6E,03,00,00,20,00,
17647609,00000719,false,Rx,1,8,10,01,70,A0,00,E0,FF,00,
17656454,00000219,false,Rx,1,8,02,00,00,80,9D,02,00,04,
17691758,0000042C,false,Rx,1,8,96,60,00,00,20,00,00,00,
17691999,0000043C,false,Rx,1,8,96,60,00,00,20,00,00,00,
17692239,0000044C,false,Rx,1,8,96,60,00,00,20,00,00,00,
17693761,0000042C,false,Rx,1,8,96,60,00,00,20,00,00,00,
17693998,0000043C,false,Rx,1,8,96,60,00,00,20,00,00,00,
17694245,0000044C,false,Rx,1,8,96,60,00,00,20,00,00,00,
17703991,0000045C,false,Rx,1,8,00,00,09,3E,00,00,00,00,
17746618,00000209,false,Rx,1,8,20,00,00,00,C8,00,14,00,
17746867,00000229,false,Rx,1,8,00,00,00,00,10,00,1F,C5,
17747114,00000239,false,Rx,1,8,3D,41,00,00,00,00,00,00,
17747348,00000249,false,Rx,1,8,44,7D,6E,03,00,00,20,00,
17747595,00000719,false,Rx,1,8,11,00,00,00,00,00,02,02,
17756426,00000219,false,Rx,1,8,02,00,00,80,9D,02,00,04,
17793758,0000042C,false,Rx,1,8,96,60,00,00,20,00,00,00,
17793998,0000043C,false,Rx,1,8,96,60,00,00,20,00,00,00,
17794239,0000044C,false,Rx,1,8,96,60,00,00,20,00,00,00,
17803994,0000045C,false,Rx,1,8,00,00,09,3E,00,00,00,00,
17804129,0000010C,false,Rx,1,2,18,00,00,00,00,00,00,00,
17804278,00000549,false,Rx,1,2,18,FF,00,00,00,00,00,00,
17846516,00000369,false,Rx,1,8,00,00,00,00,00,00,00,00,
17846763,00000209,false,Rx,1,8,20,00,C0,FF,C8,00,14,00,
17847012,00000229,false,Rx,1,8,00,00,00,00,14,00,1F,C5,
17847260,00000239,false,Rx,1,8,3D,41,00,00,00,00,00,00,
17847500,00000249,false,Rx,1,8,44,7D,6E,03,00,00,20,00,
17847733,00000719,false,Rx,1,8,12,40,26,00,27,00,17,00,
17856414,00000219,false,Rx,1,8,02,00,00,80,9D,02,00,04,
17856667,00000379,false,Rx,1,8,00,00,00,00,00,00,00,00,
17866514,00000349,false,Rx,1,8,00,00,00,00,00,08,00,00,
17876511,00000359,false,Rx,1,8,00,00,00,00,00,00,18,00,
17886517,00000329,false,Rx,1,8,00,00,00,00,00,00,00,00,
17893756,0000042C,false,Rx,1,8,96,60,00,00,20,00,00,00,
17893998,0000043C,false,Rx,1,8,96,60,00,00,20,00,00,00,
17894246,0000044C,false,Rx,1,8,96,60,00,00,20,00,00,00,
17896512,00000339,false,Rx,1,8,00,00,00,00,00,00,00,00,
17903992,0000045C,false,Rx,1,8,00,00,09,3E,00,00,00,00,
17946575,00000209,false,Rx,1,8,20,00,C0,FF,C8,00,14,00,
17946821,00000229,false,Rx,1,8,00,00,00,00,04,00,1F,C5,
17947071,00000239,false,Rx,1,8,3D,41,00,00,00,00,00,00,
17947304,00000249,false,Rx,1,8,44,7D,6E,03,00,00,20,00,
17947551,00000719,false,Rx,1,8,13,00,00,00,00,00,00,00,
17956375,00000219,false,Rx,1,8,02,00,00,80,9D,02,00,04,
17993760,0000042C,false,Rx,1,8,96,60,00,00,20,00,00,00,
17994001,0000043C,false,Rx,1,8,96,60,00,00,20,00,00,00,
17994241,0000044C,false,Rx,1,8,96,60,00,00,20,00,00,00,
18003995,0000045C,false,Rx,1,8,00,00,09,3E,00,00,00,00,
18004129,0000010C,false,Rx,1,2,19,00,00,00,00,00,00,00,
18004278,00000549,false,Rx,1,2,19,FF,00,00,00,00,00,00,
18046574,00000209,false,Rx,1,8,20,00,C0,FF,C8,00,14,00,
18046821,00000229,false,Rx,1,8,00,00,00,00,0A,00,1F,C5,
18047070,00000239,false,Rx,1,8,3D,41,00,00,00,00,00,00,
18047302,00000249,false,Rx,1,8,44,7D,6E,03,00,00,20,00,
18047551,00000719,false,Rx,1,8,14,00,00,00,10,00,00,00,
18056373,00000219,false,Rx,1,8,02,00,00,80,9D,02,00,04,
18093762,0000042C,false,Rx,1,8,96,60,00,00,20,00,00,00,
18094002,0000043C,false,Rx,1,8,96,60,00,00,20,00,00,00,
18094249,0000044C,false,Rx,1,8,96,60,00,00,20,00,00,00,
18104001,0000045C,false,Rx,1,8,00,00,09,3E,00,00,00,00,
18146525,00000209,false,Rx,1,8,20,00,00,00,C8,00,14,00,
18146765,00000229,false,Rx,1,8,00,00,00,00,0A,00,1F,C5,
18147013,00000239,false,Rx,1,8,3D,41,00,00,00,00,00,00,
18147253,00000249,false,Rx,1,8,44,7D,6E,03,00,00,20,00,
18156346,00000219,false,Rx,1,8,02,00,00,80,9D,02,00,04,
18193761,0000042C,false,Rx,1,8,96,60,00,00,20,00,00,00,
18194001,0000043C,false,Rx,1,8,96,60,00,00,20,00,00,00,
18194242,0000044C,false,Rx,1,8,96,60,00,00,20,00,00,00,
18203989,0000045C,false,Rx,1,8,00,00,09,3E,00,00,00,00,
18204116,0000010C,false,Rx,1,2,1A,00,00,00,00,00,00,00,
18204288,00000549,false,Rx,1,2,1A,FF,00,00,00,00,00,00,
18246515,00000209,false,Rx,1,8,20,00,C0,FF,C8,00,14,00,
18246761,00000229,false,Rx,1,8,00,00,00,00,03,00,1F,C5,
18247002,00000239,false,Rx,1,8,3D,41,00,00,00,00,00,00,
18247243,00000249,false,Rx,1,8,44,7D,6E,03,00,00,20,00,
18247483,00000719,false,Rx,1,8,16,00,00,00,00,00,66,46,
18256308,00000219,false,Rx,1,8,02,00,00,80,9D,02,00,04,
18293761,0000042C,false,Rx,1,8,96,60,00,00,20,00,00,00,
18294008,0000043C,false,Rx,1,8,96,60,00,00,20,00,00,00,
18294249,0000044C,false,Rx,1,8,96,60,00,00,20,00,00,00,
18303986,0000045C,false,Rx,1,8,00,00,09,3E,00,00,00,00,
18346522,00000209,false,Rx,1,8,20,00,C0,FF,C8,00,14,00,
18346761,00000229,false,Rx,1,8,00,00,00,00,1C,00,1F,C5,
18347010,00000239,false,Rx,1,8,3D,41,00,00,00,00,00,00,
18347243,00000249,false,Rx,1,8,44,7D,6E,03,00,00,20,00,
18347490,00000719,false,Rx,1,8,17,00,00,E0,04,00,00,01,
18356308,00000219,false,Rx,1,8,02,00,00,80,9D,02,00,04,
18393766,0000042C,false,Rx,1,8,96,60,00,00,20,00,00,00,
18394007,0000043C,false,Rx,1,8,96,60,00,00,20,00,00,00,
18394246,0000044C,false,Rx,1,8,96,60,00,00,20,00,00,00,
18403992,0000045C,false,Rx,1,8,00,00,09,3E,00,00,00,00,
18404126,0000010C,false,Rx,1,2,1B,00,00,00,00,00,00,00,
18404282,00000549,false,Rx,1,2,1B,FF,00,00,00,00,00,00,
18446474,00000209,false,Rx,1,8,20,00,C0,FF,C8,00,14,00,
18446720,00000229,false,Rx,1,8,00,00,00,00,10,00,1F,C5,
18446971,00000239,false,Rx,1,8,3D,41,00,00,00,00,00,00,
18447203,00000249,false,Rx,1,8,44,7D,6E,03,00,00,20,00,
18447450,00000719,false,Rx,1,8,18,00,00,00,00,00,00,00,
18456266,00000219,false,Rx,1,8,02,00,00,80,9D,02,00,04,
18486363,00000509,false,Rx,1,8,5A,00,02,00,72,C3,03,80,
18486617,00000369,false,Rx,1,8,00,00,00,00,00,00,00,00,
18493766,0000042C,false,Rx,1,8,96,60,00,00,20,00,00,00,
18494007,0000043C,false,Rx,1,8,96,60,00,00,20,00,00,00,
18494247,0000044C,false,Rx,1,8,96,60,00,00,20,00,00,00,
18496377,00000379,false,Rx,1,8,00,00,00,00,00,00,00,00,
18503991,0000045C,false,Rx,1,8,00,00,09,3E,00,00,00,00,
18506377,00000349,false,Rx,1,8,00,00,00,00,00,08,00,00,
18516381,00000359,false,Rx,1,8,00,00,00,02,00,00,18,00,
18526387,00000329,false,Rx,1,8,00,00,00,00,00,00,00,00,
18536384,00000339,false,Rx,1,8,00,00,00,00,00,00,00,00,
18546471,00000209,false,Rx,1,8,20,00,C0,FF,C8,00,14,00,
18546710,00000229,false,Rx,1,8,00,00,00,00,17,00,1F,C5,
18546960,00000239,false,Rx,1,8,3D,41,00,00,00,00,00,00,
18547200,00000249,false,Rx,1,8,44,7D,6E,03,00,00,20,00,
18547447,00000719,false,Rx,1,8,19,00,00,00,00,00,00,00,
18556271,00000219,false,Rx,1,8,02,00,00,80,9D,02,00,04,
18593767,0000042C,false,Rx,1,8,96,60,00,00,20,00,00,00,
18594007,0000043C,false,Rx,1,8,96,60,00,00,20,00,00,00,
18594254,0000044C,false,Rx,1,8,96,60,00,00,20,00,00,00,
18603991,0000045C,false,Rx,1,8,00,00,09,3E,00,00,00,00,
18604133,0000010C,false,Rx,1,2,1C,00,00,00,00,00,00,00,
18604282,00000549,false,Rx,1,2,1C,FF,00,00,00,00,00,00,
18646456,00000209,false,Rx,1,8,20,00,00,00,C8,00,14,00,
18646703,00000229,false,Rx,1,8,00,00,00,00,14,00,1F,C5,
18646952,00000239,false,Rx,1,8,3D,41,00,00,00,00,00,00,
18647184,00000249,false,Rx,1,8,44,7D,6E,03,00,00,20,00,
18647440,00000719,false,Rx,1,8,01,00,00,00,00,00,00,00,
18656248,00000219,false,Rx,1,8,02,00,00,80,9D,02,00,04,
18693766,0000042C,false,Rx,1,8,96,60,00,00,20,00,00,00,
18694007,0000043C,false,Rx,1,8,96,60,00,00,20,00,00,00,
18694248,0000044C,false,Rx,1,8,96,60,00,00,20,00,00,00,
18703994,0000045C,false,Rx,1,8,00,00,09,3E,00,00,00,00,
18746419,00000209,false,Rx,1,8,20,00,C0,FF,C8,00,14,00,
18746658,00000229,false,Rx,1,8,00,00,00,00,12,00,1F,C5,
18746907,00000239,false,Rx,1,8,3D,41,00,00,00,00,00,00,
18747147,00000249,false,Rx,1,8,44,7D,6E,03,00,00,20,00,
18747395,00000719,false,Rx,1,8,02,00,00,00,00,00,00,00,
18756212,00000219,false,Rx,1,8,02,00,00,80,9D,02,00,04,
18793768,0000042C,false,Rx,1,8,96,60,00,00,20,00,00,00,
18794008,0000043C,false,Rx,1,8,96,60,00,00,20,00,00,00,
18794249,0000044C,false,Rx,1,8,96,60,00,00,20,00,00,00,
18803993,0000045C,false,Rx,1,8,00,00,09,3E,00,00,00,00,
18804128,0000010C,false,Rx,1,2,1D,00,00,00,00,00,00,00,
18804277,00000549,false,Rx,1,2,1D,FF,00,00,00,00,00,00,
18846303,00000369,false,Rx,1,8,00,00,00,00,00,00,00,00,
18846550,00000209,false,Rx,1,8,20,00,C0,FF,C8,00,14,00,
18846797,00000229,false,Rx,1,8,00,00,00,00,09,00,1F,C5,
18847047,00000239,false,Rx,1,8,3D,41,00,00,00,00,00,00,
18847279,00000249,false,Rx,1,8,44,7D,6E,03,00,00,20,00,
18856202,00000219,false,Rx,1,8,02,00,00,80,9D,02,00,04,
18856457,00000379,false,Rx,1,8,00,00,00,00,00,00,00,00,
18866304,00000349,false,Rx,1,8,00,00,00,00,00,08,00,00,
18876293,00000359,false,Rx,1,8,00,00,00,02,00,00,18,00,
18886299,00000329,false,Rx,1,8,00,00,00,00,00,00,00,00,
18893769,0000042C,false,Rx,1,8,96,60,00,00,20,00,00,00,
18894010,0000043C,false,Rx,1,8,96,60,00,00,20,00,00,00,
18894250,0000044C,false,Rx,1,8,96,60,00,00,20,00,00,00,
18896292,00000339,false,Rx,1,8,00,00,00,00,00,00,00,00,
18903994,0000045C,false,Rx,1,8,00,00,09,3E,00,00,00,00,
18946371,00000209,false,Rx,1,8,20,00,C0,FF,C8,00,14,00,
18946610,00000229,false,Rx,1,8,00,00,00,00,0F,00,1F,C5,
18946858,00000239,false,Rx,1,8,3D,41,00,00,00,00,00,00,
18947100,00000249,false,Rx,1,8,44,7D,6E,03,00,00,20,00,
18947347,00000719,false,Rx,1,8,04,00,00,00,00,00,00,00,
18956179,00000219,false,Rx,1,8,02,00,00,80,9D,02,00,04,
18993772,0000042C,false,Rx,1,8,96,60,00,00,20,00,00,00,
18994012,0000043C,false,Rx,1,8,96,60,00,00,20,00,00,00,
18994252,0000044C,false,Rx,1,8,96,60,00,00,20,00,00,00,
19003997,0000045C,false,Rx,1,8,00,00,09,3E,00,00,00,00,
19004131,0000010C,false,Rx,1,2,1E,00,00,00,00,00,00,00,
19004272,00000549,false,Rx,1,2,1E,FF,00,00,00,00,00,00,
19046359,00000209,false,Rx,1,8,20,00,00,00,C8,00,14,00,
19046605,00000229,false,Rx,1,8,00,00,00,00,12,00,1F,C5,
19046855,00000239,false,Rx,1,8,3D,41,00,00,00,00,00,00,
19047087,00000249,false,Rx,1,8,44,7D,6E,03,00,00,20,00,
19047335,00000719,false,Rx,1,8,05,00,00,00,00,00,00,00,
19056168,00000219,false,Rx,1,8,02,00,00,80,9D,02,00,04,
19093769,0000042C,false,Rx,1,8,96,60,00,00,20,00,00,00,
19094009,0000043C,false,Rx,1,8,96,60,00,00,20,00,00,00,
19094256,0000044C,false,Rx,1,8,96,60,00,00,20,00,00,00,
19104001,0000045C,false,Rx,1,8,00,00,09,3E,00,00,00,00,
19146351,00000209,false,Rx,1,8,20,00,00,00,C8,00,14,00,
19146598,00000229,false,Rx,1,8,00,00,00,00,15,00,1F,C5,
19146847,00000239,false,Rx,1,8,3D,41,00,00,00,00,00,00,
19147080,00000249,false,Rx,1,8,44,7D,6E,03,00,00,20,00,
19147320,00000719,false,Rx,1,8,06,00,2A,46,66,06,00,40,
19156152,00000219,false,Rx,1,8,02,00,00,80,9D,02,00,04,
19193769,0000042C,false,Rx,1,8,96,60,00,00,20,00,00,00,
19194016,0000043C,false,Rx,1,8,96,60,00,00,20,00,00,00,
19194257,0000044C,false,Rx,1,8,96,60,00,00,20,00,00,00,
19204001,0000045C,false,Rx,1,8,00,00,09,3E,00,00,00,00,
19204135,0000010C,false,Rx,1,2,1F,00,00,00,00,00,00,00,
19204307,00000549,false,Rx,1,2,1F,FF,00,00,00,00,00,00,
19246310,00000209,false,Rx,1,8,20,00,00,00,C8,00,14,00,
19246550,00000229,false,Rx,1,8,00,00,00,00,0B,00,1F,C5,
19246797,00000239,false,Rx,1,8,3D,41,00,00,00,00,00,00,
19247038,00000249,false,Rx,1,8,44,7D,6E,03,00,00,20,00,
19247279,00000719,false,Rx,1,8,07,00,00,00,02,0A,00,00,
19256099,00000219,false,Rx,1,8,02,00,00,80,9D,02,00,04,
19293771,0000042C,false,Rx,1,8,96,60,00,00,20,00,00,00,
19294013,0000043C,false,Rx,1,8,96,60,00,00,20,00,00,00,
19294252,0000044C,false,Rx,1,8,96,60,00,00,20,00,00,00,
19303997,0000045C,false,Rx,1,8,00,00,09,3E,00,00,00,00,
19346307,00000209,false,Rx,1,8,20,00,00,00,C8,00,14,00,
19346545,00000229,false,Rx,1,8,00,00,00,00,0C,00,1F,C5,
19346793,00000239,false,Rx,1,8,3D,41,00,00,00,00,00,00,
19347028,00000249,false,Rx,1,8,44,7D,6E,03,00,00,20,00,
19347268,00000719,false,Rx,1,8,08,00,00,00,2A,46,00,00,
19356105,00000219,false,Rx,1,8,02,00,00,80,9D,02,00,04,
19393776,0000042C,false,Rx,1,8,96,60,00,00,20,00,00,00,
19394017,0000043C,false,Rx,1,8,96,60,00,00,20,00,00,00,
19394257,0000044C,false,Rx,1,8,96,60,00,00,20,00,00,00,
19404002,0000045C,false,Rx,1,8,00,00,09,3E,00,00,00,00,
19404128,0000010C,false,Rx,1,2,20,00,00,00,00,00,00,00,
19404285,00000549,false,Rx,1,2,20,FF,00,00,00,00,00,00,
19446266,00000209,false,Rx,1,8,20,00,00,00,C8,00,14,00,
19446512,00000229,false,Rx,1,8,00,00,00,00,04,00,1F,C5,
19446759,00000239,false,Rx,1,8,3D,41,00,00,00,00,00,00,
19446994,00000249,false,Rx,1,8,44,7D,6E,03,00,00,20,00,
19447234,00000719,false,Rx,1,8,09,00,22,46,00,00,00,00,
19456080,00000219,false,Rx,1,8,02,00,00,80,9D,02,00,04,
19493772,0000042C,false,Rx,1,8,96,60,00,00,20,00,00,00,
19494019,0000043C,false,Rx,1,8,96,60,00,00,20,00,00,00,
19494259,0000044C,false,Rx,1,8,96,60,00,00,20,00,00,00,
19504004,0000045C,false,Rx,1,8,00,00,09,3E,00,00,00,00,
19546255,00000209,false,Rx,1,8,20,00,C0,FF,C8,00,14,00,
19546494,00000229,false,Rx,1,8,00,00,00,00,0B,00,1F,C5,
19546743,00000239,false,Rx,1,8,3D,41,00,00,00,00,00,00,
19546977,00000249,false,Rx,1,8,44,7D,6E,03,00,00,20,00,
19547225,00000719,false,Rx,1,8,0A,00,00,00,00,00,00,00,
19556042,00000219,false,Rx,1,8,02,00,00,80,9D,02,00,04,
19593779,0000042C,false,Rx,1,8,96,60,00,00,20,00,00,00,
19594019,0000043C,false,Rx,1,8,96,60,00,00,20,00,00,00,
19594259,0000044C,false,Rx,1,8,96,60,00,00,20,00,00,00,
19604004,0000045C,false,Rx,1,8,00,00,09,3E,00,00,00,00,
19604130,0000010C,false,Rx,1,2,21,00,00,00,00,00,00,00,
19604288,00000549,false,Rx,1,2,21,FF,00,00,00,00,00,00,
19646245,00000209,false,Rx,1,8,20,00,C0,FF,C8,00,14,00,
19646491,00000229,false,Rx,1,8,00,00,00,00,03,00,1F,C5,
19646739,00000239,false,Rx,1,8,3D,41,00,00,00,00,00,00,
19646973,00000249,false,Rx,1,8,44,7D,6E,03,00,00,20,00,
19647220,00000719,false,Rx,1,8,0B,00,00,00,00,00,00,00,
19656044,00000219,false,Rx,1,8,02,00,00,80,9D,02,00,04,
19692776,0000042C,false,Rx,1,8,96,60,00,00,20,00,00,00,
19693016,0000043C,false,Rx,1,8,96,60,00,00,20,00,00,00,
19693263,0000044C,false,Rx,1,8,96,60,00,00,20,00,00,00,
19703990,0000045C,false,Rx,1,8,00,00,09,3E,00,00,00,00,
19746202,00000209,false,Rx,1,8,20,00,C0,FF,C8,00,14,00,
19746449,00000229,false,Rx,1,8,00,00,00,00,10,00,1F,C5,
19746697,00000239,false,Rx,1,8,3D,41,00,00,00,00,00,00,
19746930,00000249,false,Rx,1,8,44,7D,6E,03,00,00,20,00,
19747179,00000719,false,Rx,1,8,0C,01,00,04,04,00,01,00,
19755997,00000219,false,Rx,1,8,02,00,00,80,9D,02,00,04,
19792761,0000042C,false,Rx,1,8,96,60,00,00,21,00,00,00,
19793008,0000043C,false,Rx,1,8,96,60,00,00,21,00,00,00,
19793249,0000044C,false,Rx,1,8,96,60,00,00,21,00,00,00,
19803995,0000045C,false,Rx,1,8,00,00,09,3E,00,00,00,00,
19804121,0000010C,false,Rx,1,2,22,00,00,00,00,00,00,00,
19804277,00000549,false,Rx,1,2,22,FF,00,00,00,00,00,00,
19846124,00000369,false,Rx,1,8,00,00,00,00,00,00,00,00,
19846364,00000209,false,Rx,1,8,20,00,C0,FF,C8,00,14,00,
19846612,00000229,false,Rx,1,8,00,00,00,00,11,00,1F,C5,
19846860,00000239,false,Rx,1,8,3D,41,00,00,00,00,00,00,
19847094,00000249,false,Rx,1,8,44,7D,6E,03,00,00,20,00,
19847334,00000719,false,Rx,1,8,0E,00,00,02,66,17,00,00,
19856004,00000219,false,Rx,1,8,02,00,00,80,9D,02,00,04,
19856251,00000379,false,Rx,1,8,00,00,00,00,00,00,00,00,
19866099,00000349,false,Rx,1,8,00,00,00,00,00,08,00,00,
19876096,00000359,false,Rx,1,8,00,00,00,02,00,00,18,00,
19886093,00000329,false,Rx,1,8,00,00,00,00,00,00,00,00,
19892764,0000042C,false,Rx,1,8,96,60,00,00,21,00,00,00,
19893004,0000043C,false,Rx,1,8,96,60,00,00,21,00,00,00,
19893245,0000044C,false,Rx,1,8,96,60,00,00,21,00,00,00,
19896095,00000339,false,Rx,1,8,00,00,00,00,00,00,00,00,
19903993,0000045C,false,Rx,1,8,00,00,09,3E,00,00,00,00,
19946188,00000209,false,Rx,1,8,20,00,C0,FF,C8,00,14,00,
19946427,00000229,false,Rx,1,8,00,00,00,00,0C,00,1F,C5,
19946674,00000239,false,Rx,1,8,3D,41,00,00,00,00,00,00,
19946910,00000249,false,Rx,1,8,44,7D,6E,03,00,00,20,00,
19947150,00000719,false,Rx,1,8,0F,00,EB,01,E8,11,00,00,
19955988,00000219,false,Rx,1,8,02,00,00,80,9D,02,00,04,
19992771,0000042C,false,Rx,1,8,96,60,00,00,21,00,00,00,
19993013,0000043C,false,Rx,1,8,96,60,00,00,21,00,00,00,
19993253,0000044C,false,Rx,1,8,96,60,00,00,21,00,00,00,
20003996,0000045C,false,Rx,1,8,00,00,09,3E,00,00,00,00,
20004123,0000010C,false,Rx,1,2,23,00,00,00,00,00,00,00,
20004279,00000549,false,Rx,1,2,23,FF,00,00,00,00,00,00,
20046142,00000209,false,Rx,1,8,20,00,C0,FF,C8,00,14,00,
20046388,00000229,false,Rx,1,8,00,00,00,00,0D,00,1F,C5,
20046636,00000239,false,Rx,1,8,3D,41,00,00,00,00,00,00,
20046871,00000249,false,Rx,1,8,44,7D,6E,03,00,00,20,00,
20047110,00000719,false,Rx,1,8,10,01,40,9E,00,E0,FF,00,
20055936,00000219,false,Rx,1,8,02,00,00,80,9D,02,00,04,
20092765,0000042C,false,Rx,1,8,96,60,00,00,21,00,00,00,
20093012,0000043C,false,Rx,1,8,96,60,00,00,21,00,00,00,
20093252,0000044C,false,Rx,1,8,96,60,00,00,21,00,00,00,
20103993,0000045C,false,Rx,1,8,00,00,09,3E,00,00,00,00,
20146137,00000209,false,Rx,1,8,20,00,C0,FF,C8,00,14,00,
20146383,00000229,false,Rx,1,8,00,00,00,00,0E,00,1F,C5,
20146632,00000239,false,Rx,1,8,3D,41,00,00,00,00,00,00,
20146865,00000249,false,Rx,1,8,44,7D,6E,03,00,00,20,00,
20147113,00000719,false,Rx,1,8,11,00,00,00,00,00,02,02,
20155937,00000219,false,Rx,1,8,02,00,00,80,9D,02,00,04,
20191770,0000042C,false,Rx,1,8,96,60,00,00,21,00,00,00,
20192011,0000043C,false,Rx,1,8,96,60,00,00,21,00,00,00,
20192251,0000044C,false,Rx,1,8,96,60,00,00,21,00,00,00,
20192769,0000042C,false,Rx,1,8,96,60,00,00,21,00,00,00,
20193010,0000043C,false,Rx,1,8,96,60,00,00,21,00,00,00,
20193250,0000044C,false,Rx,1,8,96,60,00,00,21,00,00,00,
20204005,0000045C,false,Rx,1,8,00,00,09,3E,00,00,00,00,
20204141,0000010C,false,Rx,1,2,24,00,00,00,00,00,00,00,
20204304,00000549,false,Rx,1,2,24,FF,00,00,00,00,00,00,
20246111,00000209,false,Rx,1,8,20,00,C0,FF,C8,00,14,00,
20246358,00000229,false,Rx,1,8,00,00,00,00,0C,00,1F,C5,
20246606,00000239,false,Rx,1,8,3D,41,00,00,00,00,00,00,
20246839,00000249,false,Rx,1,8,44,7D,6E,03,00,00,20,00,
20247079,00000719,false,Rx,1,8,12,40,27,00,27,00,17,00,
20255918,00000219,false,Rx,1,8,02,00,00,80,9D,02,00,04,
20292774,0000042C,false,Rx,1,8,96,60,00,00,21,00,00,00,
20293022,0000043C,false,Rx,1,8,96,60,00,00,21,00,00,00,
20293255,0000044C,false,Rx,1,8,96,60,00,00,21,00,00,00,
20304006,0000045C,false,Rx,1,8,00,00,09,3E,00,00,00,00,
20346104,00000209,false,Rx,1,8,20,00,C0,FF,C8,00,14,00,
20346344,00000229,false,Rx,1,8,00,00,00,00,05,00,1F,C5,
20346591,00000239,false,Rx,1,8,3D,41,00,00,00,00,00,00,
20346832,00000249,false,Rx,1,8,44,7D,6E,03,00,00,20,00,
20347073,00000719,false,Rx,1,8,13,00,00,00,00,00,00,00,
20355890,00000219,false,Rx,1,8,02,00,00,80,9D,02,00,04,
20392776,0000042C,false,Rx,1,8,96,60,00,00,21,00,00,00,
20393017,0000043C,false,Rx,1,8,96,60,00,00,21,00,00,00,
20393257,0000044C,false,Rx,1,8,96,60,00,00,21,00,00,00,
20404001,0000045C,false,Rx,1,8,00,00,09,3E,00,00,00,00,
20404135,0000010C,false,Rx,1,2,25,00,00,00,00,00,00,00,
20404284,00000549,false,Rx,1,2,25,FF,00,00,00,00,00,00,
20446074,00000209,false,Rx,1,8,20,00,C0,FF,C8,00,14,00,
20446321,00000229,false,Rx,1,8,00,00,00,00,13,00,1F,C5,
20446568,00000239,false,Rx,1,8,3D,41,00,00,00,00,00,00,
20446802,00000249,false,Rx,1,8,44,7D,6E,03,00,00,20,00,
20447050,00000719,false,Rx,1,8,14,00,00,00,F3,FF,00,00,
20455873,00000219,false,Rx,1,8,02,00,00,80,9D,02,00,04,
20492780,0000042C,false,Rx,1,8,96,60,00,00,21,00,00,00,
20493021,0000043C,false,Rx,1,8,96,60,00,00,21,00,00,00,
20493261,0000044C,false,Rx,1,8,96,60,00,00,21,00,00,00,
20504004,0000045C,false,Rx,1,8,00,00,09,3E,00,00,00,00,
20546034,00000209,false,Rx,1,8,20,00,C0,FF,C8,00,14,00,
20546280,00000229,false,Rx,1,8,00,00,00,00,0A,00,1F,C5,
20546528,00000239,false,Rx,1,8,3D,41,00,00,00,00,00,00,
20546761,00000249,false,Rx,1,8,44,7D,6E,03,00,00,20,00,
20555825,00000219,false,Rx,1,8,02,00,00,80,9D,02,00,04,
20592777,0000042C,false,Rx,1,8,96,60,00,00,21,00,00,00,
20593024,0000043C,false,Rx,1,8,96,60,00,00,21,00,00,00,
20593264,0000044C,false,Rx,1,8,96,60,00,00,21,00,00,00,
20604006,0000045C,false,Rx,1,8,00,00,09,3E,00,00,00,00,
20604140,0000010C,false,Rx,1,2,26,00,00,00,00,00,00,00,
20604298,00000549,false,Rx,1,2,26,FF,00,00,00,00,00,00,
20646042,00000209,false,Rx,1,8,20,00,00,00,C8,00,14,00,
20646280,00000229,false,Rx,1,8,00,00,00,00,09,00,1F,C5,
20646529,00000239,false,Rx,1,8,3D,41,00,00,00,00,00,00,
20646769,00000249,false,Rx,1,8,44,7D,6E,03,00,00,20,00,
20647010,00000719,false,Rx,1,8,16,00,00,00,00,00,2E,46,
20655833,00000219,false,Rx,1,8,02,00,00,80,9D,02,00,04,
20692778,0000042C,false,Rx,1,8,96,60,00,00,21,00,00,00,
20693020,0000043C,false,Rx,1,8,96,60,00,00,21,00,00,00,
20693260,0000044C,false,Rx,1,8,96,60,00,00,21,00,00,00,
20704011,0000045C,false,Rx,1,8,00,00,09,3E,00,00,00,00,
20746037,00000209,false,Rx,1,8,20,00,00,00,C8,00,14,00,
20746275,00000229,false,Rx,1,8,00,00,00,00,04,00,1F,C5,
20746524,00000239,false,Rx,1,8,3D,41,00,00,00,00,00,00,
20746764,00000249,false,Rx,1,8,44,7D,6E,03,00,00,20,00,
20747005,00000719,false,Rx,1,8,17,00,00,F0,04,00,00,01,
20755822,00000219,false,Rx,1,8,02,00,00,80,9D,02,00,04,
20792784,0000042C,false,Rx,1,8,96,60,00,00,21,00,00,00,
20793023,0000043C,false,Rx,1,8,96,60,00,00,21,00,00,00,
20793265,0000044C,false,Rx,1,8,96,60,00,00,21,00,00,00,
20804007,0000045C,false,Rx,1,8,00,00,09,3E,00,00,00,00,
20804141,0000010C,false,Rx,1,2,27,00,00,00,00,00,00,00,
20804297,00000549,false,Rx,1,2,27,FF,00,00,00,00,00,00,
20845900,00000369,false,Rx,1,8,00,00,00,00,00,00,00,00,
20846148,00000209,false,Rx,1,8,20,00,00,00,C8,00,14,00,
20846388,00000229,false,Rx,1,8,00,00,00,00,0A,00,1F,C5,
20846635,00000239,false,Rx,1,8,3D,41,00,00,00,00,00,00,
20846876,00000249,false,Rx,1,8,44,7D,6E,03,00,00,20,00,
20847117,00000719,false,Rx,1,8,18,00,00,00,00,00,00,00,
20855786,00000219,false,Rx,1,8,02,00,00,80,9D,02,00,04,
20856033,00000379,false,Rx,1,8,00,00,00,00,00,00,00,00,
20865911,00000349,false,Rx,1,8,00,00,00,00,00,08,00,00,
20875888,00000359,false,Rx,1,8,00,00,00,02,00,00,18,00,
20885893,00000329,false,Rx,1,8,00,00,00,00,00,00,00,00,
20892783,0000042C,false,Rx,1,8,96,60,00,00,21,00,00,00,
20893024,0000043C,false,Rx,1,8,96,60,00,00,21,00,00,00,
20893264,0000044C,false,Rx,1,8,96,60,00,00,21,00,00,00,
20895875,00000339,false,Rx,1,8,00,00,00,00,00,00,00,00,
20904007,0000045C,false,Rx,1,8,00,00,09,3E,00,00,00,00,
20945976,00000209,false,Rx,1,8,20,00,00,00,C8,00,14,00,
20946215,00000229,false,Rx,1,8,00,00,00,00,1A,00,1F,C5,
20946462,00000239,false,Rx,1,8,3D,41,00,00,00,00,00,00,
20946695,00000249,false,Rx,1,8,44,7D,6E,03,00,00,20,00,
20946944,00000719,false,Rx,1,8,19,00,00,00,00,00,00,00,
20955774,00000219,false,Rx,1,8,02,00,00,80,9D,02,00,04,
20992786,0000042C,false,Rx,1,8,96,60,00,00,21,00,00,00,
20993027,0000043C,false,Rx,1,8,96,60,00,00,21,00,00,00,
20993267,0000044C,false,Rx,1,8,96,60,00,00,21,00,00,00,
21004008,0000045C,false,Rx,1,8,00,00,09,3E,00,00,00,00,
21004142,0000010C,false,Rx,1,2,28,00,00,00,00,00,00,00,
21004291,00000549,false,Rx,1,2,28,FF,00,00,00,00,00,00,
21045941,00000209,false,Rx,1,8,20,00,C0,FF,C8,00,14,00,
21046187,00000229,false,Rx,1,8,00,00,00,00,04,00,1F,C5,
21046435,00000239,false,Rx,1,8,3D,41,00,00,00,00,00,00,
21046668,00000249,false,Rx,1,8,44,7D,6E,03,00,00,20,00,
21046917,00000719,false,Rx,1,8,01,00,00,00,00,00,00,00,
21055733,00000219,false,Rx,1,8,02,00,00,80,9D,02,00,04,
21092784,0000042C,false,Rx,1,8,96,60,00,00,21,00,00,00,
21093024,0000043C,false,Rx,1,8,96,60,00,00,21,00,00,00,
21093264,0000044C,false,Rx,1,8,96,60,00,00,21,00,00,00,
21104013,0000045C,false,Rx,1,8,00,00,09,3E,00,00,00,00,
21145936,00000209,false,Rx,1,8,20,00,C0,FF,C8,00,14,00,
21146175,00000229,false,Rx,1,8,00,00,00,00,12,00,1F,C5,
21146430,00000239,false,Rx,1,8,3D,41,00,00,00,00,00,00,
21146663,00000249,false,Rx,1,8,44,7D,6E,03,00,00,20,00,
21146911,00000719,false,Rx,1,8,02,00,00,00,00,00,00,00,
21155736,00000219,false,Rx,1,8,02,00,00,80,9D,02,00,04,
21192786,0000042C,false,Rx,1,8,96,60,00,00,20,00,00,00,
21193033,0000043C,false,Rx,1,8,96,60,00,00,20,00,00,00,
21193274,0000044C,false,Rx,1,8,96,60,00,00,20,00,00,00,
21204017,0000045C,false,Rx,1,8,00,00,09,3E,00,00,00,00,
21204144,0000010C,false,Rx,1,2,29,00,00,00,00,00,00,00,
21204308,00000549,false,Rx,1,2,29,FF,00,00,00,00,00,00,
21245892,00000209,false,Rx,1,8,20,00,C0,FF,C8,00,14,00,
21246131,00000229,false,Rx,1,8,00,00,00,00,09,00,1F,C5,
21246380,00000239,false,Rx,1,8,3D,41,00,00,00,00,00,00,
21246620,00000249,false,Rx,1,8,44,7D,6E,03,00,00,20,00,
21255703,00000219,false,Rx,1,8,02,00,00,80,9D,02,00,04,
21292790,0000042C,false,Rx,1,8,96,60,00,00,20,00,00,00,
21293030,0000043C,false,Rx,1,8,96,60,00,00,20,00,00,00,
21293271,0000044C,false,Rx,1,8,96,60,00,00,20,00,00,00,
21304015,0000045C,false,Rx,1,8,00,00,09,3E,00,00,00,00,
21345870,00000209,false,Rx,1,8,20,00,C0,FF,C8,00,14,00,
21346110,00000229,false,Rx,1,8,00,00,00,00,02,00,1F,C5,
21346365,00000239,false,Rx,1,8,3D,41,00,00,00,00,00,00,
21346597,00000249,false,Rx,1,8,44,7D,6E,03,00,00,20,00,
21346846,00000719,false,Rx,1,8,04,00,00,00,00,00,00,00,
21355670,00000219,false,Rx,1,8,02,00,00,80,9D,02,00,04,
21392791,0000042C,false,Rx,1,8,96,60,00,00,20,00,00,00,
21393032,0000043C,false,Rx,1,8,96,60,00,00,20,00,00,00,
21393279,0000044C,false,Rx,1,8,96,60,00,00,20,00,00,00,
21404014,0000045C,false,Rx,1,8,00,00,09,3E,00,00,00,00,
21404148,0000010C,false,Rx,1,2,2A,00,00,00,00,00,00,00,
21404304,00000549,false,Rx,1,2,2A,FF,00,00,00,00,00,00,
21445877,00000209,false,Rx,1,8,20,00,C0,FF,C8,00,14,00,
21446117,00000229,false,Rx,1,8,00,00,00,00,07,00,1F,C5,
21446365,00000239,false,Rx,1,8,3D,41,00,00,00,00,00,00,
21446605,00000249,false,Rx,1,8,44,7D,6E,03,00,00,20,00,
21446847,00000719,false,Rx,1,8,05,00,00,00,00,00,00,00,
21455670,00000219,false,Rx,1,8,02,00,00,80,9D,02,00,04,
21492792,0000042C,false,Rx,1,8,96,60,00,00,20,00,00,00,
21493032,0000043C,false,Rx,1,8,96,60,00,00,20,00,00,00,
21493272,0000044C,false,Rx,1,8,96,60,00,00,20,00,00,00,
21504021,0000045C,false,Rx,1,8,00,00,09,3E,00,00,00,00,
21545835,00000209,false,Rx,1,8,20,00,C0,FF,C8,00,14,00,
21546074,00000229,false,Rx,1,8,00,00,00,00,0B,00,1F,C5,
21546321,00000239,false,Rx,1,8,3D,41,00,00,00,00,00,00,
21546563,00000249,false,Rx,1,8,44,7D,6E,03,00,00,20,00,
21546795,00000719,false,Rx,1,8,06,00,32,46,66,06,00,40,
21555628,00000219,false,Rx,1,8,02,00,00,80,9D,02,00,04,
21592791,0000042C,false,Rx,1,8,96,60,00,00,20,00,00,00,
21593031,0000043C,false,Rx,1,8,96,60,00,00,20,00,00,00,
21593279,0000044C,false,Rx,1,8,96,60,00,00,20,00,00,00,
21604021,0000045C,false,Rx,1,8,00,00,09,3E,00,00,00,00,
21604149,0000010C,false,Rx,1,2,2B,00,00,00,00,00,00,00,
21604305,00000549,false,Rx,1,2,2B,FF,00,00,00,00,00,00,
21645825,00000209,false,Rx,1,8,20,00,C0,FF,C8,00,14,00,
21646072,00000229,false,Rx,1,8,00,00,00,00,10,00,1F,C5,
21646319,00000239,false,Rx,1,8,3D,41,00,00,00,00,00,00,
21646560,00000249,false,Rx,1,8,44,7D,6E,03,00,00,20,00,
21646800,00000719,false,Rx,1,8,07,00,00,00,02,0A,00,00,
21655626,00000219,false,Rx,1,8,02,00,00,80,9D,02,00,04,
21692796,0000042C,false,Rx,1,8,96,60,00,00,20,00,00,00,
21693037,0000043C,false,Rx,1,8,96,60,00,00,20,00,00,00,
21693278,0000044C,false,Rx,1,8,96,60,00,00,20,00,00,00,
21704020,0000045C,false,Rx,1,8,00,00,09,3E,00,00,00,00,
21745816,00000209,false,Rx,1,8,20,00,00,00,C8,00,14,00,
21746056,00000229,false,Rx,1,8,00,00,00,00,04,00,1F,C5,
21746305,00000239,false,Rx,1,8,3D,41,00,00,00,00,00,00,
21746545,00000249,false,Rx,1,8,44,7D,6E,03,00,00,20,00,
21746785,00000719,false,Rx,1,8,08,00,00,00,56,46,00,00,
21755605,00000219,false,Rx,1,8,02,00,00,80,9D,02,00,04,
21792794,0000042C,false,Rx,1,8,96,60,00,00,20,00,00,00,
21793034,0000043C,false,Rx,1,8,96,60,00,00,20,00,00,00,
21793282,0000044C,false,Rx,1,8,96,60,00,00,20,00,00,00,
21804024,0000045C,false,Rx,1,8,00,00,09,3E,00,00,00,00,
21804150,0000010C,false,Rx,1,2,2C,00,00,00,00,00,00,00,
21804329,00000549,false,Rx,1,2,2C,FF,00,00,00,00,00,00,
21845691,00000369,false,Rx,1,8,00,00,00,00,00,00,00,00,
21845930,00000209,false,Rx,1,8,20,00,C0,FF,C8,00,14,00,
21846179,00000229,false,Rx,1,8,00,00,00,00,06,00,1F,C5,
21846426,00000239,false,Rx,1,8,3D,41,00,00,00,00,00,00,
21846666,00000249,false,Rx,1,8,44,7D,6E,03,00,00,20,00,
21846908,00000719,false,Rx,1,8,09,00,36,46,00,00,00,00,
21855568,00000219,false,Rx,1,8,02,00,00,80,9D,02,00,04,
21855814,00000379,false,Rx,1,8,00,00,00,00,00,00,00,00,
21865683,00000349,false,Rx,1,8,00,00,00,00,00,08,00,00,
21875686,00000359,false,Rx,1,8,00,00,00,02,00,00,18,00,
21885690,00000329,false,Rx,1,8,00,00,00,00,00,00,00,00,
21892792,0000042C,false,Rx,1,8,96,60,00,00,20,00,00,00,
21893040,0000043C,false,Rx,1,8,96,60,00,00,20,00,00,00,
21893280,0000044C,false,Rx,1,8,96,60,00,00,20,00,00,00,
21895704,00000339,false,Rx,1,8,00,00,00,00,00,00,00,00,
21904024,0000045C,false,Rx,1,8,00,00,09,3E,00,00,00,00,
21945766,00000209,false,Rx,1,8,20,00,00,00,C8,00,14,00,
21946008,00000229,false,Rx,1,8,00,00,00,00,0A,00,1F,C5,
21946256,00000239,false,Rx,1,8,3D,41,00,00,00,00,00,00,
21946496,00000249,false,Rx,1,8,44,7D,6E,03,00,00,20,00,
21946737,00000719,false,Rx,1,8,0A,00,00,00,00,00,00,00,
21955560,00000219,false,Rx,1,8,02,00,00,80,9D,02,00,04,
21992799,0000042C,false,Rx,1,8,96,60,00,00,20,00,00,00,
21993039,0000043C,false,Rx,1,8,96,60,00,00,20,00,00,00,
21993279,0000044C,false,Rx,1,8,96,60,00,00,20,00,00,00,
22004020,0000045C,false,Rx,1,8,00,00,09,3E,00,00,00,00,
22004154,0000010C,false,Rx,1,2,2D,00,00,00,00,00,00,00,
22004312,00000549,false,Rx,1,2,2D,FF,00,00,00,00,00,00,
22045727,00000209,false,Rx,1,8,20,00,00,00,C8,00,14,00,
22045970,00000229,false,Rx,1,8,00,00,00,00,09,00,1F,C5,
22046217,00000239,false,Rx,1,8,3D,41,00,00,00,00,00,00,
22046450,00000249,false,Rx,1,8,44,7D,6E,03,00,00,20,00,
22046698,00000719,false,Rx,1,8,0B,00,00,00,00,00,00,00,
22055545,00000219,false,Rx,1,8,02,00,00,80,9D,02,00,04,
22092799,0000042C,false,Rx,1,8,96,60,00,00,20,00,00,00,
22093039,0000043C,false,Rx,1,8,96,60,00,00,20,00,00,00,
22093286,0000044C,false,Rx,1,8,96,60,00,00,20,00,00,00,
22104028,0000045C,false,Rx,1,8,00,00,09,3E,00,00,00,00,
22145719,00000209,false,Rx,1,8,20,00,C0,FF,C8,00,14,00,
22145960,00000229,false,Rx,1,8,00,00,00,00,01,00,1F,C5,
22146207,00000239,false,Rx,1,8,3D,41,00,00,00,00,00,00,
22146448,00000249,false,Rx,1,8,44,7D,6E,03,00,00,20,00,
22146688,00000719,false,Rx,1,8,0C,01,00,04,04,00,01,00,
22155519,00000219,false,Rx,1,8,02,00,00,80,9D,02,00,04,
22191802,0000042C,false,Rx,1,8,96,60,00,00,20,00,00,00,
22192042,0000043C,false,Rx,1,8,96,60,00,00,20,00,00,00,
22192281,0000044C,false,Rx,1,8,96,60,00,00,20,00,00,00,
22193803,0000042C,false,Rx,1,8,96,60,00,00,20,00,00,00,
22194049,0000043C,false,Rx,1,8,96,60,00,00,20,00,00,00,
22194289,0000044C,false,Rx,1,8,96,60,00,00,20,00,00,00,
22204027,0000045C,false,Rx,1,8,00,00,09,3E,00,00,00,00,
22204161,0000010C,false,Rx,1,2,2E,00,00,00,00,00,00,00,
22204325,00000549,false,Rx,1,2,2E,FF,00,00,00,00,00,00,
22245706,00000209,false,Rx,1,8,20,00,00,00,C8,00,14,00,
22245955,00000229,false,Rx,1,8,00,00,00,00,08,00,1F,C5,
22246203,00000239,false,Rx,1,8,3D,41,00,00,00,00,00,00,
22246436,00000249,false,Rx,1,8,44,7D,6E,03,00,00,20,00,
22246675,00000719,false,Rx,1,8,0E,00,00,02,C6,20,00,00,
22255507,00000219,false,Rx,1,8,02,00,00,80,9D,02,00,04,
22293801,0000042C,false,Rx,1,8,96,60,00,00,20,00,00,00,
22294042,0000043C,false,Rx,1,8,96,60,00,00,20,00,00,00,
22294289,0000044C,false,Rx,1,8,96,60,00,00,20,00,00,00,
22304027,0000045C,false,Rx,1,8,00,00,09,3E,00,00,00,00,
22345668,00000209,false,Rx,1,8,20,00,00,00,C8,00,14,00,
22345908,00000229,false,Rx,1,8,00,00,00,00,0A,00,1F,C5,
22346157,00000239,false,Rx,1,8,3D,41,00,00,00,00,00,00,
22346389,00000249,false,Rx,1,8,44,7D,6E,03,00,00,20,00,
22346629,00000719,false,Rx,1,8,0F,00,EB,01,CA,0E,00,00,
22355453,00000219,false,Rx,1,8,02,00,00,80,9D,02,00,04,
22393802,0000042C,false,Rx,1,8,96,60,00,00,20,00,00,00,
22394049,0000043C,false,Rx,1,8,96,60,00,00,20,00,00,00,
22394289,0000044C,false,Rx,1,8,96,60,00,00,20,00,00,00,
22404034,0000045C,false,Rx,1,8,00,00,09,3E,00,00,00,00,
22404161,0000010C,false,Rx,1,2,2F,00,00,00,00,00,00,00,
22404325,00000549,false,Rx,1,2,2F,FF,00,00,00,00,00,00,
22445655,00000209,false,Rx,1,8,20,00,C0,FF,C8,00,14,00,
22445904,00000229,false,Rx,1,8,00,00,00,00,0E,00,1F,C5,
22446151,00000239,false,Rx,1,8,3D,41,00,00,00,00,00,00,
22446384,00000249,false,Rx,1,8,44,7D,6E,03,00,00,20,00,
22446631,00000719,false,Rx,1,8,10,01,00,9E,00,E0,FF,00,
22455463,00000219,false,Rx,1,8,02,00,00,80,9D,02,00,04,
22493804,0000042C,false,Rx,1,8,96,60,00,00,20,00,00,00,
22494044,0000043C,false,Rx,1,8,96,60,00,00,20,00,00,00,
22494293,0000044C,false,Rx,1,8,96,60,00,00,20,00,00,00,
22504029,0000045C,false,Rx,1,8,00,00,09,3E,00,00,00,00,
22545622,00000209,false,Rx,1,8,20,00,00,00,C8,00,14,00,
22545863,00000229,false,Rx,1,8,00,00,00,00,04,00,1F,C5,
22546111,00000239,false,Rx,1,8,3D,41,00,00,00,00,00,00,
22546351,00000249,false,Rx,1,8,44,7D,6E,03,00,00,20,00,
22546592,00000719,false,Rx,1,8,11,00,00,00,00,00,02,02,
22555436,00000219,false,Rx,1,8,02,00,00,80,9D,02,00,04,
22593803,0000042C,false,Rx,1,8,96,60,00,00,20,00,00,00,
22594050,0000043C,false,Rx,1,8,96,60,00,00,20,00,00,00,
22594292,0000044C,false,Rx,1,8,96,60,00,00,20,00,00,00,
22604031,0000045C,false,Rx,1,8,00,00,09,3E,00,00,00,00,
22604167,0000010C,false,Rx,1,2,30,00,00,00,00,00,00,00,
22604315,00000549,false,Rx,1,2,30,FF,00,00,00,00,00,00,
22645610,00000209,false,Rx,1,8,20,00,C0,FF,C8,00,14,00,
22645849,00000229,false,Rx,1,8,00,00,00,00,16,00,1F,C5,
22646097,00000239,false,Rx,1,8,3D,41,00,00,00,00,00,00,
22646338,00000249,false,Rx,1,8,44,7D,6E,03,00,00,20,00,
22646570,00000719,false,Rx,1,8,12,40,27,00,27,00,17,00,
22655409,00000219,false,Rx,1,8,02,00,00,80,9D,02,00,04,
22693806,0000042C,false,Rx,1,8,96,60,00,00,20,00,00,00,
22694047,0000043C,false,Rx,1,8,96,60,00,00,20,00,00,00,
22694294,0000044C,false,Rx,1,8,96,60,00,00,20,00,00,00,
22704032,0000045C,false,Rx,1,8,00,00,09,3E,00,00,00,00,
22745600,00000209,false,Rx,1,8,20,00,C0,FF,C8,00,14,00,
22745847,00000229,false,Rx,1,8,00,00,00,00,14,00,1F,C5,
22746095,00000239,false,Rx,1,8,3D,41,00,00,00,00,00,00,
22746328,00000249,false,Rx,1,8,44,7D,6E,03,00,00,20,00,
22746576,00000719,false,Rx,1,8,13,00,00,00,00,00,00,00,
22755392,00000219,false,Rx,1,8,02,00,00,80,9D,02,00,04,
22793812,0000042C,false,Rx,1,8,96,60,00,00,20,00,00,00,
22794051,0000043C,false,Rx,1,8,96,60,00,00,20,00,00,00,
22794291,0000044C,false,Rx,1,8,96,60,00,00,20,00,00,00,
22804031,0000045C,false,Rx,1,8,00,00,09,3E,00,00,00,00,
22804165,0000010C,false,Rx,1,2,31,00,00,00,00,00,00,00,
22804314,00000549,false,Rx,1,2,31,FF,00,00,00,00,00,00,
22845469,00000369,false,Rx,1,8,00,00,00,00,00,00,00,00,
22845715,00000209,false,Rx,1,8,20,00,00,00,C8,00,14,00,
22845957,00000229,false,Rx,1,8,00,00,00,00,08,00,1F,C5,
22846205,00000239,false,Rx,1,8,3D,41,00,00,00,00,00,00,
22846445,00000249,false,Rx,1,8,44,7D,6E,03,00,00,20,00,
22846685,00000719,false,Rx,1,8,14,00,00,00,E4,FF,00,00,
22855349,00000219,false,Rx,1,8,02,00,00,80,9D,02,00,04,
22855603,00000379,false,Rx,1,8,00,00,00,00,00,00,00,00,
22865465,00000349,false,Rx,1,8,00,00,00,00,00,08,00,00,
22875462,00000359,false,Rx,1,8,00,00,00,02,00,00,18,00,
22885474,00000329,false,Rx,1,8,00,00,00,00,00,00,00,00,
22893810,0000042C,false,Rx,1,8,96,60,00,00,20,00,00,00,
22894049,0000043C,false,Rx,1,8,96,60,00,00,20,00,00,00,
22894297,0000044C,false,Rx,1,8,96,60,00,00,20,00,00,00,
22895467,00000339,false,Rx,1,8,00,00,00,00,00,00,00,00,
22904037,0000045C,false,Rx,1,8,00,00,09,3E,00,00,00,00,
22945559,00000209,false,Rx,1,8,20,00,00,00,C8,00,14,00,
22945806,00000229,false,Rx,1,8,00,00,00,00,07,00,1F,C5,
22946055,00000239,false,Rx,1,8,3D,41,00,00,00,00,00,00,
22946288,00000249,false,Rx,1,8,44,7D,6E,03,00,00,20,00,
22955356,00000219,false,Rx,1,8,02,00,00,80,9D,02,00,04,
22993812,0000042C,false,Rx,1,8,96,60,00,00,20,00,00,00,
22994052,0000043C,false,Rx,1,8,96,60,00,00,20,00,00,00,
22994293,0000044C,false,Rx,1,8,96,60,00,00,20,00,00,00,
23004036,0000045C,false,Rx,1,8,00,00,09,3E,00,00,00,00,
23004170,0000010C,false,Rx,1,2,32,00,00,00,00,00,00,00,
23004313,00000549,false,Rx,1,2,32,FF,00,00,00,00,00,00,
23045557,00000209,false,Rx,1,8,20,00,C0,FF,C8,00,14,00,
23045797,00000229,false,Rx,1,8,00,00,00,00,0F,00,1F,C5,
23046045,00000239,false,Rx,1,8,3D,41,00,00,00,00,00,00,
23046285,00000249,false,Rx,1,8,44,7D,6E,03,00,00,20,00,
23046526,00000719,false,Rx,1,8,16,00,00,00,00,00,36,46,
23055343,00000219,false,Rx,1,8,02,00,00,80,9D,02,00,04,
23093813,0000042C,false,Rx,1,8,96,60,00,00,20,00,00,00,
23094053,0000043C,false,Rx,1,8,96,60,00,00,20,00,00,00,
23094294,0000044C,false,Rx,1,8,96,60,00,00,20,00,00,00,
23104047,0000045C,false,Rx,1,8,00,00,09,3E,00,00,00,00,
23145501,00000209,false,Rx,1,8,20,00,C0,FF,C8,00,14,00,
23145741,00000229,false,Rx,1,8,00,00,00,00,13,00,1F,C5,
23145990,00000239,false,Rx,1,8,3D,41,00,00,00,00,00,00,
23146222,00000249,false,Rx,1,8,44,7D,6E,03,00,00,20,00,
23146471,00000719,false,Rx,1,8,17,00,00,F0,04,00,00,01,
23155295,00000219,false,Rx,1,8,02,00,00,80,9D,02,00,04,
23193811,0000042C,false,Rx,1,8,96,60,00,00,20,00,00,00,
23194053,0000043C,false,Rx,1,8,96,60,00,00,20,00,00,00,
23194300,0000044C,false,Rx,1,8,96,60,00,00,20,00,00,00,
