Time Stamp,ID,Extended,Dir,Bus,LEN,D1,D2,D3,D4,D5,D6,D7,D8
37977510,000005E7,false,Rx,1,8,00,3F,05,06,00,00,00,01,
38098877,00000217,false,Rx,1,8,00,00,80,FF,7D,02,00,04,
38189089,00000207,false,Rx,1,8,00,01,40,FF,00,00,04,00,
38189336,00000227,false,Rx,1,8,00,00,00,00,01,00,1F,C5,
38189584,00000237,false,Rx,1,8,3C,41,00,00,00,00,00,00,
38189817,00000247,false,Rx,1,8,00,7D,6E,03,00,00,20,00,
38190065,00000717,false,Rx,1,8,02,00,00,00,00,00,00,00,
38198881,00000217,false,Rx,1,8,00,00,80,FF,9C,02,01,04,
38289049,00000207,false,Rx,1,8,00,02,40,FF,C8,02,04,00,
38289296,00000227,false,Rx,1,8,00,00,00,00,04,00,1F,C5,
38289545,00000237,false,Rx,1,8,3C,41,00,00,00,00,00,00,
38289777,00000247,false,Rx,1,8,44,7D,6E,03,00,00,20,00,
38298862,00000217,false,Rx,1,8,02,40,80,FF,9C,02,01,04,
38389044,00000207,false,Rx,1,8,01,02,80,FF,C8,02,04,00,
38389283,00000227,false,Rx,1,8,00,00,00,00,05,00,1F,C5,
38389532,00000237,false,Rx,1,8,3C,41,00,00,00,00,00,00,
38389772,00000247,false,Rx,1,8,44,7D,6E,03,00,00,20,00,
38390019,00000717,false,Rx,1,8,04,00,00,00,00,00,00,00,
38398837,00000217,false,Rx,1,8,02,40,00,FF,9C,02,01,04,
38489027,00000207,false,Rx,1,8,01,01,80,FF,C8,02,04,00,
38489276,00000227,false,Rx,1,8,00,00,00,00,07,00,1F,C5,
38489516,00000237,false,Rx,1,8,3C,41,00,00,00,00,00,00,
38489755,00000247,false,Rx,1,8,44,7D,6E,03,00,00,20,00,
38490004,00000717,false,Rx,1,8,05,00,00,00,00,00,00,00,
38498815,00000217,false,Rx,1,8,02,40,00,FF,9C,02,01,04,
38588973,00000207,false,Rx,1,8,01,01,80,FF,C8,02,04,00,
38589220,00000227,false,Rx,1,8,00,00,00,00,02,00,1F,C5,
38589469,00000237,false,Rx,1,8,3C,41,00,00,00,00,00,00,
38589708,00000247,false,Rx,1,8,44,7D,6E,03,00,00,20,00,
38589949,00000717,false,Rx,1,8,06,00,06,45,66,06,00,40,
38598773,00000217,false,Rx,1,8,02,40,00,FF,9C,02,01,04,
38688986,00000207,false,Rx,1,8,01,01,80,FF,C8,02,04,00,
38689242,00000227,false,Rx,1,8,00,00,00,00,04,00,1F,C5,
38689482,00000237,false,Rx,1,8,3C,41,00,00,00,00,00,00,
38689723,00000247,false,Rx,1,8,44,7D,6E,03,00,00,20,00,
38689963,00000717,false,Rx,1,8,07,00,00,00,02,0A,00,00,
38698778,00000217,false,Rx,1,8,02,80,00,FF,9C,02,01,04,
38788943,00000207,false,Rx,1,8,01,01,80,FF,C8,02,04,00,
38789189,00000227,false,Rx,1,8,00,00,00,00,01,00,1F,C5,
38789430,00000237,false,Rx,1,8,3C,41,00,00,00,00,00,00,
38789671,00000247,false,Rx,1,8,44,7D,6E,03,00,00,20,00,
38789911,00000717,false,Rx,1,8,08,00,00,00,86,45,00,00,
38798757,00000217,false,Rx,1,8,02,80,80,FE,9C,02,01,04,
38888925,00000207,false,Rx,1,8,01,01,80,FF,C8,00,04,00,
38889171,00000227,false,Rx,1,8,00,00,00,00,00,00,1F,C5,
38889421,00000237,false,Rx,1,8,3C,41,00,00,00,00,00,00,
38889661,00000247,false,Rx,1,8,44,7D,6E,03,00,00,20,00,
38889893,00000717,false,Rx,1,8,09,00,62,45,00,00,00,00,
38898717,00000217,false,Rx,1,8,02,80,80,FE,9C,02,00,04,
38988922,00000207,false,Rx,1,8,01,01,80,FF,C8,00,04,00,
38989170,00000227,false,Rx,1,8,00,00,00,00,02,00,1F,C5,
38989418,00000237,false,Rx,1,8,3C,41,00,00,00,00,00,00,
38989651,00000247,false,Rx,1,8,44,7D,6E,03,00,00,20,00,
38989899,00000717,false,Rx,1,8,0A,00,00,00,00,00,00,00,
38998702,00000217,false,Rx,1,8,02,80,80,FE,9C,02,00,04,
39088802,00000367,false,Rx,1,8,00,00,00,00,00,00,00,00,
39089049,00000207,false,Rx,1,8,01,01,80,FF,C8,00,04,00,
39089297,00000227,false,Rx,1,8,00,00,00,00,02,00,1F,C5,
39089537,00000237,false,Rx,1,8,3C,41,00,00,00,00,00,00,
39089778,00000247,false,Rx,1,8,44,7D,6E,03,00,00,20,00,
39090026,00000717,false,Rx,1,8,0B,00,00,00,00,00,00,00,
39098666,00000217,false,Rx,1,8,02,80,80,FE,9C,02,00,04,
39098912,00000507,false,Rx,1,8,2C,00,00,00,00,00,00,40,
39099160,00000377,false,Rx,1,8,00,00,00,00,00,00,00,00,
39108794,00000347,false,Rx,1,8,00,00,00,00,00,08,00,00,
39118791,00000357,false,Rx,1,8,00,00,00,00,00,00,00,00,
39128789,00000327,false,Rx,1,8,00,00,00,00,00,00,00,00,
39138786,00000337,false,Rx,1,8,00,00,00,00,00,00,00,00,
39148784,00000367,false,Rx,1,8,00,00,00,00,00,00,00,00,
39158789,00000377,false,Rx,1,8,00,00,00,00,00,00,00,00,
39168796,00000347,false,Rx,1,8,00,00,00,00,00,08,00,00,
39178794,00000357,false,Rx,1,8,00,00,00,00,00,00,00,00,
39188791,00000327,false,Rx,1,8,00,00,00,00,00,00,00,00,
39189038,00000207,false,Rx,1,8,01,01,80,FF,C8,00,04,00,
39189279,00000227,false,Rx,1,8,00,00,00,00,05,00,1F,C5,
39189527,00000237,false,Rx,1,8,3C,41,00,00,00,00,00,00,
39189768,00000247,false,Rx,1,8,44,7D,6E,03,00,00,20,00,
39190008,00000717,false,Rx,1,8,0C,01,00,04,04,00,01,00,
39198668,00000217,false,Rx,1,8,02,C0,00,FE,9C,02,00,04,
39198916,00000337,false,Rx,1,8,00,00,00,00,00,00,00,00,
39288860,00000207,false,Rx,1,8,01,01,C0,FF,C8,00,04,00,
39289106,00000227,false,Rx,1,8,00,00,00,00,05,00,1F,C5,
39289347,00000237,false,Rx,1,8,3C,41,00,00,00,00,00,00,
39289588,00000247,false,Rx,1,8,44,7D,6E,03,00,00,20,00,
39289836,00000717,false,Rx,1,8,0E,00,00,02,A6,04,00,00,
39298646,00000217,false,Rx,1,8,02,C0,00,FE,9C,02,00,04,
39388821,00000207,false,Rx,1,8,01,01,80,FF,C8,00,04,00,
39389068,00000227,false,Rx,1,8,00,00,00,00,03,00,1F,C5,
39389310,00000237,false,Rx,1,8,3C,41,00,00,00,00,00,00,
39389550,00000247,false,Rx,1,8,44,7D,6E,03,00,00,20,00,
39389782,00000717,false,Rx,1,8,0F,00,EB,01,ED,0D,00,00,
39398606,00000217,false,Rx,1,8,02,C0,00,FE,9C,02,00,04,
39488819,00000207,false,Rx,1,8,01,01,C0,FF,C8,00,04,00,
39489066,00000227,false,Rx,1,8,00,00,00,00,01,00,1F,C5,
39489315,00000237,false,Rx,1,8,3C,41,00,00,00,00,00,00,
39489555,00000247,false,Rx,1,8,44,7D,6E,03,00,00,20,00,
39489787,00000717,false,Rx,1,8,10,06,70,FF,03,A0,FF,00,
39498603,00000217,false,Rx,1,8,02,C0,00,FE,9C,02,00,04,
39588784,00000207,false,Rx,1,8,01,01,C0,FF,C8,00,04,00,
39589024,00000227,false,Rx,1,8,00,00,00,00,03,00,1F,C5,
39589272,00000237,false,Rx,1,8,3C,41,00,00,00,00,00,00,
39589512,00000247,false,Rx,1,8,44,7D,6E,03,00,00,20,00,
39589753,00000717,false,Rx,1,8,11,00,00,00,00,00,02,02,
39598568,00000217,false,Rx,1,8,02,C0,00,FE,9C,02,00,04,
39688771,00000207,false,Rx,1,8,00,01,C0,FF,C8,00,04,00,
39689019,00000227,false,Rx,1,8,00,00,00,00,03,00,1F,C5,
39689267,00000237,false,Rx,1,8,3C,41,00,00,00,00,00,00,
39689507,00000247,false,Rx,1,8,44,7D,6E,03,00,00,20,00,
39689741,00000717,false,Rx,1,8,12,3E,25,00,27,00,15,00,
39698557,00000217,false,Rx,1,8,02,C0,80,FD,9C,02,00,04,
39788750,00000207,false,Rx,1,8,00,00,C0,FF,C8,00,04,00,
39788996,00000227,false,Rx,1,8,00,00,00,00,05,00,1F,C5,
39789244,00000237,false,Rx,1,8,3C,41,00,00,00,00,00,00,
39789478,00000247,false,Rx,1,8,44,7D,6E,03,00,00,20,00,
39789725,00000717,false,Rx,1,8,13,00,00,00,00,00,00,00,
39798535,00000217,false,Rx,1,8,02,C0,80,FD,9C,02,00,04,
39888711,00000207,false,Rx,1,8,00,00,C0,FF,C8,00,04,00,
39888957,00000227,false,Rx,1,8,00,00,00,00,03,00,1F,C5,
39889205,00000237,false,Rx,1,8,3C,41,00,00,00,00,00,00,
39889439,00000247,false,Rx,1,8,44,7D,6E,03,00,00,20,00,
39889687,00000717,false,Rx,1,8,14,00,00,00,CC,FF,00,00,
39898503,00000217,false,Rx,1,8,02,C0,80,FD,9C,02,00,04,
39988716,00000207,false,Rx,1,8,00,00,C0,FF,C8,00,04,00,
39988955,00000227,false,Rx,1,8,00,00,00,00,00,00,1F,C5,
39989204,00000237,false,Rx,1,8,3C,41,00,00,00,00,00,00,
39989445,00000247,false,Rx,1,8,44,7D,6E,03,00,00,20,00,
39998498,00000217,false,Rx,1,8,02,C0,80,FD,9C,02,00,04,
40088583,00000367,false,Rx,1,8,00,00,00,00,00,00,00,00,
40088829,00000207,false,Rx,1,8,00,00,C0,FF,C8,00,04,00,
40089070,00000227,false,Rx,1,8,00,00,00,00,01,00,1F,C5,
40089318,00000237,false,Rx,1,8,3C,41,00,00,00,00,00,00,
40089558,00000247,false,Rx,1,8,44,7D,6E,03,00,00,20,00,
40089799,00000717,false,Rx,1,8,16,00,00,00,00,00,E6,45,
40098469,00000217,false,Rx,1,8,02,C0,80,FD,9C,02,00,04,
40098723,00000377,false,Rx,1,8,00,00,00,00,00,00,00,00,
40108570,00000347,false,Rx,1,8,00,00,00,00,00,08,00,00,
40118568,00000357,false,Rx,1,8,00,00,00,00,00,00,00,00,
40128572,00000327,false,Rx,1,8,00,00,00,00,00,00,00,00,
40138568,00000337,false,Rx,1,8,00,00,00,00,00,00,00,00,
40188660,00000207,false,Rx,1,8,00,00,C0,FF,C8,00,04,00,
40188908,00000227,false,Rx,1,8,00,00,00,00,00,00,1F,C5,
40189155,00000237,false,Rx,1,8,3C,41,00,00,00,00,00,00,
40189388,00000247,false,Rx,1,8,44,7D,6E,03,00,00,20,00,
40189637,00000717,false,Rx,1,8,17,00,00,C0,03,00,00,00,
40198447,00000217,false,Rx,1,8,02,C0,80,FD,9C,02,00,04,
40288651,00000207,false,Rx,1,8,00,00,C0,FF,C8,00,04,00,
40288897,00000227,false,Rx,1,8,00,00,00,00,00,00,1F,C5,
40289145,00000237,false,Rx,1,8,3C,41,00,00,00,00,00,00,
40289379,00000247,false,Rx,1,8,44,7D,6E,03,00,00,20,00,
40289627,00000717,false,Rx,1,8,18,00,00,00,00,00,00,00,
40298437,00000217,false,Rx,1,8,02,00,01,FD,9C,02,00,04,
40388611,00000207,false,Rx,1,8,00,00,C0,FF,C8,00,04,00,
40388858,00000227,false,Rx,1,8,00,00,00,00,03,00,1F,C5,
40389097,00000237,false,Rx,1,8,3C,41,00,00,00,00,00,00,
40389339,00000247,false,Rx,1,8,44,7D,6E,03,00,00,20,00,
40389587,00000717,false,Rx,1,8,19,00,00,00,00,00,00,00,
40398394,00000217,false,Rx,1,8,02,00,01,FD,9C,02,00,04,
40488605,00000207,false,Rx,1,8,00,00,C0,FF,C8,00,04,00,
40488851,00000227,false,Rx,1,8,00,00,00,00,07,00,1F,C5,
40489092,00000237,false,Rx,1,8,3C,41,00,00,00,00,00,00,
40489333,00000247,false,Rx,1,8,44,7D,6E,03,00,00,20,00,
40489580,00000717,false,Rx,1,8,01,00,00,00,00,00,00,00,
40498390,00000217,false,Rx,1,8,02,00,01,FD,9C,02,00,04,
40588564,00000207,false,Rx,1,8,00,00,C0,FF,C8,00,04,00,
40588811,00000227,false,Rx,1,8,00,00,00,00,06,00,1F,C5,
40589052,00000237,false,Rx,1,8,3C,41,00,00,00,00,00,00,
40589293,00000247,false,Rx,1,8,44,7D,6E,03,00,00,20,00,
40589540,00000717,false,Rx,1,8,02,00,00,00,00,00,00,00,
40598372,00000217,false,Rx,1,8,02,00,01,FD,9C,02,00,04,
40688546,00000207,false,Rx,1,8,00,00,C0,FF,C8,00,04,00,
40688793,00000227,false,Rx,1,8,00,00,00,00,05,00,1F,C5,
40689040,00000237,false,Rx,1,8,3C,41,00,00,00,00,00,00,
40689274,00000247,false,Rx,1,8,44,7D,6E,03,00,00,20,00,
40698335,00000217,false,Rx,1,8,02,00,01,FD,9C,02,00,04,
40788540,00000207,false,Rx,1,8,00,00,C0,FF,C8,00,04,00,
40788787,00000227,false,Rx,1,8,00,00,00,00,01,00,1F,C5,
40789034,00000237,false,Rx,1,8,3C,41,00,00,00,00,00,00,
40789268,00000247,false,Rx,1,8,44,7D,6E,03,00,00,20,00,
40789516,00000717,false,Rx,1,8,04,00,00,00,00,00,00,00,
40798326,00000217,false,Rx,1,8,02,00,01,FD,9C,02,00,04,
40888498,00000207,false,Rx,1,8,00,00,C0,FF,C8,00,04,00,
40888745,00000227,false,Rx,1,8,00,00,00,00,00,00,1F,C5,
40888985,00000237,false,Rx,1,8,3C,41,00,00,00,00,00,00,
40889226,00000247,false,Rx,1,8,44,7D,6E,03,00,00,20,00,
40889474,00000717,false,Rx,1,8,05,00,00,00,00,00,00,00,
40898283,00000217,false,Rx,1,8,02,00,01,FD,9C,02,00,04,
40988489,00000207,false,Rx,1,8,00,00,C0,FF,C8,00,04,00,
40988736,00000227,false,Rx,1,8,00,00,00,00,03,00,1F,C5,
40988983,00000237,false,Rx,1,8,3C,41,00,00,00,00,00,00,
40989224,00000247,false,Rx,1,8,44,7D,6E,03,00,00,20,00,
40989457,00000717,false,Rx,1,8,06,00,9E,45,66,06,00,40,
40998281,00000217,false,Rx,1,8,02,00,01,FD,9C,02,00,04,
41088369,00000367,false,Rx,1,8,00,00,00,00,00,00,00,00,
41088615,00000207,false,Rx,1,8,00,00,C0,FF,C8,00,04,00,
41088856,00000227,false,Rx,1,8,00,00,00,00,0C,00,1F,C5,
41089103,00000237,false,Rx,1,8,3C,41,00,00,00,00,00,00,
41089345,00000247,false,Rx,1,8,44,7D,6E,03,00,00,20,00,
41089585,00000717,false,Rx,1,8,07,00,00,00,02,0A,00,00,
41098271,00000217,false,Rx,1,8,02,00,01,FD,9C,02,00,04,
41098517,00000377,false,Rx,1,8,00,00,00,00,00,00,00,00,
41108364,00000347,false,Rx,1,8,00,00,00,00,00,08,00,00,
41118362,00000357,false,Rx,1,8,00,00,00,00,00,00,00,00,
41128359,00000327,false,Rx,1,8,00,00,00,00,00,00,00,00,
41138356,00000337,false,Rx,1,8,00,00,00,00,00,00,00,00,
41188436,00000207,false,Rx,1,8,00,00,C0,FF,C8,00,04,00,
41188684,00000227,false,Rx,1,8,00,00,00,00,02,00,1F,C5,
41188931,00000237,false,Rx,1,8,3C,41,00,00,00,00,00,00,
41189171,00000247,false,Rx,1,8,44,7D,6E,03,00,00,20,00,
41189412,00000717,false,Rx,1,8,08,00,00,00,E6,45,00,00,
41198229,00000217,false,Rx,1,8,02,00,01,FD,9C,02,00,04,
41288414,00000207,false,Rx,1,8,00,00,00,00,C8,00,04,00,
41288662,00000227,false,Rx,1,8,00,00,00,00,02,00,1F,C5,
41288909,00000237,false,Rx,1,8,3C,41,00,00,00,00,00,00,
41289149,00000247,false,Rx,1,8,44,7D,6E,03,00,00,20,00,
41289391,00000717,false,Rx,1,8,09,00,26,46,00,00,00,00,
41298220,00000217,false,Rx,1,8,02,00,01,FD,9C,02,00,04,
41388379,00000207,false,Rx,1,8,00,00,C0,FF,C8,00,04,00,
41388618,00000227,false,Rx,1,8,00,00,00,00,00,00,1F,C5,
41388866,00000237,false,Rx,1,8,3C,41,00,00,00,00,00,00,
41389105,00000247,false,Rx,1,8,44,7D,6E,03,00,00,20,00,
41389347,00000717,false,Rx,1,8,0A,00,00,00,00,00,00,00,
41398176,00000217,false,Rx,1,8,02,00,81,FC,9C,02,00,04,
41488377,00000207,false,Rx,1,8,00,00,C0,FF,C8,00,04,00,
41488623,00000227,false,Rx,1,8,00,00,00,00,01,00,1F,C5,
41488871,00000237,false,Rx,1,8,3C,41,00,00,00,00,00,00,
41489112,00000247,false,Rx,1,8,44,7D,6E,03,00,00,20,00,
41489353,00000717,false,Rx,1,8,0B,00,00,00,00,00,00,00,
41498184,00000217,false,Rx,1,8,02,00,81,FC,9C,02,00,04,
41588354,00000207,false,Rx,1,8,00,00,00,00,C8,00,04,00,
41588600,00000227,false,Rx,1,8,00,00,00,00,06,00,1F,C5,
41588849,00000237,false,Rx,1,8,3C,41,00,00,00,00,00,00,
41589089,00000247,false,Rx,1,8,44,7D,6E,03,00,00,20,00,
41589330,00000717,false,Rx,1,8,0C,01,00,04,04,00,01,00,
41598155,00000217,false,Rx,1,8,02,00,81,FC,9C,02,00,04,
41688306,00000207,false,Rx,1,8,00,00,C0,FF,C8,00,04,00,
41688552,00000227,false,Rx,1,8,00,00,00,00,03,00,1F,C5,
41688801,00000237,false,Rx,1,8,3C,41,00,00,00,00,00,00,
41689041,00000247,false,Rx,1,8,44,7D,6E,03,00,00,20,00,
41689282,00000717,false,Rx,1,8,0E,00,00,02,06,0E,00,00,
41698114,00000217,false,Rx,1,8,02,00,81,FC,9C,02,00,04,
41788318,00000207,false,Rx,1,8,00,00,C0,FF,C8,00,04,00,
41788558,00000227,false,Rx,1,8,00,00,00,00,01,00,1F,C5,
41788805,00000237,false,Rx,1,8,3C,41,00,00,00,00,00,00,
41789045,00000247,false,Rx,1,8,44,7D,6E,03,00,00,20,00,
41789280,00000717,false,Rx,1,8,0F,00,EB,01,D9,10,00,00,
41798118,00000217,false,Rx,1,8,02,00,81,FC,9C,02,00,04,
41888273,00000207,false,Rx,1,8,00,00,C0,FF,C8,00,04,00,
41888528,00000227,false,Rx,1,8,00,00,00,00,02,00,1F,C5,
41888768,00000237,false,Rx,1,8,3C,41,00,00,00,00,00,00,
41889007,00000247,false,Rx,1,8,44,7D,6E,03,00,00,20,00,
41889250,00000717,false,Rx,1,8,10,08,00,FF,04,90,FF,00,
41898096,00000217,false,Rx,1,8,02,00,81,FC,9C,02,00,04,
41988266,00000207,false,Rx,1,8,00,00,00,00,C8,00,04,00,
41988513,00000227,false,Rx,1,8,00,00,00,00,01,00,1F,C5,
41988760,00000237,false,Rx,1,8,3C,41,00,00,00,00,00,00,
41989001,00000247,false,Rx,1,8,44,7D,6E,03,00,00,20,00,
41989242,00000717,false,Rx,1,8,11,00,00,00,00,00,02,02,
41998065,00000217,false,Rx,1,8,02,00,81,FC,9C,02,00,04,
42088149,00000367,false,Rx,1,8,00,00,00,00,00,00,00,00,
42088397,00000207,false,Rx,1,8,00,00,00,00,C8,00,04,00,
42088645,00000227,false,Rx,1,8,00,00,00,00,04,00,1F,C5,
42088893,00000237,false,Rx,1,8,3C,41,00,00,00,00,00,00,
42089133,00000247,false,Rx,1,8,44,7D,6E,03,00,00,20,00,
42089368,00000717,false,Rx,1,8,12,40,26,00,27,00,15,00,
42098044,00000217,false,Rx,1,8,02,00,81,FC,9C,02,00,04,
42098291,00000377,false,Rx,1,8,00,00,00,00,00,00,00,00,
42108145,00000347,false,Rx,1,8,00,00,00,00,00,08,00,00,
42118145,00000357,false,Rx,1,8,00,00,00,00,00,00,00,00,
42128142,00000327,false,Rx,1,8,00,00,00,00,00,00,00,00,
42138140,00000337,false,Rx,1,8,00,00,00,00,00,00,00,00,
42188204,00000207,false,Rx,1,8,00,00,00,00,C8,00,04,00,
42188444,00000227,false,Rx,1,8,00,00,00,00,00,00,1F,C5,
42188692,00000237,false,Rx,1,8,3C,41,00,00,00,00,00,00,
42188932,00000247,false,Rx,1,8,44,7D,6E,03,00,00,20,00,
42189180,00000717,false,Rx,1,8,13,00,00,00,00,00,00,00,
42198006,00000217,false,Rx,1,8,02,00,81,FC,9C,02,00,04,
42288227,00000207,false,Rx,1,8,00,00,00,00,C8,00,04,00,
42288475,00000227,false,Rx,1,8,00,00,00,00,01,00,1F,C5,
42288715,00000237,false,Rx,1,8,3C,41,00,00,00,00,00,00,
42288955,00000247,false,Rx,1,8,44,7D,6E,03,00,00,20,00,
42289202,00000717,false,Rx,1,8,14,00,00,00,01,00,00,00,
42298010,00000217,false,Rx,1,8,02,00,81,FC,9C,02,00,04,
42388161,00000207,false,Rx,1,8,00,00,C0,FF,C8,00,04,00,
42388409,00000227,false,Rx,1,8,00,00,00,00,00,00,1F,C5,
42388657,00000237,false,Rx,1,8,3C,41,00,00,00,00,00,00,
42388889,00000247,false,Rx,1,8,44,7D,6E,03,00,00,20,00,
42397980,00000217,false,Rx,1,8,02,00,81,FC,9C,02,00,04,
42488139,00000207,false,Rx,1,8,00,00,00,00,C8,00,04,00,
42488387,00000227,false,Rx,1,8,00,00,00,00,00,00,1F,C5,
42488627,00000237,false,Rx,1,8,3C,41,00,00,00,00,00,00,
42488867,00000247,false,Rx,1,8,44,7D,6E,03,00,00,20,00,
42489108,00000717,false,Rx,1,8,16,00,00,00,00,00,DE,45,
42497940,00000217,false,Rx,1,8,02,00,81,FC,9C,02,00,04,
42588144,00000207,false,Rx,1,8,00,00,C0,FF,C8,00,04,00,
42588384,00000227,false,Rx,1,8,00,00,00,00,00,00,1F,C5,
42588631,00000237,false,Rx,1,8,3C,41,00,00,00,00,00,00,
42588872,00000247,false,Rx,1,8,44,7D,6E,03,00,00,20,00,
42589112,00000717,false,Rx,1,8,17,00,00,40,04,00,00,00,
42597949,00000217,false,Rx,1,8,02,00,81,FC,9C,02,00,04,
42688106,00000207,false,Rx,1,8,00,00,C0,FF,C8,00,04,00,
42688339,00000227,false,Rx,1,8,00,00,A8,7B,03,00,1F,C5,
42688587,00000237,false,Rx,1,8,3C,41,00,00,00,00,00,00,
42688819,00000247,false,Rx,1,8,44,7D,12,02,00,00,20,00,
42689074,00000717,false,Rx,1,8,18,00,00,00,00,00,00,00,
42697905,00000217,false,Rx,1,8,00,00,81,FC,9C,02,00,00,
42788108,00000207,false,Rx,1,8,00,00,C0,FF,C8,00,04,00,
42788355,00000227,false,Rx,1,8,00,00,2D,7F,01,00,1F,C5,
42788596,00000237,false,Rx,1,8,3C,41,00,00,00,00,00,00,
42788836,00000247,false,Rx,1,8,44,7D,08,02,00,00,20,00,
42789084,00000717,false,Rx,1,8,19,00,00,00,00,00,00,00,
42797900,00000217,false,Rx,1,8,00,00,81,FC,9C,02,00,00,
42888088,00000207,false,Rx,1,8,00,00,00,00,C8,00,04,00,
42888329,00000227,false,Rx,1,8,00,00,24,7F,01,00,1F,C5,
42888577,00000237,false,Rx,1,8,3C,41,00,00,00,00,00,00,
42888816,00000247,false,Rx,1,8,44,7D,08,02,00,00,20,00,
42889065,00000717,false,Rx,1,8,01,00,00,00,00,00,00,00,
42897880,00000217,false,Rx,1,8,00,00,81,FC,9C,02,00,00,
42988041,00000207,false,Rx,1,8,00,00,C0,FF,C8,00,04,00,
42988283,00000227,false,Rx,1,8,00,00,2A,7F,03,00,1F,C5,
42988530,00000237,false,Rx,1,8,3C,41,00,00,00,00,00,00,
42988763,00000247,false,Rx,1,8,44,7D,08,02,00,00,20,00,
42989011,00000717,false,Rx,1,8,02,00,00,00,00,00,00,00,
42997837,00000217,false,Rx,1,8,00,00,81,FC,9C,02,00,00,
43087941,00000367,false,Rx,1,8,00,00,00,00,00,00,00,00,
43088189,00000207,false,Rx,1,8,00,00,00,00,C8,00,04,00,
43088437,00000227,false,Rx,1,8,00,00,3B,7F,02,00,1F,C5,
43088677,00000237,false,Rx,1,8,3C,41,00,00,00,00,00,00,
43088918,00000247,false,Rx,1,8,44,7D,08,02,00,00,20,00,
43097839,00000217,false,Rx,1,8,00,00,81,FC,9C,02,00,00,
43098086,00000377,false,Rx,1,8,00,00,00,00,00,00,00,00,
43107941,00000347,false,Rx,1,8,00,00,00,00,00,08,00,00,
43117938,00000357,false,Rx,1,8,00,00,00,00,00,00,00,00,
43127935,00000327,false,Rx,1,8,00,00,00,00,00,00,00,00,
43137933,00000337,false,Rx,1,8,00,00,00,00,00,00,00,00,
43187993,00000207,false,Rx,1,8,00,00,C0,FF,C8,00,04,00,
43188240,00000227,false,Rx,1,8,00,00,2C,7F,00,00,1F,C5,
43188488,00000237,false,Rx,1,8,3C,41,00,00,00,00,00,00,
43188721,00000247,false,Rx,1,8,44,7D,08,02,00,00,20,00,
43188969,00000717,false,Rx,1,8,04,00,00,00,00,00,00,00,
43197817,00000217,false,Rx,1,8,00,00,01,FC,9C,02,00,00,
43287999,00000207,false,Rx,1,8,00,00,00,00,C8,00,04,00,
43288238,00000227,false,Rx,1,8,00,00,19,7F,01,00,1F,C5,
43288487,00000237,false,Rx,1,8,3C,41,00,00,00,00,00,00,
43288720,00000247,false,Rx,1,8,44,7D,08,02,00,00,20,00,
43288967,00000717,false,Rx,1,8,05,00,00,00,00,00,00,00,
43297794,00000217,false,Rx,1,8,00,00,01,FC,9C,02,00,00,
43387982,00000207,false,Rx,1,8,00,00,00,00,C8,00,04,00,
43388221,00000227,false,Rx,1,8,00,00,1E,7F,02,00,1F,C5,
43388463,00000237,false,Rx,1,8,3C,41,00,00,00,00,00,00,
43388703,00000247,false,Rx,1,8,44,7D,08,02,00,00,20,00,
43388935,00000717,false,Rx,1,8,06,00,5E,46,66,06,00,40,
43397776,00000217,false,Rx,1,8,00,00,01,FC,9C,02,00,00,
43487950,00000207,false,Rx,1,8,00,00,00,00,C8,00,04,00,
43488197,00000227,false,Rx,1,8,00,00,2F,7F,00,00,1F,C5,
43488438,00000237,false,Rx,1,8,3C,41,00,00,00,00,00,00,
43488678,00000247,false,Rx,1,8,44,7D,08,02,00,00,20,00,
43488919,00000717,false,Rx,1,8,07,00,00,00,00,0A,00,00,
43497735,00000217,false,Rx,1,8,00,00,01,FC,9C,02,00,00,
43587948,00000207,false,Rx,1,8,00,00,C0,FF,C8,00,04,00,
43588195,00000227,false,Rx,1,8,00,00,26,7F,05,00,1F,C5,
43588443,00000237,false,Rx,1,8,3C,41,00,00,00,00,00,00,
43588675,00000247,false,Rx,1,8,44,7D,08,02,00,00,20,00,
43588916,00000717,false,Rx,1,8,08,00,00,00,1A,46,00,00,
43597734,00000217,false,Rx,1,8,00,00,01,FC,9C,02,00,00,
43687913,00000207,false,Rx,1,8,00,00,00,00,C8,00,04,00,
43688152,00000227,false,Rx,1,8,00,00,32,7F,01,00,1F,C5,
43688400,00000237,false,Rx,1,8,3C,41,00,00,00,00,00,00,
43688634,00000247,false,Rx,1,8,44,7D,08,02,00,00,20,00,
43688874,00000717,false,Rx,1,8,09,00,5E,46,00,00,00,00,
43697703,00000217,false,Rx,1,8,00,00,01,FC,9C,02,00,00,
43787872,00000207,false,Rx,1,8,00,00,00,00,C8,00,04,00,
43788111,00000227,false,Rx,1,8,00,00,29,7F,01,00,1F,C5,
43788360,00000237,false,Rx,1,8,3C,41,00,00,00,00,00,00,
43788593,00000247,false,Rx,1,8,44,7D,08,02,00,00,20,00,
43788841,00000717,false,Rx,1,8,0A,00,00,00,00,00,00,00,
43797682,00000217,false,Rx,1,8,00,00,01,FC,9C,02,00,00,
43887895,00000207,false,Rx,1,8,00,00,00,00,C8,00,04,00,
43888141,00000227,false,Rx,1,8,00,00,32,7F,05,00,1F,C5,
43888383,00000237,false,Rx,1,8,3C,41,00,00,00,00,00,00,
43888623,00000247,false,Rx,1,8,44,7D,08,02,00,00,20,00,
43888863,00000717,false,Rx,1,8,0B,00,00,00,00,00,00,00,
43897674,00000217,false,Rx,1,8,00,00,01,FC,9C,02,00,00,
43987842,00000207,false,Rx,1,8,00,00,C0,FF,C8,00,04,00,
43988082,00000227,false,Rx,1,8,00,00,19,7F,00,00,1F,C5,
43988323,00000237,false,Rx,1,8,3C,41,00,00,00,00,00,00,
43988563,00000247,false,Rx,1,8,44,7D,08,02,00,00,20,00,
43988802,00000717,false,Rx,1,8,0C,01,00,00,00,00,02,00,
43997626,00000217,false,Rx,1,8,00,00,01,FC,9C,02,00,00,
44087736,00000367,false,Rx,1,8,00,00,00,00,00,00,00,00,
44087983,00000207,false,Rx,1,8,00,00,00,00,C8,00,04,00,
44088230,00000227,false,Rx,1,8,00,00,1F,7F,02,00,1F,C5,
44088472,00000237,false,Rx,1,8,3C,41,00,00,00,00,00,00,
44088706,00000247,false,Rx,1,8,44,7D,08,02,00,00,20,00,
44088946,00000717,false,Rx,1,8,0E,00,00,02,66,17,00,00,
44097630,00000217,false,Rx,1,8,00,00,01,FC,9C,02,00,00,
44097878,00000377,false,Rx,1,8,00,00,00,00,00,00,00,00,
44107724,00000347,false,Rx,1,8,00,00,00,00,00,08,00,00,
44117728,00000357,false,Rx,1,8,00,00,00,00,00,00,00,00,
44127718,00000327,false,Rx,1,8,00,00,00,00,00,00,00,00,
44137723,00000337,false,Rx,1,8,00,00,00,00,00,00,00,00,
44187832,00000207,false,Rx,1,8,00,00,C0,FF,C8,00,04,00,
44188071,00000227,false,Rx,1,8,00,00,13,7F,00,00,1F,C5,
44188320,00000237,false,Rx,1,8,3C,41,00,00,00,00,00,00,
44188554,00000247,false,Rx,1,8,44,7D,08,02,00,00,20,00,
44188786,00000717,false,Rx,1,8,0F,00,EB,01,30,11,00,00,
44197612,00000217,false,Rx,1,8,00,00,01,FC,9C,02,00,00,
44287765,00000207,false,Rx,1,8,00,00,C0,FF,C8,00,04,00,
44288003,00000227,false,Rx,1,8,00,00,2E,7F,00,00,1F,C5,
44288252,00000237,false,Rx,1,8,3C,41,00,00,00,00,00,00,
44288485,00000247,false,Rx,1,8,44,7D,08,02,00,00,20,00,
44288725,00000717,false,Rx,1,8,10,08,E0,FE,04,90,FF,00,
44297563,00000217,false,Rx,1,8,00,00,01,FC,9C,02,00,00,
44387769,00000207,false,Rx,1,8,00,00,00,00,C8,00,04,00,
44388008,00000227,false,Rx,1,8,00,00,24,7F,05,00,1F,C5,
44388258,00000237,false,Rx,1,8,3C,41,00,00,00,00,00,00,
44388491,00000247,false,Rx,1,8,44,7D,08,02,00,00,20,00,
44388730,00000717,false,Rx,1,8,11,00,12,E4,00,00,00,00,
44397555,00000217,false,Rx,1,8,00,00,01,FC,9C,02,00,00,
44487724,00000207,false,Rx,1,8,00,00,00,00,C8,00,04,00,
44487970,00000227,false,Rx,1,8,00,00,1D,7F,04,00,1F,C5,
44488211,00000237,false,Rx,1,8,3C,41,00,00,00,00,00,00,
44488452,00000247,false,Rx,1,8,44,7D,08,02,00,00,20,00,
44488684,00000717,false,Rx,1,8,12,40,27,00,27,00,15,00,
44497523,00000217,false,Rx,1,8,00,00,01,FC,9C,02,00,00,
44587733,00000207,false,Rx,1,8,00,00,C0,FF,C8,00,04,00,
44587973,00000227,false,Rx,1,8,00,00,1E,7F,04,00,1F,C5,
44588213,00000237,false,Rx,1,8,3C,41,00,00,00,00,00,00,
44588455,00000247,false,Rx,1,8,44,7D,08,02,00,00,20,00,
44588704,00000717,false,Rx,1,8,13,00,00,00,00,00,00,00,
44597520,00000217,false,Rx,1,8,00,00,01,FC,9C,02,00,00,
44687724,00000207,false,Rx,1,8,00,00,00,00,C8,00,04,00,
44687963,00000227,false,Rx,1,8,00,00,26,7F,03,00,1F,C5,
44688210,00000237,false,Rx,1,8,3C,41,00,00,00,00,00,00,
44688444,00000247,false,Rx,1,8,44,7D,08,02,00,00,20,00,
44688685,00000717,false,Rx,1,8,14,00,00,00,E2,FF,00,00,
44697500,00000217,false,Rx,1,8,00,00,01,FC,9C,02,00,00,
44787653,00000207,false,Rx,1,8,00,00,00,00,C8,00,04,00,
44787900,00000227,false,Rx,1,8,00,00,1E,7F,01,00,1F,C5,
44788140,00000237,false,Rx,1,8,3C,41,00,00,00,00,00,00,
44788382,00000247,false,Rx,1,8,44,7D,08,02,00,00,20,00,
44797452,00000217,false,Rx,1,8,00,00,01,FC,9C,02,00,00,
44887671,00000207,false,Rx,1,8,00,00,C0,FF,C8,00,04,00,
44887910,00000227,false,Rx,1,8,00,00,23,7F,03,00,1F,C5,
44888158,00000237,false,Rx,1,8,3C,41,00,00,00,00,00,00,
44888392,00000247,false,Rx,1,8,44,7D,08,02,00,00,20,00,
44888632,00000717,false,Rx,1,8,16,00,00,00,00,00,62,46,
44897455,00000217,false,Rx,1,8,00,00,01,FC,9C,02,00,00,
44987633,00000207,false,Rx,1,8,00,00,C0,FF,C8,00,04,00,
44987871,00000227,false,Rx,1,8,00,00,23,7F,00,00,1F,C5,
44988120,00000237,false,Rx,1,8,3C,41,00,00,00,00,00,00,
44988353,00000247,false,Rx,1,8,44,7D,08,02,00,00,20,00,
44988601,00000717,false,Rx,1,8,17,00,00,50,04,00,00,00,
44997440,00000217,false,Rx,1,8,00,00,01,FC,9C,02,00,00,
45087530,00000367,false,Rx,1,8,00,00,00,00,00,00,00,00,
45087776,00000207,false,Rx,1,8,00,00,C0,FF,C8,00,04,00,
45088009,00000227,false,Rx,1,8,00,00,46,7F,0E,00,1F,C5,
45088258,00000237,false,Rx,1,8,3C,41,00,00,00,00,00,00,
45088498,00000247,false,Rx,1,8,44,7D,07,02,00,00,20,00,
45088746,00000717,false,Rx,1,8,18,00,00,00,00,00,00,00,
45097409,00000217,false,Rx,1,8,00,00,01,FC,9C,02,00,00,
45097663,00000377,false,Rx,1,8,00,00,00,00,00,00,00,00,
45107525,00000347,false,Rx,1,8,00,00,00,00,00,08,00,00,
45117522,00000357,false,Rx,1,8,00,00,00,00,00,00,00,00,
45127519,00000327,false,Rx,1,8,00,00,00,00,00,00,00,00,
45137502,00000337,false,Rx,1,8,00,00,00,00,00,00,00,00,
45187594,00000207,false,Rx,1,8,00,00,00,00,C8,00,04,00,
45187834,00000227,false,Rx,1,8,00,00,44,7F,00,00,1F,C5,
45188082,00000237,false,Rx,1,8,3C,41,00,00,00,00,00,00,
45188323,00000247,false,Rx,1,8,44,7D,07,02,00,00,20,00,
45188571,00000717,false,Rx,1,8,19,00,00,00,00,00,00,00,
45197389,00000217,false,Rx,1,8,00,00,01,FC,9C,02,00,00,
45287551,00000207,false,Rx,1,8,00,00,C0,FF,C8,00,04,00,
45287797,00000227,false,Rx,1,8,00,00,40,7F,01,00,1F,C5,
45288037,00000237,false,Rx,1,8,3C,41,00,00,00,00,00,00,
45288279,00000247,false,Rx,1,8,44,7D,07,02,00,00,20,00,
45288526,00000717,false,Rx,1,8,01,00,00,00,00,00,00,00,
45297344,00000217,false,Rx,1,8,00,00,01,FC,9C,02,00,00,
45387558,00000207,false,Rx,1,8,00,00,00,00,C8,00,04,00,
45387804,00000227,false,Rx,1,8,00,00,38,7F,08,00,1F,C5,
45388044,00000237,false,Rx,1,8,3C,41,00,00,00,00,00,00,
45388286,00000247,false,Rx,1,8,44,7D,08,02,00,00,20,00,
45388534,00000717,false,Rx,1,8,02,00,00,00,00,00,00,00,
45397352,00000217,false,Rx,1,8,00,00,01,FC,9C,02,00,00,
45487518,00000207,false,Rx,1,8,00,00,C0,FF,C8,00,04,00,
45487764,00000227,false,Rx,1,8,00,00,3E,7F,13,00,1F,C5,
45488005,00000237,false,Rx,1,8,3C,41,00,00,00,00,00,00,
45488246,00000247,false,Rx,1,8,44,7D,07,02,00,00,20,00,
45497323,00000217,false,Rx,1,8,00,00,01,FC,9C,02,00,00,
45587490,00000207,false,Rx,1,8,00,00,C0,FF,C8,00,04,00,
45587729,00000227,false,Rx,1,8,00,00,35,7F,09,00,1F,C5,
45587977,00000237,false,Rx,1,8,3C,41,00,00,00,00,00,00,
45588209,00000247,false,Rx,1,8,44,7D,08,02,00,00,20,00,
45588458,00000717,false,Rx,1,8,04,00,00,00,00,00,00,00,
45597289,00000217,false,Rx,1,8,00,00,01,FC,9C,02,00,00,
45687485,00000207,false,Rx,1,8,00,00,C0,FF,C8,00,04,00,
45687733,00000227,false,Rx,1,8,00,00,32,7F,04,00,1F,C5,
45687972,00000237,false,Rx,1,8,3C,41,00,00,00,00,00,00,
45688212,00000247,false,Rx,1,8,44,7D,08,02,00,00,20,00,
45688454,00000717,false,Rx,1,8,05,00,00,00,00,00,00,00,
45697286,00000217,false,Rx,1,8,00,00,01,FC,9C,02,00,00,
45787444,00000207,false,Rx,1,8,00,00,C0,FF,C8,00,04,00,
45787684,00000227,false,Rx,1,8,00,00,2A,7F,03,00,1F,C5,
45787931,00000237,false,Rx,1,8,3C,41,00,00,00,00,00,00,
45788171,00000247,false,Rx,1,8,44,7D,08,02,00,00,20,00,
45788405,00000717,false,Rx,1,8,06,00,22,46,66,06,00,40,
45797251,00000217,false,Rx,1,8,00,00,01,FC,9C,02,00,00,
45887450,00000207,false,Rx,1,8,00,00,00,00,C8,00,04,00,
45887689,00000227,false,Rx,1,8,00,00,3A,7F,04,00,1F,C5,
45887936,00000237,false,Rx,1,8,3C,41,00,00,00,00,00,00,
45888170,00000247,false,Rx,1,8,44,7D,08,02,00,00,20,00,
45888418,00000717,false,Rx,1,8,07,00,00,00,00,0A,00,00,
45897239,00000217,false,Rx,1,8,00,00,01,FC,9C,02,00,00,
45987440,00000207,false,Rx,1,8,00,00,C0,FF,C8,00,04,00,
45987678,00000227,false,Rx,1,8,00,00,40,7F,00,00,1F,C5,
45987927,00000237,false,Rx,1,8,3C,41,00,00,00,00,00,00,
45988167,00000247,false,Rx,1,8,44,7D,07,02,00,00,20,00,
45988408,00000717,false,Rx,1,8,08,00,00,00,22,46,00,00,
45997215,00000217,false,Rx,1,8,00,00,01,FC,9C,02,00,00,
46087304,00000367,false,Rx,1,8,00,00,00,00,00,00,00,00,
46087550,00000207,false,Rx,1,8,00,00,C0,FF,C8,00,04,00,
46087791,00000227,false,Rx,1,8,00,00,39,7F,06,00,1F,C5,
46088039,00000237,false,Rx,1,8,3C,41,00,00,00,00,00,00,
46088272,00000247,false,Rx,1,8,44,7D,08,02,00,00,20,00,
46088512,00000717,false,Rx,1,8,09,00,62,46,00,00,00,00,
46097182,00000217,false,Rx,1,8,00,00,01,FC,9C,02,00,00,
46097429,00000377,false,Rx,1,8,00,00,00,00,00,00,00,00,
46107298,00000347,false,Rx,1,8,00,00,00,00,00,08,00,00,
46117301,00000357,false,Rx,1,8,00,00,00,00,00,00,00,00,
46127313,00000327,false,Rx,1,8,00,00,00,00,00,00,00,00,
46137311,00000337,false,Rx,1,8,00,00,00,00,00,00,00,00,
46187392,00000207,false,Rx,1,8,00,00,00,00,C8,00,04,00,
46187631,00000227,false,Rx,1,8,00,00,3E,7F,00,00,1F,C5,
46187879,00000237,false,Rx,1,8,3C,41,00,00,00,00,00,00,
46188119,00000247,false,Rx,1,8,44,7D,07,02,00,00,20,00,
46188368,00000717,false,Rx,1,8,0A,00,00,00,00,00,00,00,
46197177,00000217,false,Rx,1,8,00,00,01,FC,9C,02,00,00,
46287353,00000207,false,Rx,1,8,00,00,00,00,C8,00,04,00,
46287593,00000227,false,Rx,1,8,00,00,38,7F,01,00,1F,C5,
46287833,00000237,false,Rx,1,8,3C,41,00,00,00,00,00,00,
46288073,00000247,false,Rx,1,8,44,7D,08,02,00,00,20,00,
46288315,00000717,false,Rx,1,8,0B,00,00,00,00,00,00,00,
46297154,00000217,false,Rx,1,8,00,00,01,FC,9C,02,00,00,
46387339,00000207,false,Rx,1,8,00,00,C0,FF,C8,00,04,00,
46387578,00000227,false,Rx,1,8,00,00,37,7F,00,00,1F,C5,
46387825,00000237,false,Rx,1,8,3C,41,00,00,00,00,00,00,
46388059,00000247,false,Rx,1,8,44,7D,08,02,00,00,20,00,
46388300,00000717,false,Rx,1,8,0C,01,00,00,00,00,02,00,
46397131,00000217,false,Rx,1,8,00,00,01,FC,9C,02,00,00,
46487317,00000207,false,Rx,1,8,00,00,C0,FF,C8,00,04,00,
46487556,00000227,false,Rx,1,8,00,00,41,7F,02,00,1F,C5,
46487803,00000237,false,Rx,1,8,3C,41,00,00,00,00,00,00,
46488044,00000247,false,Rx,1,8,44,7D,07,02,00,00,20,00,
46488285,00000717,false,Rx,1,8,0E,00,00,02,C6,20,00,00,
46497117,00000217,false,Rx,1,8,00,00,01,FC,9C,02,00,00,
46587286,00000207,false,Rx,1,8,00,00,C0,FF,C8,00,04,00,
46587525,00000227,false,Rx,1,8,00,00,39,7F,08,00,1F,C5,
46587773,00000237,false,Rx,1,8,3C,41,00,00,00,00,00,00,
46588006,00000247,false,Rx,1,8,44,7D,08,02,00,00,20,00,
46588238,00000717,false,Rx,1,8,0F,00,EB,01,91,0E,00,00,
46597078,00000217,false,Rx,1,8,00,00,01,FC,9C,02,00,00,
46687279,00000207,false,Rx,1,8,00,00,00,00,C8,00,04,00,
46687517,00000227,false,Rx,1,8,00,00,42,7F,04,00,1F,C5,
46687766,00000237,false,Rx,1,8,3C,41,00,00,00,00,00,00,
46688006,00000247,false,Rx,1,8,44,7D,07,02,00,00,20,00,
46688238,00000717,false,Rx,1,8,10,08,E0,FE,04,90,FF,00,
46697071,00000217,false,Rx,1,8,00,00,01,FC,9C,02,00,00,
46787224,00000207,false,Rx,1,8,00,00,C0,FF,C8,00,04,00,
46787466,00000227,false,Rx,1,8,00,00,3B,7F,04,00,1F,C5,
46787713,00000237,false,Rx,1,8,3C,41,00,00,00,00,00,00,
46787946,00000247,false,Rx,1,8,44,7D,08,02,00,00,20,00,
46788187,00000717,false,Rx,1,8,11,00,12,E4,00,00,00,00,
46797041,00000217,false,Rx,1,8,00,00,01,FC,9C,02,00,00,
46887222,00000207,false,Rx,1,8,00,00,C0,FF,C8,00,04,00,
46887463,00000227,false,Rx,1,8,00,00,2D,7F,01,00,1F,C5,
46887711,00000237,false,Rx,1,8,3C,41,00,00,00,00,00,00,
46887943,00000247,false,Rx,1,8,44,7D,08,02,00,00,20,00,
46888184,00000717,false,Rx,1,8,12,40,27,00,27,00,16,00,
46897015,00000217,false,Rx,1,8,00,00,01,FC,9C,02,00,00,
46987220,00000207,false,Rx,1,8,00,00,00,00,C8,00,04,00,
46987460,00000227,false,Rx,1,8,00,00,33,7F,05,00,1F,C5,
46987707,00000237,false,Rx,1,8,3C,41,00,00,00,00,00,00,
46987941,00000247,false,Rx,1,8,44,7D,08,02,00,00,20,00,
46988188,00000717,false,Rx,1,8,13,00,00,00,00,00,00,00,
46997010,00000217,false,Rx,1,8,00,00,01,FC,9C,02,00,00,
47087084,00000367,false,Rx,1,8,00,00,00,00,00,00,00,00,
47087331,00000207,false,Rx,1,8,00,00,C0,FF,C8,00,04,00,
47087571,00000227,false,Rx,1,8,00,00,2C,7F,02,00,1F,C5,
47087820,00000237,false,Rx,1,8,3C,41,00,00,00,00,00,00,
47088052,00000247,false,Rx,1,8,44,7D,08,02,00,00,20,00,
47088293,00000717,false,Rx,1,8,14,00,00,00,F0,FF,00,00,
47096964,00000217,false,Rx,1,8,00,00,01,FC,9C,02,00,00,
47097210,00000377,false,Rx,1,8,00,00,00,00,00,00,00,00,
47107078,00000347,false,Rx,1,8,00,00,00,00,00,08,00,00,
47117079,00000357,false,Rx,1,8,00,00,00,00,00,00,00,00,
47127076,00000327,false,Rx,1,8,00,00,00,00,00,00,00,00,
47137074,00000337,false,Rx,1,8,00,00,00,00,00,00,00,00,
47187166,00000207,false,Rx,1,8,00,00,00,00,C8,00,04,00,
47187406,00000227,false,Rx,1,8,00,00,28,7F,0C,00,1F,C5,
47187655,00000237,false,Rx,1,8,3C,41,00,00,00,00,00,00,
47187887,00000247,false,Rx,1,8,44,7D,08,02,00,00,20,00,
47196955,00000217,false,Rx,1,8,00,00,01,FC,9C,02,00,00,
47287121,00000207,false,Rx,1,8,00,00,C0,FF,C8,00,04,00,
47287368,00000227,false,Rx,1,8,00,00,26,7F,01,00,1F,C5,
47287609,00000237,false,Rx,1,8,3C,41,00,00,00,00,00,00,
47287849,00000247,false,Rx,1,8,44,7D,08,02,00,00,20,00,
47288089,00000717,false,Rx,1,8,16,00,00,00,00,00,A6,45,
47296943,00000217,false,Rx,1,8,00,00,01,FC,9C,02,00,00,
47387103,00000207,false,Rx,1,8,00,00,C0,FF,C8,00,04,00,
47387338,00000227,false,Rx,1,8,00,00,3A,7F,03,00,1F,C5,
47387585,00000237,false,Rx,1,8,3C,41,00,00,00,00,00,00,
47387825,00000247,false,Rx,1,8,44,7D,08,02,00,00,20,00,
47388066,00000717,false,Rx,1,8,17,00,00,50,04,00,00,00,
47396905,00000217,false,Rx,1,8,00,00,01,FC,9C,02,00,00,
47487101,00000207,false,Rx,1,8,00,00,00,00,C8,00,04,00,
47487341,00000227,false,Rx,1,8,00,00,43,7F,08,00,1F,C5,
47487589,00000237,false,Rx,1,8,3C,41,00,00,00,00,00,00,
47487830,00000247,false,Rx,1,8,44,7D,07,02,00,00,20,00,
47488077,00000717,false,Rx,1,8,18,00,00,00,00,00,00,00,
47496899,00000217,false,Rx,1,8,00,00,01,FC,9C,02,00,00,
47587062,00000207,false,Rx,1,8,00,00,C0,FF,C8,00,04,00,
47587302,00000227,false,Rx,1,8,00,00,47,7F,04,00,1F,C5,
47587549,00000237,false,Rx,1,8,3C,41,00,00,00,00,00,00,
47587783,00000247,false,Rx,1,8,44,7D,07,02,00,00,20,00,
47588030,00000717,false,Rx,1,8,19,00,00,00,00,00,00,00,
47596852,00000217,false,Rx,1,8,00,00,01,FC,9C,02,00,00,
47687066,00000207,false,Rx,1,8,00,00,C0,FF,C8,00,04,00,
47687306,00000227,false,Rx,1,8,00,00,42,7F,03,00,1F,C5,
47687555,00000237,false,Rx,1,8,3C,41,00,00,00,00,00,00,
47687795,00000247,false,Rx,1,8,44,7D,07,02,00,00,20,00,
47688042,00000717,false,Rx,1,8,01,00,00,00,00,00,00,00,
47696858,00000217,false,Rx,1,8,00,00,01,FC,9C,02,00,00,
47787045,00000207,false,Rx,1,8,00,00,00,00,C8,00,04,00,
47787285,00000227,false,Rx,1,8,00,00,48,7F,04,00,1F,C5,
47787533,00000237,false,Rx,1,8,3C,41,00,00,00,00,00,00,
47787773,00000247,false,Rx,1,8,44,7D,07,02,00,00,20,00,
47788020,00000717,false,Rx,1,8,02,00,00,00,00,00,00,00,
47796837,00000217,false,Rx,1,8,00,00,01,FC,9C,02,00,00,
47886989,00000207,false,Rx,1,8,00,00,00,00,C8,00,04,00,
47887237,00000227,false,Rx,1,8,00,00,3F,7F,02,00,1F,C5,
47887478,00000237,false,Rx,1,8,3C,41,00,00,00,00,00,00,
47887718,00000247,false,Rx,1,8,44,7D,07,02,00,00,20,00,
47896794,00000217,false,Rx,1,8,00,00,01,FC,9C,02,00,00,
47987013,00000207,false,Rx,1,8,00,00,C0,FF,C8,00,04,00,
47987253,00000227,false,Rx,1,8,00,00,43,7F,04,00,1F,C5,
47987493,00000237,false,Rx,1,8,3C,41,00,00,00,00,00,00,
47987733,00000247,false,Rx,1,8,44,7D,07,02,00,00,20,00,
47987982,00000717,false,Rx,1,8,04,00,00,00,00,00,00,00,
47996797,00000217,false,Rx,1,8,00,00,01,FC,9C,02,00,00,
48086874,00000367,false,Rx,1,8,00,00,00,00,00,00,00,00,
48087120,00000207,false,Rx,1,8,00,00,C0,FF,C8,00,04,00,
48087361,00000227,false,Rx,1,8,00,00,31,7F,00,00,1F,C5,
48087608,00000237,false,Rx,1,8,3C,41,00,00,00,00,00,00,
48087842,00000247,false,Rx,1,8,44,7D,08,02,00,00,20,00,
48088089,00000717,false,Rx,1,8,05,00,00,00,00,00,00,00,
48096774,00000217,false,Rx,1,8,00,00,01,FC,9C,02,00,00,
48097021,00000377,false,Rx,1,8,00,00,00,00,00,00,00,00,
48106870,00000347,false,Rx,1,8,00,00,00,00,00,08,00,00,
48116867,00000357,false,Rx,1,8,00,00,00,00,00,00,00,00,
48126865,00000327,false,Rx,1,8,00,00,00,00,00,00,00,00,
48136863,00000337,false,Rx,1,8,00,00,00,00,00,00,00,00,
48186952,00000207,false,Rx,1,8,00,00,C0,FF,C8,00,04,00,
48187198,00000227,false,Rx,1,8,00,00,3A,7F,04,00,1F,C5,
48187440,00000237,false,Rx,1,8,3C,41,00,00,00,00,00,00,
48187681,00000247,false,Rx,1,8,44,7D,08,02,00,00,20,00,
48187913,00000717,false,Rx,1,8,06,00,2A,46,66,06,00,40,
48196755,00000217,false,Rx,1,8,00,00,01,FC,9C,02,00,00,
48286945,00000207,false,Rx,1,8,00,00,00,00,C8,00,04,00,
48287191,00000227,false,Rx,1,8,00,00,39,7F,04,00,1F,C5,
48287433,00000237,false,Rx,1,8,3C,41,00,00,00,00,00,00,
48287673,00000247,false,Rx,1,8,44,7D,08,02,00,00,20,00,
48287913,00000717,false,Rx,1,8,07,00,00,00,00,0A,00,00,
48296724,00000217,false,Rx,1,8,00,00,01,FC,9C,02,00,00,
48386887,00000207,false,Rx,1,8,00,00,C0,FF,C8,00,04,00,
48387134,00000227,false,Rx,1,8,00,00,77,79,05,00,1F,C5,
48387376,00000237,false,Rx,1,8,3C,41,00,00,00,00,00,00,
48387615,00000247,false,Rx,1,8,44,7D,19,02,00,00,20,00,
48387855,00000717,false,Rx,1,8,08,00,00,00,26,46,00,00,
48396688,00000217,false,Rx,1,8,00,00,01,FC,9C,02,00,00,
48486895,00000207,false,Rx,1,8,00,00,C0,FF,C8,00,04,00,
48487135,00000227,false,Rx,1,8,00,00,46,70,07,00,1F,C5,
48487383,00000237,false,Rx,1,8,3C,41,00,00,00,00,00,00,
48487623,00000247,false,Rx,1,8,44,7D,40,02,00,00,20,00,
48487856,00000717,false,Rx,1,8,09,00,62,46,00,00,00,00,
48496688,00000217,false,Rx,1,8,00,00,01,FC,9C,02,00,00,
48586847,00000207,false,Rx,1,8,00,00,00,00,C8,00,04,00,
48587086,00000227,false,Rx,1,8,00,00,C9,67,01,00,1F,C5,
48587327,00000237,false,Rx,1,8,3C,41,00,00,00,00,00,00,
48587567,00000247,false,Rx,1,8,44,7D,7B,02,00,00,20,00,
48587808,00000717,false,Rx,1,8,0A,00,00,00,00,00,00,00,
48596660,00000217,false,Rx,1,8,00,00,01,FC,9C,02,00,00,
48686829,00000207,false,Rx,1,8,00,00,C0,FF,C8,00,04,00,
48687068,00000227,false,Rx,1,8,00,00,F1,5F,00,00,1F,C5,
48687317,00000237,false,Rx,1,8,3C,41,00,00,00,00,00,00,
48687550,00000247,false,Rx,1,8,44,7D,E4,02,00,00,20,00,
48687797,00000717,false,Rx,1,8,0B,00,00,00,00,00,00,00,
48696635,00000217,false,Rx,1,8,00,00,01,FC,9C,02,00,00,
48786820,00000207,false,Rx,1,8,00,00,C0,FF,C8,00,04,00,
48787058,00000227,false,Rx,1,8,00,00,AA,58,01,00,1F,C5,
48787309,00000237,false,Rx,1,8,3C,41,00,00,00,00,00,00,
48787541,00000247,false,Rx,1,8,44,7D,6E,03,00,00,20,00,
48787789,00000717,false,Rx,1,8,0C,01,00,00,00,00,02,00,
48796621,00000217,false,Rx,1,8,00,00,81,FC,9C,02,00,00,
48886796,00000207,false,Rx,1,8,00,00,C0,FF,C8,00,04,00,
48887035,00000227,false,Rx,1,8,00,00,FB,51,04,00,1F,C5,
48887285,00000237,false,Rx,1,8,3C,41,00,00,00,00,00,00,
48887518,00000247,false,Rx,1,8,44,7D,6E,03,00,00,20,00,
48887765,00000537,false,Rx,1,8,0A,01,0E,00,FC,00,3F,00,
48887999,00000717,false,Rx,1,8,0E,00,00,02,26,2A,00,00,
48896586,00000217,false,Rx,1,8,00,00,81,FC,9C,02,00,00,
48986784,00000207,false,Rx,1,8,00,00,C0,FF,C8,00,04,00,
48987017,00000227,false,Rx,1,8,00,00,C4,4B,0C,00,1F,C5,
48987265,00000237,false,Rx,1,8,3C,41,00,00,00,00,00,00,
48987505,00000247,false,Rx,1,8,44,7D,6E,03,00,00,20,00,
48987738,00000717,false,Rx,1,8,0F,00,EB,01,53,0E,00,00,
48996577,00000217,false,Rx,1,8,00,00,81,FC,9C,02,00,00,
49086653,00000367,false,Rx,1,8,00,00,00,00,00,00,00,00,
49086901,00000207,false,Rx,1,8,00,00,C0,FF,C8,00,04,00,
49087140,00000227,false,Rx,1,8,00,00,02,46,0C,00,1F,C5,
49087389,00000237,false,Rx,1,8,3C,41,00,00,00,00,00,00,
49087622,00000247,false,Rx,1,8,44,7D,6E,03,00,00,20,00,
49087862,00000717,false,Rx,1,8,10,08,E0,FE,04,90,FF,00,
49096548,00000217,false,Rx,1,8,00,00,81,FC,9C,02,00,00,
49096795,00000377,false,Rx,1,8,00,00,00,00,00,00,00,00,
49106648,00000347,false,Rx,1,8,00,00,00,00,00,08,00,00,
49116645,00000357,false,Rx,1,8,00,00,00,00,00,00,00,00,
49126643,00000327,false,Rx,1,8,00,00,00,00,00,00,00,00,
49136640,00000337,false,Rx,1,8,00,00,00,00,00,00,00,00,
49186722,00000207,false,Rx,1,8,00,00,00,00,C8,00,04,00,
49186960,00000227,false,Rx,1,8,00,00,B6,40,01,00,1F,C5,
49187208,00000237,false,Rx,1,8,3C,41,00,00,00,00,00,00,
49187450,00000247,false,Rx,1,8,44,7D,6E,03,00,00,20,00,
49187690,00000717,false,Rx,1,8,11,00,12,E4,00,00,00,00,
49196513,00000217,false,Rx,1,8,00,00,81,FC,9C,02,00,00,
49286739,00000207,false,Rx,1,8,00,00,C0,FF,C8,00,04,00,
49286971,00000227,false,Rx,1,8,00,00,CD,3B,03,00,1F,C5,
49287218,00000237,false,Rx,1,8,3C,41,00,00,00,00,00,00,
49287460,00000247,false,Rx,1,8,44,7D,6E,03,00,00,20,00,
49287692,00000717,false,Rx,1,8,12,40,27,00,27,00,16,00,
49296517,00000217,false,Rx,1,8,00,00,81,FC,9C,02,00,00,
49386673,00000207,false,Rx,1,8,00,00,C0,FF,C8,00,04,00,
49386912,00000227,false,Rx,1,8,00,00,3F,37,01,00,1F,C5,
49387153,00000237,false,Rx,1,8,3C,41,00,00,00,00,00,00,
49387395,00000247,false,Rx,1,8,44,7D,6E,03,00,00,20,00,
49387642,00000717,false,Rx,1,8,13,00,00,00,00,00,00,00,
49396467,00000217,false,Rx,1,8,00,00,81,FC,9C,02,00,00,
49486668,00000207,false,Rx,1,8,00,00,C0,FF,C8,00,04,00,
49486907,00000227,false,Rx,1,8,00,00,09,33,01,00,1F,C5,
49487155,00000237,false,Rx,1,8,3C,41,00,00,00,00,00,00,
49487398,00000247,false,Rx,1,8,44,7D,6E,03,00,00,20,00,
49487638,00000717,false,Rx,1,8,14,00,00,00,10,00,00,00,
49496462,00000217,false,Rx,1,8,00,00,81,FC,9C,02,00,00,
49586653,00000207,false,Rx,1,8,00,00,C0,FF,C8,00,04,00,
49586893,00000227,false,Rx,1,8,00,00,20,2F,00,00,1F,C5,
49587140,00000237,false,Rx,1,8,3C,41,00,00,00,00,00,00,
49587374,00000247,false,Rx,1,8,44,7D,6E,03,00,00,20,00,
49596450,00000217,false,Rx,1,8,00,00,81,FC,9C,02,00,00,
49686608,00000207,false,Rx,1,8,00,00,C0,FF,C8,00,04,00,
49686847,00000227,false,Rx,1,8,00,00,88,2B,04,00,1F,C5,
49687094,00000237,false,Rx,1,8,3C,41,00,00,00,00,00,00,
49687335,00000247,false,Rx,1,8,44,7D,6E,03,00,00,20,00,
49687576,00000717,false,Rx,1,8,16,00,00,00,00,00,62,46,
49696409,00000217,false,Rx,1,8,00,00,81,FC,9C,02,00,00,
49786613,00000207,false,Rx,1,8,00,00,00,00,C8,00,04,00,
49786852,00000227,false,Rx,1,8,00,00,2F,28,05,00,1F,C5,
49787099,00000237,false,Rx,1,8,3C,41,00,00,00,00,00,00,
49787335,00000247,false,Rx,1,8,44,7D,6E,03,00,00,20,00,
49787583,00000537,false,Rx,1,8,0B,00,05,06,00,00,00,00,
49787823,00000717,false,Rx,1,8,17,00,00,50,04,00,00,00,
49796402,00000217,false,Rx,1,8,00,00,81,FC,9C,02,00,00,
49886563,00000207,false,Rx,1,8,00,00,00,00,C8,00,04,00,
49886801,00000227,false,Rx,1,8,00,00,1B,25,00,00,1F,C5,
49887049,00000237,false,Rx,1,8,3C,41,00,00,00,00,00,00,
49887283,00000247,false,Rx,1,8,44,7D,6E,03,00,00,20,00,
49887531,00000717,false,Rx,1,8,18,00,00,00,00,00,00,00,
49896377,00000217,false,Rx,1,8,00,00,81,FC,9C,02,00,00,
49986560,00000207,false,Rx,1,8,00,00,00,00,C8,00,04,00,
49986806,00000227,false,Rx,1,8,00,00,3C,22,00,00,1F,C5,
49987047,00000237,false,Rx,1,8,3C,41,00,00,00,00,00,00,
49987288,00000247,false,Rx,1,8,44,7D,6E,03,00,00,20,00,
49987535,00000717,false,Rx,1,8,19,00,00,00,00,00,00,00,
49996369,00000217,false,Rx,1,8,00,00,81,FC,9C,02,00,00,
50086451,00000367,false,Rx,1,8,00,00,00,00,00,00,00,00,
50086698,00000207,false,Rx,1,8,00,00,C0,FF,C8,00,04,00,
50086931,00000227,false,Rx,1,8,00,00,9A,1F,01,00,1F,C5,
50087178,00000237,false,Rx,1,8,3C,41,00,00,00,00,00,00,
50087420,00000247,false,Rx,1,8,44,7D,6E,03,00,00,20,00,
50087661,00000717,false,Rx,1,8,01,00,00,00,00,00,00,00,
50096346,00000217,false,Rx,1,8,00,00,81,FC,9C,02,00,00,
50096592,00000377,false,Rx,1,8,00,00,00,00,00,00,00,00,
50106441,00000347,false,Rx,1,8,00,00,00,00,00,08,00,00,
50116444,00000357,false,Rx,1,8,00,00,00,00,00,00,00,00,
50126434,00000327,false,Rx,1,8,00,00,00,00,00,00,00,00,
50136431,00000337,false,Rx,1,8,00,00,00,00,00,00,00,00,
50186501,00000207,false,Rx,1,8,00,00,00,00,C8,00,04,00,
50186741,00000227,false,Rx,1,8,00,00,25,1D,01,00,1F,C5,
50186989,00000237,false,Rx,1,8,3C,41,00,00,00,00,00,00,
50187229,00000247,false,Rx,1,8,44,7D,6E,03,00,00,20,00,
50187478,00000717,false,Rx,1,8,02,00,00,00,00,00,00,00,
50196301,00000217,false,Rx,1,8,00,00,81,FC,9C,02,00,00,
50286498,00000207,false,Rx,1,8,00,00,C0,FF,C8,00,04,00,
50286737,00000227,false,Rx,1,8,00,00,DE,1A,01,00,1F,C5,
50286984,00000237,false,Rx,1,8,3C,41,00,00,00,00,00,00,
50287225,00000247,false,Rx,1,8,44,7D,6E,03,00,00,20,00,
50296294,00000217,false,Rx,1,8,00,00,81,FC,9C,02,00,00,
50386460,00000207,false,Rx,1,8,00,00,C0,FF,C8,00,04,00,
50386699,00000227,false,Rx,1,8,00,00,CA,18,03,00,1F,C5,
50386946,00000237,false,Rx,1,8,3C,41,00,00,00,00,00,00,
50387180,00000247,false,Rx,1,8,44,7D,6E,03,00,00,20,00,
50387428,00000717,false,Rx,1,8,04,00,00,00,00,00,00,00,
50396284,00000217,false,Rx,1,8,00,00,81,FC,9C,02,00,00,
50486450,00000207,false,Rx,1,8,00,00,C0,FF,C8,00,04,00,
50486689,00000227,false,Rx,1,8,00,00,D2,16,08,00,1F,C5,
50486938,00000237,false,Rx,1,8,3C,41,00,00,00,00,00,00,
50487177,00000247,false,Rx,1,8,44,7D,6E,03,00,00,20,00,
50487418,00000717,false,Rx,1,8,05,00,00,00,00,00,00,00,
50496243,00000217,false,Rx,1,8,00,00,81,FC,9C,02,00,00,
50586441,00000207,false,Rx,1,8,00,00,C0,FF,C8,00,04,00,
50586680,00000227,false,Rx,1,8,00,00,0A,15,02,00,1F,C5,
50586921,00000237,false,Rx,1,8,3C,41,00,00,00,00,00,00,
50587161,00000247,false,Rx,1,8,44,7D,6E,03,00,00,20,00,
50587394,00000717,false,Rx,1,8,06,00,AA,45,66,06,00,40,
50596232,00000217,false,Rx,1,8,00,00,81,FC,9C,02,00,00,
50686386,00000207,false,Rx,1,8,00,00,C0,FF,C8,00,04,00,
50686626,00000227,false,Rx,1,8,00,00,5A,13,02,00,1F,C5,
50686873,00000237,false,Rx,1,8,3C,41,00,00,00,00,00,00,
50687113,00000247,false,Rx,1,8,44,7D,6E,03,00,00,20,00,
50687355,00000537,false,Rx,1,8,0D,00,00,00,7D,F1,02,85,
50687595,00000717,false,Rx,1,8,07,00,00,00,00,0A,00,00,
50696194,00000217,false,Rx,1,8,00,00,81,FC,9C,02,00,00,
50786392,00000207,false,Rx,1,8,00,00,00,00,C8,00,04,00,
50786631,00000227,false,Rx,1,8,00,00,D6,11,00,00,1F,C5,
50786878,00000237,false,Rx,1,8,3C,41,00,00,00,00,00,00,
50787118,00000247,false,Rx,1,8,44,7D,6E,03,00,00,20,00,
50787360,00000717,false,Rx,1,8,08,00,00,00,EE,45,00,00,
50796196,00000217,false,Rx,1,8,00,00,81,FC,9C,02,00,00,
50886375,00000207,false,Rx,1,8,00,00,C0,FF,C8,00,04,00,
50886621,00000227,false,Rx,1,8,00,00,62,10,01,00,1F,C5,
50886868,00000237,false,Rx,1,8,3C,41,00,00,00,00,00,00,
50887102,00000247,false,Rx,1,8,44,7D,6E,03,00,00,20,00,
50887343,00000717,false,Rx,1,8,09,00,1E,46,00,00,00,00,
50896174,00000217,false,Rx,1,8,00,00,81,FC,9C,02,00,00,
50986328,00000207,false,Rx,1,8,00,00,00,00,C8,00,04,00,
50986567,00000227,false,Rx,1,8,00,00,0F,0F,07,00,1F,C5,
50986814,00000237,false,Rx,1,8,3C,41,00,00,00,00,00,00,
50987055,00000247,false,Rx,1,8,44,7D,6E,03,00,00,20,00,
50987304,00000717,false,Rx,1,8,0A,00,00,00,00,00,00,00,
50996127,00000217,false,Rx,1,8,00,00,81,FC,9C,02,00,00,
51086224,00000367,false,Rx,1,8,00,00,00,00,00,00,00,00,
51086472,00000207,false,Rx,1,8,00,00,C0,FF,C8,00,04,00,
51086706,00000227,false,Rx,1,8,00,00,D9,0D,09,00,1F,C5,
51086953,00000237,false,Rx,1,8,3C,41,00,00,00,00,00,00,
51087193,00000247,false,Rx,1,8,44,7D,6E,03,00,00,20,00,
51087435,00000717,false,Rx,1,8,0B,00,00,00,00,00,00,00,
51096124,00000217,false,Rx,1,8,00,00,81,FC,9C,02,00,00,
51096372,00000377,false,Rx,1,8,00,00,00,00,00,00,00,00,
51106220,00000347,false,Rx,1,8,00,00,00,00,00,08,00,00,
51116217,00000357,false,Rx,1,8,00,00,00,00,00,00,00,00,
51126229,00000327,false,Rx,1,8,00,00,00,00,00,00,00,00,
51136213,00000337,false,Rx,1,8,00,00,00,00,00,00,00,00,
51186305,00000207,false,Rx,1,8,00,00,C0,FF,C8,00,04,00,
51186545,00000227,false,Rx,1,8,00,00,B6,0C,00,00,1F,C5,
51186792,00000237,false,Rx,1,8,3C,41,00,00,00,00,00,00,
51187032,00000247,false,Rx,1,8,44,7D,6E,03,00,00,20,00,
51187274,00000717,false,Rx,1,8,0C,01,00,00,00,00,01,00,
51196111,00000217,false,Rx,1,8,00,00,81,FC,9C,02,00,00,
51286296,00000207,false,Rx,1,8,00,00,00,00,C8,00,04,00,
51286536,00000227,false,Rx,1,8,00,00,AC,0B,02,00,1F,C5,
51286783,00000237,false,Rx,1,8,3C,41,00,00,00,00,00,00,
51287015,00000247,false,Rx,1,8,44,7D,6E,03,00,00,20,00,
51287258,00000717,false,Rx,1,8,0E,00,00,02,86,33,00,00,
51296086,00000217,false,Rx,1,8,00,00,81,FC,9C,02,00,00,
51386264,00000207,false,Rx,1,8,00,00,C0,FF,C8,00,04,00,
51386510,00000227,false,Rx,1,8,00,00,B0,0A,07,00,1F,C5,
51386750,00000237,false,Rx,1,8,3C,41,00,00,00,00,00,00,
51386991,00000247,false,Rx,1,8,44,7D,6E,03,00,00,20,00,
51387231,00000717,false,Rx,1,8,0F,00,EB,01,28,11,00,00,
51396063,00000217,false,Rx,1,8,00,00,81,FC,9C,02,00,00,
51486231,00000207,false,Rx,1,8,00,00,00,00,C8,00,04,00,
51486470,00000227,false,Rx,1,8,00,00,CA,09,03,00,1F,C5,
51486710,00000237,false,Rx,1,8,3C,41,00,00,00,00,00,00,
51486951,00000247,false,Rx,1,8,44,7D,6E,03,00,00,20,00,
51487191,00000717,false,Rx,1,8,10,08,E0,FE,04,90,FF,00,
51496016,00000217,false,Rx,1,8,00,00,81,FC,9C,02,00,00,
51586227,00000207,false,Rx,1,8,00,00,00,00,C8,00,04,00,
51586467,00000227,false,Rx,1,8,00,00,F2,08,01,00,1F,C5,
51586708,00000237,false,Rx,1,8,3C,41,00,00,00,00,00,00,
51586948,00000247,false,Rx,1,8,44,7D,6E,03,00,00,20,00,
51587195,00000537,false,Rx,1,8,0E,00,00,00,00,00,00,00,
51587438,00000717,false,Rx,1,8,11,00,43,F9,00,00,00,00,
51596022,00000217,false,Rx,1,8,00,00,81,FC,9C,02,00,00,
51686177,00000207,false,Rx,1,8,00,00,C0,FF,C8,00,04,00,
51686417,00000227,false,Rx,1,8,00,00,2B,08,00,00,1F,C5,
51686666,00000237,false,Rx,1,8,3C,41,00,00,00,00,00,00,
51686906,00000247,false,Rx,1,8,44,7D,6E,03,00,00,20,00,
51687138,00000717,false,Rx,1,8,12,40,29,00,27,00,17,00,
51696001,00000217,false,Rx,1,8,00,00,81,FC,9C,02,00,00,
51786166,00000207,false,Rx,1,8,00,00,00,00,C8,00,04,00,
51786415,00000227,false,Rx,1,8,00,00,7A,07,00,00,1F,C5,
51786655,00000237,false,Rx,1,8,3C,41,00,00,00,00,00,00,
51786894,00000247,false,Rx,1,8,44,7D,6E,03,00,00,20,00,
51787143,00000717,false,Rx,1,8,13,00,00,00,00,00,00,00,
51795973,00000217,false,Rx,1,8,00,00,81,FC,9C,02,00,00,
51886172,00000207,false,Rx,1,8,00,00,C0,FF,C8,00,04,00,
51886412,00000227,false,Rx,1,8,00,00,D0,06,01,00,1F,C5,
51886660,00000237,false,Rx,1,8,3C,41,00,00,00,00,00,00,
51886900,00000247,false,Rx,1,8,44,7D,6E,03,00,00,20,00,
51887141,00000717,false,Rx,1,8,14,00,00,00,E1,FF,00,00,
51895957,00000217,false,Rx,1,8,00,00,81,FC,9C,02,00,00,
51986134,00000207,false,Rx,1,8,00,00,00,00,C8,00,04,00,
51986375,00000227,false,Rx,1,8,00,00,33,06,07,00,1F,C5,
51986623,00000237,false,Rx,1,8,3C,41,00,00,00,00,00,00,
51986864,00000247,false,Rx,1,8,44,7D,6E,03,00,00,20,00,
51995919,00000217,false,Rx,1,8,02,00,81,FC,9C,02,00,00,
52086031,00000367,false,Rx,1,8,00,00,00,00,00,00,00,00,
52086279,00000207,false,Rx,1,8,00,00,C0,FF,C8,00,04,00,
52086518,00000227,false,Rx,1,8,00,00,A0,05,00,00,1F,C5,
52086767,00000237,false,Rx,1,8,3C,41,00,00,00,00,00,00,
52086999,00000247,false,Rx,1,8,44,7D,6E,03,00,00,20,00,
52087239,00000717,false,Rx,1,8,16,00,00,00,00,00,62,46,
52095911,00000217,false,Rx,1,8,02,00,81,FC,9C,02,00,00,
52096164,00000377,false,Rx,1,8,00,00,00,00,00,00,00,00,
52106011,00000347,false,Rx,1,8,00,00,00,00,00,08,00,00,
52116009,00000357,false,Rx,1,8,00,00,00,00,00,00,00,00,
52126006,00000327,false,Rx,1,8,00,00,00,00,00,00,00,00,
52136003,00000337,false,Rx,1,8,00,00,00,00,00,00,00,00,
52186068,00000207,false,Rx,1,8,00,00,C0,FF,C8,00,04,00,
52186315,00000227,false,Rx,1,8,00,00,13,05,01,00,1F,C5,
52186556,00000237,false,Rx,1,8,3C,41,00,00,00,00,00,00,
52186796,00000247,false,Rx,1,8,44,7D,6E,03,00,00,20,00,
52187044,00000717,false,Rx,1,8,17,00,00,50,04,00,00,00,
52195892,00000217,false,Rx,1,8,02,00,81,FC,9C,02,00,00,
52286058,00000207,false,Rx,1,8,00,00,C0,FF,C8,00,04,00,
52286291,00000227,false,Rx,1,8,00,00,9A,04,07,00,1F,C5,
52286539,00000237,false,Rx,1,8,3C,41,00,00,00,00,00,00,
52286778,00000247,false,Rx,1,8,44,7D,6E,03,00,00,20,00,
52287026,00000717,false,Rx,1,8,18,00,00,00,00,00,00,00,
52295852,00000217,false,Rx,1,8,02,00,81,FC,9C,02,00,00,
52386063,00000207,false,Rx,1,8,00,00,00,00,C8,00,04,00,
52386305,00000227,false,Rx,1,8,00,00,21,04,05,00,1F,C5,
52386552,00000237,false,Rx,1,8,3C,41,00,00,00,00,00,00,
52386785,00000247,false,Rx,1,8,44,7D,6E,03,00,00,20,00,
52387033,00000717,false,Rx,1,8,19,00,00,00,00,00,00,00,
52395849,00000217,false,Rx,1,8,02,00,81,FC,9C,02,00,00,
52486009,00000207,false,Rx,1,8,00,00,C0,FF,C8,00,04,00,
52486249,00000227,false,Rx,1,8,00,00,B9,03,03,00,1F,C5,
52486496,00000237,false,Rx,1,8,3C,41,00,00,00,00,00,00,
52486737,00000247,false,Rx,1,8,44,7D,6E,03,00,00,20,00,
52486969,00000537,false,Rx,1,8,0F,00,00,00,8C,A1,70,0A,
52487217,00000717,false,Rx,1,8,01,00,00,00,00,00,00,00,
52495811,00000217,false,Rx,1,8,02,00,81,FC,9C,02,00,04,
52586010,00000207,false,Rx,1,8,00,00,00,00,C8,00,04,00,
52586250,00000227,false,Rx,1,8,00,00,52,03,03,00,1F,C5,
52586498,00000237,false,Rx,1,8,3C,41,00,00,00,00,00,00,
52586731,00000247,false,Rx,1,8,44,7D,6E,03,00,00,20,00,
52586979,00000717,false,Rx,1,8,02,00,00,00,00,00,00,00,
52595802,00000217,false,Rx,1,8,02,00,81,FC,9C,02,00,04,
52685991,00000207,false,Rx,1,8,00,00,00,00,C8,00,04,00,
52686230,00000227,false,Rx,1,8,00,00,F5,02,00,00,1F,C5,
52686479,00000237,false,Rx,1,8,3C,41,00,00,00,00,00,00,
52686712,00000247,false,Rx,1,8,44,7D,6E,03,00,00,20,00,
52695779,00000217,false,Rx,1,8,02,00,81,FC,9C,02,00,04,
52785945,00000207,false,Rx,1,8,00,00,00,00,C8,00,04,00,
52786184,00000227,false,Rx,1,8,00,00,A3,02,02,00,1F,C5,
52786434,00000237,false,Rx,1,8,3C,41,00,00,00,00,00,00,
52786666,00000247,false,Rx,1,8,44,7D,6E,03,00,00,20,00,
52786921,00000717,false,Rx,1,8,04,00,00,00,00,00,00,00,
52795747,00000217,false,Rx,1,8,02,00,81,FC,9C,02,00,04,
52885951,00000207,false,Rx,1,8,00,00,C0,FF,C8,00,04,00,
52886191,00000227,false,Rx,1,8,00,00,55,02,00,00,1F,C5,
52886440,00000237,false,Rx,1,8,3C,41,00,00,00,00,00,00,
52886672,00000247,false,Rx,1,8,44,7D,6E,03,00,00,20,00,
52886921,00000717,false,Rx,1,8,05,00,00,00,00,00,00,00,
52895736,00000217,false,Rx,1,8,02,00,81,FC,9C,02,00,04,
52985911,00000207,false,Rx,1,8,00,00,00,00,C8,00,04,00,
52986151,00000227,false,Rx,1,8,00,00,0B,02,06,00,1F,C5,
52986399,00000237,false,Rx,1,8,3C,41,00,00,00,00,00,00,
52986639,00000247,false,Rx,1,8,44,7D,6E,03,00,00,20,00,
52986872,00000717,false,Rx,1,8,06,00,2A,46,66,06,00,40,
52995711,00000217,false,Rx,1,8,02,00,81,FC,9C,02,00,04,
53085812,00000367,false,Rx,1,8,00,00,00,00,00,00,00,00,
53086058,00000207,false,Rx,1,8,00,00,C0,FF,C8,00,04,00,
53086293,00000227,false,Rx,1,8,00,00,C9,01,00,00,1F,C5,
53086542,00000237,false,Rx,1,8,3C,41,00,00,00,00,00,00,
53086782,00000247,false,Rx,1,8,44,7D,6E,03,00,00,20,00,
53087029,00000717,false,Rx,1,8,07,00,00,00,02,0A,00,00,
53095690,00000217,false,Rx,1,8,02,00,81,FC,9C,02,00,04,
53095938,00000377,false,Rx,1,8,00,00,00,00,00,00,00,00,
53105817,00000347,false,Rx,1,8,00,00,00,00,00,08,00,00,
53115805,00000357,false,Rx,1,8,00,00,00,00,00,00,00,00,
53125812,00000327,false,Rx,1,8,00,00,00,00,00,00,00,00,
53135785,00000337,false,Rx,1,8,00,00,00,00,00,00,00,00,
53185877,00000207,false,Rx,1,8,00,00,C0,FF,C8,00,04,00,
53186116,00000227,false,Rx,1,8,00,00,8A,01,03,00,1F,C5,
53186365,00000237,false,Rx,1,8,3C,41,00,00,00,00,00,00,
53186599,00000247,false,Rx,1,8,44,7D,6E,03,00,00,20,00,
53186839,00000717,false,Rx,1,8,08,00,00,00,2A,46,00,00,
53195679,00000217,false,Rx,1,8,02,00,81,FC,9C,02,00,04,
53285837,00000207,false,Rx,1,8,00,00,C0,FF,C8,00,04,00,
53286076,00000227,false,Rx,1,8,00,00,4E,01,03,00,1F,C5,
53286325,00000237,false,Rx,1,8,3C,41,00,00,00,00,00,00,
53286558,00000247,false,Rx,1,8,44,7D,6E,03,00,00,20,00,
53286797,00000717,false,Rx,1,8,09,00,6A,45,00,00,00,00,
53295631,00000217,false,Rx,1,8,02,00,81,FC,9C,02,00,04,
53385842,00000207,false,Rx,1,8,00,00,C0,FF,C8,00,04,00,
53386089,00000227,false,Rx,1,8,00,00,18,01,06,00,1F,C5,
53386330,00000237,false,Rx,1,8,3C,41,00,00,00,00,00,00,
53386570,00000247,false,Rx,1,8,44,7D,6E,03,00,00,20,00,
53386817,00000537,false,Rx,1,8,10,00,00,0A,00,00,00,00,
53387058,00000717,false,Rx,1,8,0A,00,00,00,00,00,00,00,
53395631,00000217,false,Rx,1,8,02,00,81,FC,9C,02,00,04,
53485784,00000207,false,Rx,1,8,00,00,C0,FF,C8,00,04,00,
53486024,00000227,false,Rx,1,8,00,00,EA,00,01,00,1F,C5,
53486272,00000237,false,Rx,1,8,3C,41,00,00,00,00,00,00,
53486512,00000247,false,Rx,1,8,44,7D,6E,03,00,00,20,00,
53486760,00000717,false,Rx,1,8,0B,00,00,00,00,00,00,00,
53495613,00000217,false,Rx,1,8,02,00,81,FC,9C,02,00,04,
53585777,00000207,false,Rx,1,8,00,00,C0,FF,C8,00,04,00,
53586016,00000227,false,Rx,1,8,00,00,B6,00,04,00,1F,C5,
53586257,00000237,false,Rx,1,8,3C,41,00,00,00,00,00,00,
53586497,00000247,false,Rx,1,8,44,7D,6E,03,00,00,20,00,
53586738,00000717,false,Rx,1,8,0C,01,00,04,04,00,01,00,
53595575,00000217,false,Rx,1,8,02,00,81,FC,9C,02,00,04,
53685775,00000207,false,Rx,1,8,00,00,00,00,C8,00,04,00,
53686013,00000227,false,Rx,1,8,00,00,93,00,05,00,1F,C5,
53686263,00000237,false,Rx,1,8,3C,41,00,00,00,00,00,00,
53686497,00000247,false,Rx,1,8,44,7D,6E,03,00,00,20,00,
53686736,00000717,false,Rx,1,8,0E,00,00,02,E6,3C,00,00,
53695568,00000217,false,Rx,1,8,02,00,81,FC,9C,02,00,04,
53785741,00000207,false,Rx,1,8,00,00,C0,FF,C8,00,04,00,
53785980,00000227,false,Rx,1,8,00,00,67,00,00,00,1F,C5,
53786229,00000237,false,Rx,1,8,3C,41,00,00,00,00,00,00,
53786469,00000247,false,Rx,1,8,44,7D,6E,03,00,00,20,00,
53786702,00000717,false,Rx,1,8,0F,00,EB,01,F2,0D,00,00,
53795525,00000217,false,Rx,1,8,02,00,81,FC,9C,02,00,04,
53885729,00000207,false,Rx,1,8,00,00,C0,FF,C8,00,04,00,
53885975,00000227,false,Rx,1,8,00,00,3C,00,00,00,1F,C5,
53886216,00000237,false,Rx,1,8,3C,41,00,00,00,00,00,00,
53886457,00000247,false,Rx,1,8,44,7D,6E,03,00,00,20,00,
53886697,00000717,false,Rx,1,8,10,08,E0,FE,04,90,FF,00,
53895528,00000217,false,Rx,1,8,02,00,81,FC,9C,02,00,04,
53985734,00000207,false,Rx,1,8,00,00,00,00,C8,00,04,00,
53985974,00000227,false,Rx,1,8,00,00,1C,00,03,00,1F,C5,
53986221,00000237,false,Rx,1,8,3C,41,00,00,00,00,00,00,
53986462,00000247,false,Rx,1,8,44,7D,6E,03,00,00,20,00,
53986695,00000717,false,Rx,1,8,11,00,EA,FF,00,00,02,02,
53995502,00000217,false,Rx,1,8,02,00,81,FC,9C,02,00,04,
54085583,00000367,false,Rx,1,8,00,00,00,00,00,00,00,00,
54085830,00000207,false,Rx,1,8,00,00,C0,FF,C8,00,04,00,
54086070,00000227,false,Rx,1,8,00,00,07,00,02,00,1F,C5,
54086318,00000237,false,Rx,1,8,3C,41,00,00,00,00,00,00,
54086559,00000247,false,Rx,1,8,44,7D,6E,03,00,00,20,00,
54086792,00000717,false,Rx,1,8,12,40,29,00,27,00,17,00,
54095462,00000217,false,Rx,1,8,02,00,81,FC,9C,02,00,04,
54095709,00000377,false,Rx,1,8,00,00,00,00,00,00,00,00,
54105586,00000347,false,Rx,1,8,00,00,00,00,00,08,00,00,
54115600,00000357,false,Rx,1,8,00,00,00,00,00,00,00,00,
54125592,00000327,false,Rx,1,8,00,00,00,00,00,00,00,00,
54135590,00000337,false,Rx,1,8,00,00,00,00,00,00,00,00,
54185661,00000207,false,Rx,1,8,00,00,00,00,C8,00,04,00,
54185899,00000227,false,Rx,1,8,00,00,00,00,00,00,1F,C5,
54186147,00000237,false,Rx,1,8,3C,41,00,00,00,00,00,00,
54186389,00000247,false,Rx,1,8,44,7D,6E,03,00,00,20,00,
54186636,00000717,false,Rx,1,8,13,00,00,00,00,00,00,00,
54195453,00000217,false,Rx,1,8,02,00,81,FC,9C,02,00,04,
54285641,00000207,false,Rx,1,8,00,00,C0,FF,C8,00,04,00,
54285887,00000227,false,Rx,1,8,00,00,00,00,02,00,1F,C5,
54286134,00000237,false,Rx,1,8,3C,41,00,00,00,00,00,00,
54286369,00000247,false,Rx,1,8,44,7D,6E,03,00,00,20,00,
54286624,00000537,false,Rx,1,8,11,00,00,00,00,00,00,00,
54286864,00000717,false,Rx,1,8,14,00,00,00,D4,FF,00,00,
54295415,00000217,false,Rx,1,8,02,00,81,FC,9C,02,00,04,
54385638,00000207,false,Rx,1,8,00,00,00,00,C8,00,04,00,
54385884,00000227,false,Rx,1,8,00,00,00,00,03,00,1F,C5,
54386133,00000237,false,Rx,1,8,3C,41,00,00,00,00,00,00,
54386366,00000247,false,Rx,1,8,44,7D,6E,03,00,00,20,00,
54395419,00000217,false,Rx,1,8,02,00,81,FC,9C,02,00,04,
54485608,00000207,false,Rx,1,8,00,00,C0,FF,C8,00,04,00,
54485855,00000227,false,Rx,1,8,00,00,00,00,01,00,1F,C5,
54486103,00000237,false,Rx,1,8,3C,41,00,00,00,00,00,00,
54486344,00000247,false,Rx,1,8,44,7D,6E,03,00,00,20,00,
54486584,00000717,false,Rx,1,8,16,00,00,00,00,00,D6,45,
54495394,00000217,false,Rx,1,8,02,00,81,FC,9C,02,00,04,
54585554,00000207,false,Rx,1,8,00,00,C0,FF,C8,00,04,00,
54585802,00000227,false,Rx,1,8,00,00,00,00,02,00,1F,C5,
54586049,00000237,false,Rx,1,8,3C,41,00,00,00,00,00,00,
54586283,00000247,false,Rx,1,8,44,7D,6E,03,00,00,20,00,
54586531,00000717,false,Rx,1,8,17,00,00,50,04,00,00,00,
54595356,00000217,false,Rx,1,8,02,00,81,FC,9C,02,00,04,
54685556,00000207,false,Rx,1,8,00,00,C0,FF,C8,00,04,00,
54685802,00000227,false,Rx,1,8,00,00,00,00,01,00,1F,C5,
54686049,00000237,false,Rx,1,8,3C,41,00,00,00,00,00,00,
54686291,00000247,false,Rx,1,8,44,7D,6E,03,00,00,20,00,
54686538,00000717,false,Rx,1,8,18,00,00,00,00,00,00,00,
54695356,00000217,false,Rx,1,8,02,00,81,FC,9C,02,00,04,
54785538,00000207,false,Rx,1,8,00,00,00,00,C8,00,04,00,
54785784,00000227,false,Rx,1,8,00,00,00,00,02,00,1F,C5,
54786031,00000237,false,Rx,1,8,3C,41,00,00,00,00,00,00,
54786266,00000247,false,Rx,1,8,44,7D,6E,03,00,00,20,00,
54786513,00000717,false,Rx,1,8,19,00,00,00,00,00,00,00,
54795336,00000217,false,Rx,1,8,02,00,81,FC,9C,02,00,04,
54885522,00000207,false,Rx,1,8,00,00,00,00,C8,00,04,00,
54885768,00000227,false,Rx,1,8,00,00,00,00,0A,00,1F,C5,
54886010,00000237,false,Rx,1,8,3C,41,00,00,00,00,00,00,
54886250,00000247,false,Rx,1,8,44,7D,6E,03,00,00,20,00,
54886498,00000717,false,Rx,1,8,01,00,00,00,00,00,00,00,
54895306,00000217,false,Rx,1,8,02,00,81,FC,9C,02,00,04,
54985496,00000207,false,Rx,1,8,00,00,C0,FF,C8,00,04,00,
54985735,00000227,false,Rx,1,8,00,00,00,00,0A,00,1F,C5,
54985984,00000237,false,Rx,1,8,3C,41,00,00,00,00,00,00,
54986224,00000247,false,Rx,1,8,44,7D,6E,03,00,00,20,00,
54986465,00000717,false,Rx,1,8,02,00,00,00,00,00,00,00,
54995289,00000217,false,Rx,1,8,02,00,81,FC,9C,02,00,04,
55085379,00000367,false,Rx,1,8,00,00,00,00,00,00,00,00,
55085625,00000207,false,Rx,1,8,00,00,C0,FF,C8,00,04,00,
55085874,00000227,false,Rx,1,8,00,00,00,00,02,00,1F,C5,
55086114,00000237,false,Rx,1,8,3C,41,00,00,00,00,00,00,
55086355,00000247,false,Rx,1,8,44,7D,6E,03,00,00,20,00,
55095246,00000217,false,Rx,1,8,02,00,01,FC,9C,02,00,04,
55095493,00000377,false,Rx,1,8,00,00,00,00,00,00,00,00,
55105371,00000347,false,Rx,1,8,00,00,00,00,00,08,00,00,
55115371,00000357,false,Rx,1,8,00,00,00,00,00,00,00,00,
55125369,00000327,false,Rx,1,8,00,00,00,00,00,00,00,00,
55135364,00000337,false,Rx,1,8,00,00,00,00,00,00,00,00,
55185452,00000207,false,Rx,1,8,00,00,C0,FF,C8,00,04,00,
55185692,00000227,false,Rx,1,8,00,00,00,00,03,00,1F,C5,
55185940,00000237,false,Rx,1,8,3C,41,00,00,00,00,00,00,
55186179,00000247,false,Rx,1,8,44,7D,6E,03,00,00,20,00,
55186414,00000537,false,Rx,1,8,12,03,E9,DA,DC,E1,B0,3F,
55186661,00000717,false,Rx,1,8,04,00,00,00,00,00,00,00,
55195256,00000217,false,Rx,1,8,02,00,01,FC,9C,02,00,04,
55285408,00000207,false,Rx,1,8,00,00,00,00,C8,00,04,00,
55285654,00000227,false,Rx,1,8,00,00,00,00,01,00,1F,C5,
55285901,00000237,false,Rx,1,8,3C,41,00,00,00,00,00,00,
55286135,00000247,false,Rx,1,8,44,7D,6E,03,00,00,20,00,
55286383,00000717,false,Rx,1,8,05,00,00,00,00,00,00,00,
55295221,00000217,false,Rx,1,8,02,00,01,FC,9C,02,00,04,
55385384,00000207,false,Rx,1,8,00,00,C0,FF,C8,00,04,00,
55385630,00000227,false,Rx,1,8,00,00,00,00,02,00,1F,C5,
55385878,00000237,false,Rx,1,8,3C,41,00,00,00,00,00,00,
55386119,00000247,false,Rx,1,8,44,7D,6E,03,00,00,20,00,
55386352,00000717,false,Rx,1,8,06,00,1A,46,66,06,00,40,
55395182,00000217,false,Rx,1,8,02,00,81,FC,9C,02,00,04,
55485404,00000207,false,Rx,1,8,00,00,00,00,C8,00,04,00,
55485650,00000227,false,Rx,1,8,00,00,00,00,00,00,1F,C5,
55485891,00000237,false,Rx,1,8,3C,41,00,00,00,00,00,00,
55486131,00000247,false,Rx,1,8,44,7D,6E,03,00,00,20,00,
55486372,00000717,false,Rx,1,8,07,00,00,00,02,0A,00,00,
55495187,00000217,false,Rx,1,8,02,00,81,FC,9C,02,00,04,
55585349,00000207,false,Rx,1,8,00,00,00,00,C8,00,04,00,
55585595,00000227,false,Rx,1,8,00,00,00,00,02,00,1F,C5,
55585844,00000237,false,Rx,1,8,3C,41,00,00,00,00,00,00,
55586084,00000247,false,Rx,1,8,44,7D,6E,03,00,00,20,00,
55586317,00000717,false,Rx,1,8,08,00,00,00,32,46,00,00,
55595141,00000217,false,Rx,1,8,02,00,81,FC,9C,02,00,04,
55685336,00000207,false,Rx,1,8,00,00,C0,FF,C8,00,04,00,
55685583,00000227,false,Rx,1,8,00,00,00,00,0B,00,1F,C5,
55685831,00000237,false,Rx,1,8,3C,41,00,00,00,00,00,00,
55686063,00000247,false,Rx,1,8,44,7D,6E,03,00,00,20,00,
55686305,00000717,false,Rx,1,8,09,00,5A,46,00,00,00,00,
55695136,00000217,false,Rx,1,8,02,00,81,FC,9C,02,00,04,
55785299,00000207,false,Rx,1,8,00,00,C0,FF,C8,00,04,00,
55785538,00000227,false,Rx,1,8,00,00,00,00,07,00,1F,C5,
55785785,00000237,false,Rx,1,8,3C,41,00,00,00,00,00,00,
55786025,00000247,false,Rx,1,8,44,7D,6E,03,00,00,20,00,
55786275,00000717,false,Rx,1,8,0A,00,00,00,00,00,00,00,
55795113,00000217,false,Rx,1,8,02,00,81,FC,9C,02,00,04,
55885296,00000207,false,Rx,1,8,00,00,C0,FF,C8,00,04,00,
55885550,00000227,false,Rx,1,8,00,00,00,00,06,00,1F,C5,
55885790,00000237,false,Rx,1,8,3C,41,00,00,00,00,00,00,
55886031,00000247,false,Rx,1,8,44,7D,6E,03,00,00,20,00,
55886279,00000717,false,Rx,1,8,0B,00,00,00,00,00,00,00,
55895086,00000217,false,Rx,1,8,02,00,01,FC,9C,02,00,04,
55985279,00000207,false,Rx,1,8,00,00,00,00,C8,00,04,00,
55985525,00000227,false,Rx,1,8,00,00,00,00,01,00,1F,C5,
55985773,00000237,false,Rx,1,8,3C,41,00,00,00,00,00,00,
55986013,00000247,false,Rx,1,8,44,7D,6E,03,00,00,20,00,
55986254,00000717,false,Rx,1,8,0C,01,00,04,04,00,01,00,
55995078,00000217,false,Rx,1,8,02,00,01,FC,9C,02,00,04,
56085162,00000367,false,Rx,1,8,00,00,00,00,00,00,00,00,
56085403,00000207,false,Rx,1,8,00,00,C0,FF,C8,00,04,00,
56085651,00000227,false,Rx,1,8,00,00,00,00,01,00,1F,C5,
56085898,00000237,false,Rx,1,8,3C,41,00,00,00,00,00,00,
56086138,00000247,false,Rx,1,8,44,7D,6E,03,00,00,20,00,
56086381,00000537,false,Rx,1,8,13,01,FE,00,00,FC,00,00,
56086621,00000717,false,Rx,1,8,0E,00,00,02,46,46,00,00,
56095036,00000217,false,Rx,1,8,02,00,01,FC,9C,02,00,04,
56095283,00000377,false,Rx,1,8,00,00,00,00,00,00,00,00,
56105146,00000347,false,Rx,1,8,00,00,00,00,00,08,00,00,
56115151,00000357,false,Rx,1,8,00,00,00,00,00,00,00,00,
56125146,00000327,false,Rx,1,8,00,00,00,00,00,00,00,00,
56135144,00000337,false,Rx,1,8,00,00,00,00,00,00,00,00,
56185253,00000207,false,Rx,1,8,00,00,C0,FF,C8,00,04,00,
56185493,00000227,false,Rx,1,8,00,00,47,73,01,00,1F,C5,
56185740,00000237,false,Rx,1,8,3C,41,00,00,00,00,00,00,
56185973,00000247,false,Rx,1,8,44,7D,32,02,00,00,20,00,
56186206,00000717,false,Rx,1,8,0F,00,EB,01,97,0E,00,00,
56195045,00000217,false,Rx,1,8,00,00,01,FC,9C,02,00,00,
56285239,00000207,false,Rx,1,8,00,00,C0,FF,C8,00,04,00,
56285480,00000227,false,Rx,1,8,00,00,26,7F,03,00,1F,C5,
56285727,00000237,false,Rx,1,8,3C,41,00,00,00,00,00,00,
56285967,00000247,false,Rx,1,8,44,7D,08,02,00,00,20,00,
56286201,00000717,false,Rx,1,8,10,08,E0,FE,04,90,FF,00,
56295018,00000217,false,Rx,1,8,00,00,01,FC,9C,02,00,00,
56385192,00000207,false,Rx,1,8,00,00,00,00,C8,00,04,00,
56385432,00000227,false,Rx,1,8,00,00,2D,7F,00,00,1F,C5,
56385680,00000237,false,Rx,1,8,3C,41,00,00,00,00,00,00,
56385913,00000247,false,Rx,1,8,44,7D,08,02,00,00,20,00,
56386160,00000717,false,Rx,1,8,11,00,12,E4,00,00,00,00,
56394977,00000217,false,Rx,1,8,00,00,01,FC,9C,02,00,00,
56485179,00000207,false,Rx,1,8,00,00,C0,FF,C8,00,04,00,
56485412,00000227,false,Rx,1,8,00,00,1C,7F,00,00,1F,C5,
56485660,00000237,false,Rx,1,8,3C,41,00,00,00,00,00,00,
56485901,00000247,false,Rx,1,8,44,7D,08,02,00,00,20,00,
56486133,00000717,false,Rx,1,8,12,40,29,00,27,00,17,00,
56494973,00000217,false,Rx,1,8,00,00,01,FC,9C,02,00,00,
56585149,00000207,false,Rx,1,8,00,00,00,00,C8,00,04,00,
56585390,00000227,false,Rx,1,8,00,00,1B,7F,03,00,1F,C5,
56585639,00000237,false,Rx,1,8,3C,41,00,00,00,00,00,00,
56585871,00000247,false,Rx,1,8,44,7D,08,02,00,00,20,00,
56586119,00000717,false,Rx,1,8,13,00,00,00,00,00,00,00,
56594958,00000217,false,Rx,1,8,00,00,01,FC,9C,02,00,00,
56685126,00000207,false,Rx,1,8,00,00,C0,FF,C8,00,04,00,
56685366,00000227,false,Rx,1,8,00,00,26,7F,04,00,1F,C5,
56685614,00000237,false,Rx,1,8,3C,41,00,00,00,00,00,00,
56685854,00000247,false,Rx,1,8,44,7D,08,02,00,00,20,00,
56686094,00000717,false,Rx,1,8,14,00,00,00,06,00,00,00,
56694933,00000217,false,Rx,1,8,00,00,01,FC,9C,02,00,00,
56785133,00000207,false,Rx,1,8,00,00,C0,FF,C8,00,04,00,
56785368,00000227,false,Rx,1,8,00,00,37,7F,0B,00,1F,C5,
56785615,00000237,false,Rx,1,8,3C,41,00,00,00,00,00,00,
56785847,00000247,false,Rx,1,8,44,7D,08,02,00,00,20,00,
56794908,00000217,false,Rx,1,8,00,00,01,FC,9C,02,00,00,
56885065,00000207,false,Rx,1,8,00,00,00,00,C8,00,04,00,
56885299,00000227,false,Rx,1,8,00,00,34,7F,0A,00,1F,C5,
56885546,00000237,false,Rx,1,8,3C,41,00,00,00,00,00,00,
56885786,00000247,false,Rx,1,8,44,7D,08,02,00,00,20,00,
56886027,00000717,false,Rx,1,8,16,00,00,00,00,00,3E,46,
56894865,00000217,false,Rx,1,8,00,00,01,FC,9C,02,00,00,
56985089,00000207,false,Rx,1,8,00,00,00,00,C8,00,04,00,
56985329,00000227,false,Rx,1,8,00,00,33,7F,06,00,1F,C5,
56985569,00000237,false,Rx,1,8,3C,41,00,00,00,00,00,00,
56985810,00000247,false,Rx,1,8,44,7D,08,02,00,00,20,00,
56986050,00000537,false,Rx,1,8,14,05,00,00,00,00,00,00,
56986298,00000717,false,Rx,1,8,17,00,00,50,04,00,00,00,
56994869,00000217,false,Rx,1,8,00,00,01,FC,9C,02,00,00,
57084948,00000367,false,Rx,1,8,00,00,00,00,00,00,00,00,
57085202,00000207,false,Rx,1,8,00,00,00,00,C8,00,04,00,
57085442,00000227,false,Rx,1,8,00,00,40,7F,05,00,1F,C5,
57085683,00000237,false,Rx,1,8,3C,41,00,00,00,00,00,00,
57085923,00000247,false,Rx,1,8,44,7D,07,02,00,00,20,00,
57086178,00000717,false,Rx,1,8,18,00,00,00,00,00,00,00,
57094849,00000217,false,Rx,1,8,00,00,01,FC,9C,02,00,00,
57095095,00000377,false,Rx,1,8,00,00,00,00,00,00,00,00,
57104943,00000347,false,Rx,1,8,00,00,00,00,00,08,00,00,
57114940,00000357,false,Rx,1,8,00,00,00,00,00,00,00,00,
57124938,00000327,false,Rx,1,8,00,00,00,00,00,00,00,00,
57134935,00000337,false,Rx,1,8,00,00,00,00,00,00,00,00,
57185020,00000207,false,Rx,1,8,00,00,C0,FF,C8,00,04,00,
57185260,00000227,false,Rx,1,8,00,00,3B,7F,00,00,1F,C5,
57185508,00000237,false,Rx,1,8,3C,41,00,00,00,00,00,00,
57185741,00000247,false,Rx,1,8,44,7D,08,02,00,00,20,00,
57185988,00000717,false,Rx,1,8,19,00,00,00,00,00,00,00,
57194807,00000217,false,Rx,1,8,00,00,01,FC,9C,02,00,00,
57285026,00000207,false,Rx,1,8,00,00,00,00,C8,00,04,00,
57285260,00000227,false,Rx,1,8,00,00,3A,7F,03,00,1F,C5,
57285507,00000237,false,Rx,1,8,3C,41,00,00,00,00,00,00,
57285747,00000247,false,Rx,1,8,44,7D,08,02,00,00,20,00,
57285996,00000717,false,Rx,1,8,01,00,00,00,00,00,00,00,
57294800,00000217,false,Rx,1,8,00,00,01,FC,9C,02,00,00,
57384980,00000207,false,Rx,1,8,00,00,C0,FF,C8,00,04,00,
57385220,00000227,false,Rx,1,8,00,00,38,7F,03,00,1F,C5,
57385462,00000237,false,Rx,1,8,3C,41,00,00,00,00,00,00,
57385702,00000247,false,Rx,1,8,44,7D,08,02,00,00,20,00,
57385951,00000717,false,Rx,1,8,02,00,00,00,00,00,00,00,
57394762,00000217,false,Rx,1,8,00,00,01,FC,9C,02,00,00,
57484983,00000207,false,Rx,1,8,00,00,C0,FF,C8,00,04,00,
57485229,00000227,false,Rx,1,8,00,00,30,7F,00,00,1F,C5,
57485470,00000237,false,Rx,1,8,3C,41,00,00,00,00,00,00,
57485711,00000247,false,Rx,1,8,44,7D,08,02,00,00,20,00,
57494763,00000217,false,Rx,1,8,00,00,01,FC,9C,02,00,00,
57584961,00000207,false,Rx,1,8,00,00,C0,FF,C8,00,04,00,
57585200,00000227,false,Rx,1,8,00,00,34,7F,07,00,1F,C5,
57585441,00000237,false,Rx,1,8,3C,41,00,00,00,00,00,00,
57585682,00000247,false,Rx,1,8,44,7D,08,02,00,00,20,00,
57585929,00000717,false,Rx,1,8,04,00,00,00,00,00,00,00,
57594739,00000217,false,Rx,1,8,00,00,01,FC,9C,02,00,00,
57684906,00000207,false,Rx,1,8,00,00,C0,FF,C8,00,04,00,
57685152,00000227,false,Rx,1,8,00,00,35,7F,01,00,1F,C5,
57685394,00000237,false,Rx,1,8,3C,41,00,00,00,00,00,00,
57685634,00000247,false,Rx,1,8,44,7D,08,02,00,00,20,00,
57685881,00000717,false,Rx,1,8,05,00,00,00,00,00,00,00,
57694691,00000217,false,Rx,1,8,00,00,01,FC,9C,02,00,00,
57784898,00000207,false,Rx,1,8,00,00,C0,FF,C8,00,04,00,
57785137,00000227,false,Rx,1,8,00,00,2B,7F,00,00,1F,C5,
57785388,00000237,false,Rx,1,8,3C,41,00,00,00,00,00,00,
57785620,00000247,false,Rx,1,8,44,7D,08,02,00,00,20,00,
57785860,00000717,false,Rx,1,8,06,00,C2,45,66,06,00,40,
57794698,00000217,false,Rx,1,8,00,00,01,FC,9C,02,00,00,
57884859,00000207,false,Rx,1,8,00,00,C0,FF,C8,00,04,00,
57885099,00000227,false,Rx,1,8,00,00,30,7F,00,00,1F,C5,
57885347,00000237,false,Rx,1,8,3C,41,00,00,00,00,00,00,
57885580,00000247,false,Rx,1,8,44,7D,08,02,00,00,20,00,
57885828,00000717,false,Rx,1,8,07,00,00,00,00,0A,00,00,
57894680,00000217,false,Rx,1,8,00,00,01,FC,9C,02,00,00,
57984875,00000207,false,Rx,1,8,00,00,00,00,C8,00,04,00,
57985121,00000227,false,Rx,1,8,00,00,30,7F,01,00,1F,C5,
57985362,00000237,false,Rx,1,8,3C,41,00,00,00,00,00,00,
57985602,00000247,false,Rx,1,8,44,7D,08,02,00,00,20,00,
57985843,00000717,false,Rx,1,8,08,00,00,00,42,46,00,00,
57994653,00000217,false,Rx,1,8,00,00,01,FC,9C,02,00,00,
58084732,00000367,false,Rx,1,8,00,00,00,00,00,00,00,00,
58084978,00000207,false,Rx,1,8,00,00,C0,FF,C8,00,04,00,
58085218,00000227,false,Rx,1,8,00,00,30,7F,01,00,1F,C5,
58085468,00000237,false,Rx,1,8,3C,41,00,00,00,00,00,00,
58085700,00000247,false,Rx,1,8,44,7D,08,02,00,00,20,00,
58085940,00000717,false,Rx,1,8,09,00,42,46,00,00,00,00,
58094631,00000217,false,Rx,1,8,00,00,01,FC,9C,02,00,00,
58094878,00000377,false,Rx,1,8,00,00,00,00,00,00,00,00,
58104727,00000347,false,Rx,1,8,00,00,00,00,00,08,00,00,
58114723,00000357,false,Rx,1,8,00,00,00,00,00,00,00,00,
58124727,00000327,false,Rx,1,8,00,00,00,00,00,00,00,00,
58134717,00000337,false,Rx,1,8,00,00,00,00,00,00,00,00,
58184808,00000207,false,Rx,1,8,00,00,00,00,C8,00,04,00,
58185055,00000227,false,Rx,1,8,00,00,34,7F,07,00,1F,C5,
58185297,00000237,false,Rx,1,8,3C,41,00,00,00,00,00,00,
58185537,00000247,false,Rx,1,8,44,7D,08,02,00,00,20,00,
58185776,00000717,false,Rx,1,8,0A,00,00,00,00,00,00,00,
58194593,00000217,false,Rx,1,8,00,00,01,FC,9C,02,00,00,
58284802,00000207,false,Rx,1,8,00,00,C0,FF,C8,00,04,00,
58285040,00000227,false,Rx,1,8,00,00,28,7F,0C,00,1F,C5,
58285290,00000237,false,Rx,1,8,3C,41,00,00,00,00,00,00,
58285522,00000247,false,Rx,1,8,44,7D,08,02,00,00,20,00,
58285770,00000717,false,Rx,1,8,0B,00,00,00,00,00,00,00,
58294593,00000217,false,Rx,1,8,00,00,01,FC,9C,02,00,00,
58384746,00000207,false,Rx,1,8,00,00,00,00,C8,00,04,00,
58384986,00000227,false,Rx,1,8,00,00,29,7F,00,00,1F,C5,
58385234,00000237,false,Rx,1,8,3C,41,00,00,00,00,00,00,
58385467,00000247,false,Rx,1,8,44,7D,08,02,00,00,20,00,
58385714,00000717,false,Rx,1,8,0C,01,00,00,00,00,02,00,
58394568,00000217,false,Rx,1,8,00,00,01,FC,9C,02,00,00,
58484751,00000207,false,Rx,1,8,00,00,00,00,C8,00,04,00,
58484991,00000227,false,Rx,1,8,00,00,2F,7F,03,00,1F,C5,
58485238,00000237,false,Rx,1,8,3C,41,00,00,00,00,00,00,
58485472,00000247,false,Rx,1,8,44,7D,08,02,00,00,20,00,
58485713,00000717,false,Rx,1,8,0E,00,00,02,A6,4F,00,00,
58494543,00000217,false,Rx,1,8,00,00,01,FC,9C,02,00,00,
58584745,00000207,false,Rx,1,8,00,00,C0,FF,C8,00,04,00,
58584983,00000227,false,Rx,1,8,00,00,32,7F,05,00,1F,C5,
58585231,00000237,false,Rx,1,8,3C,41,00,00,00,00,00,00,
58585466,00000247,false,Rx,1,8,44,7D,08,02,00,00,20,00,
58585705,00000717,false,Rx,1,8,0F,00,EB,01,2D,11,00,00,
58594528,00000217,false,Rx,1,8,00,00,01,FC,9C,02,00,00,
58684689,00000207,false,Rx,1,8,00,00,C0,FF,C8,00,04,00,
58684928,00000227,false,Rx,1,8,00,00,2E,7F,06,00,1F,C5,
58685175,00000237,false,Rx,1,8,3C,41,00,00,00,00,00,00,
58685411,00000247,false,Rx,1,8,44,7D,08,02,00,00,20,00,
58685644,00000717,false,Rx,1,8,10,08,E0,FE,04,90,FF,00,
58694485,00000217,false,Rx,1,8,00,00,01,FC,9C,02,00,00,
58784704,00000207,false,Rx,1,8,00,00,C0,FF,C8,00,04,00,
58784942,00000227,false,Rx,1,8,00,00,11,7F,00,00,1F,C5,
58785191,00000237,false,Rx,1,8,3C,41,00,00,00,00,00,00,
58785424,00000247,false,Rx,1,8,44,7D,08,02,00,00,20,00,
58785664,00000537,false,Rx,1,8,0A,01,0E,00,FC,00,3F,00,
58785905,00000717,false,Rx,1,8,11,00,12,E4,00,00,00,00,
58794483,00000217,false,Rx,1,8,00,00,01,FC,9C,02,00,00,
58884673,00000207,false,Rx,1,8,00,00,C0,FF,C8,00,04,00,
58884920,00000227,false,Rx,1,8,00,00,16,7F,03,00,1F,C5,
58885168,00000237,false,Rx,1,8,3C,41,00,00,00,00,00,00,
58885402,00000247,false,Rx,1,8,44,7D,08,02,00,00,20,00,
58885635,00000717,false,Rx,1,8,12,40,29,00,27,00,17,00,
58894459,00000217,false,Rx,1,8,00,00,01,FC,9C,02,00,00,
58984636,00000207,false,Rx,1,8,00,00,C0,FF,C8,00,04,00,
58984883,00000227,false,Rx,1,8,00,00,17,7F,01,00,1F,C5,
58985123,00000237,false,Rx,1,8,3C,41,00,00,00,00,00,00,
58985365,00000247,false,Rx,1,8,44,7D,08,02,00,00,20,00,
58985614,00000717,false,Rx,1,8,13,00,00,00,00,00,00,00,
58994425,00000217,false,Rx,1,8,00,00,01,FC,9C,02,00,00,
59084522,00000367,false,Rx,1,8,00,00,00,00,00,00,00,00,
59084769,00000207,false,Rx,1,8,00,00,C0,FF,C8,00,04,00,
59085009,00000227,false,Rx,1,8,00,00,25,7F,00,00,1F,C5,
59085257,00000237,false,Rx,1,8,3C,41,00,00,00,00,00,00,
59085491,00000247,false,Rx,1,8,44,7D,08,02,00,00,20,00,
59085738,00000717,false,Rx,1,8,14,00,00,00,18,00,00,00,
59094421,00000217,false,Rx,1,8,00,00,01,FC,9C,02,00,00,
59094669,00000377,false,Rx,1,8,00,00,00,00,00,00,00,00,
59104515,00000347,false,Rx,1,8,00,00,00,00,00,08,00,00,
59114512,00000357,false,Rx,1,8,00,00,00,00,00,00,00,00,
59124515,00000327,false,Rx,1,8,00,00,00,00,00,00,00,00,
59134504,00000337,false,Rx,1,8,00,00,00,00,00,00,00,00,
59184590,00000207,false,Rx,1,8,00,00,00,00,C8,00,04,00,
59184829,00000227,false,Rx,1,8,00,00,25,7F,01,00,1F,C5,
59185077,00000237,false,Rx,1,8,3C,41,00,00,00,00,00,00,
59185311,00000247,false,Rx,1,8,44,7D,08,02,00,00,20,00,
59194378,00000217,false,Rx,1,8,00,00,01,FC,9C,02,00,00,
59284596,00000207,false,Rx,1,8,00,00,C0,FF,C8,00,04,00,
59284835,00000227,false,Rx,1,8,00,00,18,7F,01,00,1F,C5,
59285083,00000237,false,Rx,1,8,3C,41,00,00,00,00,00,00,
59285316,00000247,false,Rx,1,8,44,7D,08,02,00,00,20,00,
59285556,00000717,false,Rx,1,8,16,00,00,00,00,00,C6,45,
59294367,00000217,false,Rx,1,8,00,00,01,FC,9C,02,00,00,
59384570,00000207,false,Rx,1,8,00,00,00,00,C8,00,04,00,
59384809,00000227,false,Rx,1,8,00,00,31,7F,0A,00,1F,C5,
59385058,00000237,false,Rx,1,8,3C,41,00,00,00,00,00,00,
59385291,00000247,false,Rx,1,8,44,7D,08,02,00,00,20,00,
59385538,00000717,false,Rx,1,8,17,00,00,50,04,00,00,00,
59394356,00000217,false,Rx,1,8,00,00,01,FC,9C,02,00,00,
59484530,00000207,false,Rx,1,8,00,00,C0,FF,C8,00,04,00,
59484770,00000227,false,Rx,1,8,00,00,2A,7F,03,00,1F,C5,
59485017,00000237,false,Rx,1,8,3C,41,00,00,00,00,00,00,
59485250,00000247,false,Rx,1,8,44,7D,08,02,00,00,20,00,
59485498,00000717,false,Rx,1,8,18,00,00,00,00,00,00,00,
59494314,00000217,false,Rx,1,8,00,00,01,FC,9C,02,00,00,
59584532,00000207,false,Rx,1,8,00,00,C0,FF,C8,00,04,00,
59584772,00000227,false,Rx,1,8,00,00,2B,7F,01,00,1F,C5,
59585012,00000237,false,Rx,1,8,3C,41,00,00,00,00,00,00,
59585253,00000247,false,Rx,1,8,44,7D,08,02,00,00,20,00,
59585494,00000717,false,Rx,1,8,19,00,00,00,00,00,00,00,
59594311,00000217,false,Rx,1,8,00,00,01,FC,9C,02,00,00,
59684470,00000207,false,Rx,1,8,00,00,C0,FF,C8,00,04,00,
59684709,00000227,false,Rx,1,8,00,00,22,7F,01,00,1F,C5,
59684956,00000237,false,Rx,1,8,3C,41,00,00,00,00,00,00,
59685197,00000247,false,Rx,1,8,44,7D,08,02,00,00,20,00,
59685438,00000537,false,Rx,1,8,0B,00,05,06,00,00,00,00,
59685686,00000717,false,Rx,1,8,01,00,00,00,00,00,00,00,
59694293,00000217,false,Rx,1,8,00,00,01,FC,9C,02,00,00,
59784483,00000207,false,Rx,1,8,00,00,00,00,C8,00,04,00,
59784722,00000227,false,Rx,1,8,00,00,21,7F,01,00,1F,C5,
59784969,00000237,false,Rx,1,8,3C,41,00,00,00,00,00,00,
59785202,00000247,false,Rx,1,8,44,7D,08,02,00,00,20,00,
59785451,00000717,false,Rx,1,8,02,00,00,00,00,00,00,00,
59794275,00000217,false,Rx,1,8,00,00,01,FC,9C,02,00,00,
59884455,00000207,false,Rx,1,8,00,00,00,00,C8,00,04,00,
59884693,00000227,false,Rx,1,8,00,00,12,7F,00,00,1F,C5,
59884942,00000237,false,Rx,1,8,3C,41,00,00,00,00,00,00,
59885174,00000247,false,Rx,1,8,44,7D,08,02,00,00,20,00,
59894251,00000217,false,Rx,1,8,00,00,01,FC,9C,02,00,00,
59984402,00000207,false,Rx,1,8,00,00,00,00,C8,00,04,00,
59984649,00000227,false,Rx,1,8,00,00,04,7F,01,00,1F,C5,
59984890,00000237,false,Rx,1,8,3C,41,00,00,00,00,00,00,
59985129,00000247,false,Rx,1,8,44,7D,08,02,00,00,20,00,
59985378,00000717,false,Rx,1,8,04,00,00,00,00,00,00,00,
59994200,00000217,false,Rx,1,8,00,00,01,FC,9C,02,00,00,
60084319,00000367,false,Rx,1,8,00,00,00,00,00,00,00,00,
60084566,00000207,false,Rx,1,8,00,00,C0,FF,C8,00,04,00,
60084806,00000227,false,Rx,1,8,00,00,20,7F,00,00,1F,C5,
60085053,00000237,false,Rx,1,8,3C,41,00,00,00,00,00,00,
60085286,00000247,false,Rx,1,8,44,7D,08,02,00,00,20,00,
60085535,00000717,false,Rx,1,8,05,00,00,00,00,00,00,00,
60094210,00000217,false,Rx,1,8,00,00,01,FC,9C,02,00,00,
60094457,00000377,false,Rx,1,8,00,00,00,00,00,00,00,00,
60104304,00000347,false,Rx,1,8,00,00,00,00,00,08,00,00,
60114300,00000357,false,Rx,1,8,00,00,00,00,00,00,00,00,
60124298,00000327,false,Rx,1,8,00,00,00,00,00,00,00,00,
60134295,00000337,false,Rx,1,8,00,00,00,00,00,00,00,00,
60184413,00000207,false,Rx,1,8,00,00,C0,FF,C8,00,04,00,
60184652,00000227,false,Rx,1,8,00,00,29,7F,04,00,1F,C5,
60184899,00000237,false,Rx,1,8,3C,41,00,00,00,00,00,00,
60185131,00000247,false,Rx,1,8,44,7D,08,02,00,00,20,00,
60185373,00000717,false,Rx,1,8,06,00,3E,46,66,06,00,40,
60194189,00000217,false,Rx,1,8,00,00,01,FC,9C,02,00,00,
60284344,00000207,false,Rx,1,8,00,00,C0,FF,C8,00,04,00,
60284583,00000227,false,Rx,1,8,00,00,1D,7F,08,00,1F,C5,
60284830,00000237,false,Rx,1,8,3C,41,00,00,00,00,00,00,
60285063,00000247,false,Rx,1,8,44,7D,08,02,00,00,20,00,
60285305,00000717,false,Rx,1,8,07,00,00,00,00,0A,00,00,
60294143,00000217,false,Rx,1,8,00,00,01,FC,9C,02,00,00,
60384359,00000207,false,Rx,1,8,00,00,00,00,C8,00,04,00,
60384598,00000227,false,Rx,1,8,00,00,1D,7F,01,00,1F,C5,
60384847,00000237,false,Rx,1,8,3C,41,00,00,00,00,00,00,
60385087,00000247,false,Rx,1,8,44,7D,08,02,00,00,20,00,
60385327,00000717,false,Rx,1,8,08,00,00,00,FE,45,00,00,
60394137,00000217,false,Rx,1,8,00,00,01,FC,9C,02,00,00,
60484318,00000207,false,Rx,1,8,00,00,00,00,C8,00,04,00,
60484557,00000227,false,Rx,1,8,00,00,11,7F,01,00,1F,C5,
60484806,00000237,false,Rx,1,8,3C,41,00,00,00,00,00,00,
60485046,00000247,false,Rx,1,8,44,7D,08,02,00,00,20,00,
60485287,00000717,false,Rx,1,8,09,00,0E,46,00,00,00,00,
60494094,00000217,false,Rx,1,8,00,00,01,FC,9C,02,00,00,
60584310,00000207,false,Rx,1,8,00,00,00,00,C8,00,04,00,
60584550,00000227,false,Rx,1,8,00,00,17,7F,00,00,1F,C5,
60584797,00000237,false,Rx,1,8,3C,41,00,00,00,00,00,00,
60585030,00000247,false,Rx,1,8,44,7D,08,02,00,00,20,00,
60585271,00000537,false,Rx,1,8,0D,00,00,00,7D,F1,02,85,
60585519,00000717,false,Rx,1,8,0A,00,00,00,00,00,00,00,
60594098,00000217,false,Rx,1,8,00,00,01,FC,9C,02,00,00,
60684298,00000207,false,Rx,1,8,00,00,00,00,C8,00,04,00,
60684538,00000227,false,Rx,1,8,00,00,11,7F,04,00,1F,C5,
60684786,00000237,false,Rx,1,8,3C,41,00,00,00,00,00,00,
60685025,00000247,false,Rx,1,8,44,7D,08,02,00,00,20,00,
60685267,00000717,false,Rx,1,8,0B,00,00,00,00,00,00,00,
60694075,00000217,false,Rx,1,8,00,00,01,FC,9C,02,00,00,
60784228,00000207,false,Rx,1,8,00,00,C0,FF,C8,00,04,00,
60784475,00000227,false,Rx,1,8,00,00,1F,7F,05,00,1F,C5,
60784723,00000237,false,Rx,1,8,3C,41,00,00,00,00,00,00,
60784955,00000247,false,Rx,1,8,44,7D,08,02,00,00,20,00,
60785196,00000717,false,Rx,1,8,0C,01,00,00,00,00,02,00,
60794035,00000217,false,Rx,1,8,00,00,01,FC,9C,02,00,00,
60884251,00000207,false,Rx,1,8,00,00,C0,FF,C8,00,04,00,
60884490,00000227,false,Rx,1,8,00,00,1C,7F,00,00,1F,C5,
60884737,00000237,false,Rx,1,8,3C,41,00,00,00,00,00,00,
60884971,00000247,false,Rx,1,8,44,7D,08,02,00,00,20,00,
60885218,00000717,false,Rx,1,8,0E,00,00,02,06,59,00,00,
60894042,00000217,false,Rx,1,8,00,00,01,FC,9C,02,00,00,
60984207,00000207,false,Rx,1,8,00,00,C0,FF,C8,00,04,00,
60984447,00000227,false,Rx,1,8,00,00,1C,7F,01,00,1F,C5,
60984696,00000237,false,Rx,1,8,3C,41,00,00,00,00,00,00,
60984936,00000247,false,Rx,1,8,44,7D,08,02,00,00,20,00,
60985168,00000717,false,Rx,1,8,0F,00,EB,01,2A,11,00,00,
60994016,00000217,false,Rx,1,8,00,00,01,FC,9C,02,00,00,
61084121,00000367,false,Rx,1,8,00,00,00,00,00,00,00,00,
61084368,00000207,false,Rx,1,8,00,00,00,00,C8,00,04,00,
61084609,00000227,false,Rx,1,8,00,00,0D,7F,03,00,1F,C5,
61084857,00000237,false,Rx,1,8,3C,41,00,00,00,00,00,00,
61085089,00000247,false,Rx,1,8,44,7D,08,02,00,00,20,00,
61085331,00000717,false,Rx,1,8,10,08,E0,FE,04,90,FF,00,
61093993,00000217,false,Rx,1,8,00,00,01,FC,9C,02,00,00,
61094239,00000377,false,Rx,1,8,00,00,00,00,00,00,00,00,
61104101,00000347,false,Rx,1,8,00,00,00,00,00,08,00,00,
61114098,00000357,false,Rx,1,8,00,00,00,00,00,00,00,00,
61124081,00000327,false,Rx,1,8,00,00,00,00,00,00,00,00,
61134076,00000337,false,Rx,1,8,00,00,00,00,00,00,00,00,
61184184,00000207,false,Rx,1,8,00,00,C0,FF,C8,00,04,00,
61184432,00000227,false,Rx,1,8,00,00,24,7F,02,00,1F,C5,
61184680,00000237,false,Rx,1,8,3C,41,00,00,00,00,00,00,
61184912,00000247,false,Rx,1,8,44,7D,08,02,00,00,20,00,
61185153,00000717,false,Rx,1,8,11,00,12,E4,00,00,00,00,
61193962,00000217,false,Rx,1,8,00,00,01,FC,9C,02,00,00,
61284131,00000207,false,Rx,1,8,00,00,00,00,C8,00,04,00,
61284372,00000227,false,Rx,1,8,00,00,26,7F,01,00,1F,C5,
61284619,00000237,false,Rx,1,8,3C,41,00,00,00,00,00,00,
61284859,00000247,false,Rx,1,8,44,7D,08,02,00,00,20,00,
61285093,00000717,false,Rx,1,8,12,40,29,00,27,00,17,00,
61293923,00000217,false,Rx,1,8,00,00,01,FC,9C,02,00,00,
61384132,00000207,false,Rx,1,8,00,00,C0,FF,C8,00,04,00,
61384372,00000227,false,Rx,1,8,00,00,37,7F,00,00,1F,C5,
61384619,00000237,false,Rx,1,8,3C,41,00,00,00,00,00,00,
61384860,00000247,false,Rx,1,8,44,7D,08,02,00,00,20,00,
61385108,00000717,false,Rx,1,8,13,00,00,00,00,00,00,00,
61393932,00000217,false,Rx,1,8,00,00,01,FC,9C,02,00,00,
61484101,00000207,false,Rx,1,8,00,00,C0,FF,C8,00,04,00,
61484341,00000227,false,Rx,1,8,00,00,3D,7F,02,00,1F,C5,
61484581,00000237,false,Rx,1,8,3C,41,00,00,00,00,00,00,
61484822,00000247,false,Rx,1,8,44,7D,07,02,00,00,20,00,
61485069,00000537,false,Rx,1,8,0E,00,00,00,00,00,00,00,
61485318,00000717,false,Rx,1,8,14,00,00,00,D6,FF,00,00,
61493903,00000217,false,Rx,1,8,00,00,01,FC,9C,02,00,00,
61584086,00000207,false,Rx,1,8,00,00,C0,FF,C8,00,04,00,
61584326,00000227,false,Rx,1,8,00,00,2E,7F,02,00,1F,C5,
61584574,00000237,false,Rx,1,8,3C,41,00,00,00,00,00,00,
61584807,00000247,false,Rx,1,8,44,7D,08,02,00,00,20,00,
61593877,00000217,false,Rx,1,8,00,00,01,FC,9C,02,00,00,
61684065,00000207,false,Rx,1,8,00,00,00,00,C8,00,04,00,
61684306,00000227,false,Rx,1,8,00,00,36,7F,0C,00,1F,C5,
61684554,00000237,false,Rx,1,8,3C,41,00,00,00,00,00,00,
61684786,00000247,false,Rx,1,8,44,7D,08,02,00,00,20,00,
61685026,00000717,false,Rx,1,8,16,00,00,00,00,00,CE,45,
61693867,00000217,false,Rx,1,8,00,00,01,FC,9C,02,00,00,
61784040,00000207,false,Rx,1,8,00,00,C0,FF,C8,00,04,00,
61784282,00000227,false,Rx,1,8,00,00,34,7F,05,00,1F,C5,
61784521,00000237,false,Rx,1,8,3C,41,00,00,00,00,00,00,
61784761,00000247,false,Rx,1,8,44,7D,08,02,00,00,20,00,
61785002,00000717,false,Rx,1,8,17,00,00,50,04,00,00,00,
61793824,00000217,false,Rx,1,8,00,00,01,FC,9C,02,00,00,
61884039,00000207,false,Rx,1,8,00,00,C0,FF,C8,00,04,00,
61884279,00000227,false,Rx,1,8,00,00,3A,7F,01,00,1F,C5,
61884526,00000237,false,Rx,1,8,3C,41,00,00,00,00,00,00,
61884760,00000247,false,Rx,1,8,44,7D,08,02,00,00,20,00,
61885007,00000717,false,Rx,1,8,18,00,00,00,00,00,00,00,
61893822,00000217,false,Rx,1,8,00,00,01,FC,9C,02,00,00,
61983975,00000207,false,Rx,1,8,00,00,C0,FF,C8,00,04,00,
61984214,00000227,false,Rx,1,8,00,00,36,7F,00,00,1F,C5,
61984463,00000237,false,Rx,1,8,3C,41,00,00,00,00,00,00,
61984696,00000247,false,Rx,1,8,44,7D,08,02,00,00,20,00,
61984943,00000717,false,Rx,1,8,19,00,00,00,00,00,00,00,
61993791,00000217,false,Rx,1,8,00,00,01,FC,9C,02,00,00,
62083882,00000367,false,Rx,1,8,00,00,00,00,00,00,00,00,
62084128,00000207,false,Rx,1,8,00,00,C0,FF,C8,00,04,00,
62084369,00000227,false,Rx,1,8,00,00,2A,7F,06,00,1F,C5,
62084618,00000237,false,Rx,1,8,3C,41,00,00,00,00,00,00,
62084850,00000247,false,Rx,1,8,44,7D,08,02,00,00,20,00,
62085098,00000717,false,Rx,1,8,01,00,00,00,00,00,00,00,
62093759,00000217,false,Rx,1,8,00,00,01,FC,9C,02,00,00,
62094013,00000377,false,Rx,1,8,00,00,00,00,00,00,00,00,
62103890,00000347,false,Rx,1,8,00,00,00,00,00,08,00,00,
62113895,00000357,false,Rx,1,8,00,00,00,00,00,00,00,00,
62123893,00000327,false,Rx,1,8,00,00,00,00,00,00,00,00,
62133891,00000337,false,Rx,1,8,00,00,00,00,00,00,00,00,
62183970,00000207,false,Rx,1,8,00,00,00,00,C8,00,04,00,
62184201,00000227,false,Rx,1,8,00,00,86,76,04,00,1F,C5,
62184451,00000237,false,Rx,1,8,3C,41,00,00,00,00,00,00,
62184691,00000247,false,Rx,1,8,44,7D,24,02,00,00,20,00,
62184938,00000717,false,Rx,1,8,02,00,00,00,00,00,00,00,
62193756,00000217,false,Rx,1,8,00,00,01,FC,9C,02,00,00,
62283928,00000207,false,Rx,1,8,00,00,C0,FF,C8,00,04,00,
62284160,00000227,false,Rx,1,8,00,00,89,6D,03,00,1F,C5,
62284409,00000237,false,Rx,1,8,3C,41,00,00,00,00,00,00,
62284648,00000247,false,Rx,1,8,44,7D,4F,02,00,00,20,00,
62293718,00000217,false,Rx,1,8,00,00,01,FC,9C,02,00,00,
62383934,00000207,false,Rx,1,8,00,00,00,00,C8,00,04,00,
62384166,00000227,false,Rx,1,8,00,00,48,65,03,00,1F,C5,
62384415,00000237,false,Rx,1,8,3C,41,00,00,00,00,00,00,
62384654,00000247,false,Rx,1,8,44,7D,94,02,00,00,20,00,
62384888,00000537,false,Rx,1,8,0F,00,00,00,8C,A1,70,0A,
62385135,00000717,false,Rx,1,8,04,00,00,00,00,00,00,00,
62393706,00000217,false,Rx,1,8,00,00,01,FC,9C,02,00,00,
62483898,00000207,false,Rx,1,8,00,00,00,00,C8,00,04,00,
62484129,00000227,false,Rx,1,8,00,00,99,5D,01,00,1F,C5,
62484378,00000237,false,Rx,1,8,3C,41,00,00,00,00,00,00,
62484618,00000247,false,Rx,1,8,44,7D,20,03,00,00,20,00,
62484866,00000717,false,Rx,1,8,05,00,00,00,00,00,00,00,
62493697,00000217,false,Rx,1,8,00,00,01,FC,9C,02,00,00,
62583850,00000207,false,Rx,1,8,00,00,C0,FF,C8,00,04,00,
62584089,00000227,false,Rx,1,8,00,00,83,56,01,00,1F,C5,
62584338,00000237,false,Rx,1,8,3C,41,00,00,00,00,00,00,
62584571,00000247,false,Rx,1,8,44,7D,6E,03,00,00,20,00,
62584811,00000717,false,Rx,1,8,06,00,4A,46,66,06,00,40,
62593652,00000217,false,Rx,1,8,00,00,01,FC,9C,02,00,00,
62683852,00000207,false,Rx,1,8,00,00,00,00,C8,00,04,00,
62684090,00000227,false,Rx,1,8,00,00,F7,4F,00,00,1F,C5,
62684340,00000237,false,Rx,1,8,3C,41,00,00,00,00,00,00,
62684572,00000247,false,Rx,1,8,44,7D,6E,03,00,00,20,00,
62684820,00000717,false,Rx,1,8,07,00,00,00,00,0A,00,00,
62693643,00000217,false,Rx,1,8,00,00,01,FC,9C,02,00,00,
62783812,00000207,false,Rx,1,8,00,00,00,00,C8,00,04,00,
62784050,00000227,false,Rx,1,8,00,00,EF,49,02,00,1F,C5,
62784300,00000237,false,Rx,1,8,3C,41,00,00,00,00,00,00,
62784532,00000247,false,Rx,1,8,44,7D,6E,03,00,00,20,00,
62784780,00000717,false,Rx,1,8,08,00,00,00,BE,45,00,00,
62793626,00000217,false,Rx,1,8,00,00,01,FC,9C,02,00,00,
62883817,00000207,false,Rx,1,8,00,00,C0,FF,C8,00,04,00,
62884056,00000227,false,Rx,1,8,00,00,4C,44,00,00,1F,C5,
62884305,00000237,false,Rx,1,8,3C,41,00,00,00,00,00,00,
62884545,00000247,false,Rx,1,8,44,7D,6E,03,00,00,20,00,
62884786,00000717,false,Rx,1,8,09,00,FA,45,00,00,00,00,
62893608,00000217,false,Rx,1,8,00,00,01,FC,9C,02,00,00,
62983788,00000207,false,Rx,1,8,00,00,C0,FF,C8,00,04,00,
62984034,00000227,false,Rx,1,8,00,00,1F,3F,01,00,1F,C5,
62984283,00000237,false,Rx,1,8,3C,41,00,00,00,00,00,00,
62984515,00000247,false,Rx,1,8,44,7D,6E,03,00,00,20,00,
62984764,00000717,false,Rx,1,8,0A,00,00,00,00,00,00,00,
62993588,00000217,false,Rx,1,8,00,00,01,FC,9C,02,00,00,
63083664,00000367,false,Rx,1,8,00,00,00,00,00,00,00,00,
63083910,00000207,false,Rx,1,8,00,00,00,00,C8,00,04,00,
63084150,00000227,false,Rx,1,8,00,00,54,3A,02,00,1F,C5,
63084392,00000237,false,Rx,1,8,3C,41,00,00,00,00,00,00,
63084631,00000247,false,Rx,1,8,44,7D,6E,03,00,00,20,00,
63084879,00000717,false,Rx,1,8,0B,00,00,00,00,00,00,00,
63093542,00000217,false,Rx,1,8,00,00,01,FC,9C,02,00,00,
63093789,00000377,false,Rx,1,8,00,00,00,00,00,00,00,00,
63103659,00000347,false,Rx,1,8,00,00,00,00,00,08,00,00,
63113656,00000357,false,Rx,1,8,00,00,00,00,00,00,00,00,
63123661,00000327,false,Rx,1,8,00,00,00,00,00,00,00,00,
63133665,00000337,false,Rx,1,8,00,00,00,00,00,00,00,00,
63183761,00000207,false,Rx,1,8,00,00,C0,FF,C8,00,04,00,
63183993,00000227,false,Rx,1,8,00,00,E6,35,01,00,1F,C5,
63184242,00000237,false,Rx,1,8,3C,41,00,00,00,00,00,00,
63184482,00000247,false,Rx,1,8,44,7D,6E,03,00,00,20,00,
63184722,00000717,false,Rx,1,8,0C,01,00,00,00,00,01,00,
63193539,00000217,false,Rx,1,8,00,00,01,FC,9C,02,00,00,
63283703,00000207,false,Rx,1,8,00,00,C0,FF,C8,00,04,00,
63283942,00000227,false,Rx,1,8,00,00,C9,31,00,00,1F,C5,
63284183,00000237,false,Rx,1,8,3C,41,00,00,00,00,00,00,
63284425,00000247,false,Rx,1,8,44,7D,6E,03,00,00,20,00,
63284672,00000537,false,Rx,1,8,10,00,00,0A,00,00,00,00,
63284906,00000717,false,Rx,1,8,0E,00,00,02,66,62,00,00,
63293523,00000217,false,Rx,1,8,00,00,01,FC,9C,02,00,00,
63383690,00000207,false,Rx,1,8,00,00,00,00,C8,00,04,00,
63383930,00000227,false,Rx,1,8,00,00,FA,2D,01,00,1F,C5,
63384178,00000237,false,Rx,1,8,3C,41,00,00,00,00,00,00,
63384413,00000247,false,Rx,1,8,44,7D,6E,03,00,00,20,00,
63384654,00000717,false,Rx,1,8,0F,00,EB,01,56,0E,00,00,
63393485,00000217,false,Rx,1,8,00,00,01,FC,9C,02,00,00,
63483683,00000207,false,Rx,1,8,00,00,00,00,C8,00,04,00,
63483930,00000227,false,Rx,1,8,00,00,78,2A,00,00,1F,C5,
63484177,00000237,false,Rx,1,8,3C,41,00,00,00,00,00,00,
63484411,00000247,false,Rx,1,8,44,7D,6E,03,00,00,20,00,
63484652,00000717,false,Rx,1,8,10,08,E0,FE,04,90,FF,00,
63493476,00000217,false,Rx,1,8,00,00,01,FC,9C,02,00,00,
63583644,00000207,false,Rx,1,8,00,00,C0,FF,C8,00,04,00,
63583883,00000227,false,Rx,1,8,00,00,33,27,07,00,1F,C5,
63584130,00000237,false,Rx,1,8,3C,41,00,00,00,00,00,00,
63584372,00000247,false,Rx,1,8,44,7D,6E,03,00,00,20,00,
63584612,00000717,false,Rx,1,8,11,00,12,E4,00,00,00,00,
63593429,00000217,false,Rx,1,8,00,00,01,FC,9C,02,00,00,
63683649,00000207,false,Rx,1,8,00,00,C0,FF,C8,00,04,00,
63683887,00000227,false,Rx,1,8,00,00,2B,24,06,00,1F,C5,
63684135,00000237,false,Rx,1,8,3C,41,00,00,00,00,00,00,
63684369,00000247,false,Rx,1,8,44,7D,6E,03,00,00,20,00,
63684609,00000717,false,Rx,1,8,12,40,29,00,27,00,17,00,
63693440,00000217,false,Rx,1,8,00,00,01,FC,9C,02,00,00,
63783631,00000207,false,Rx,1,8,00,00,C0,FF,C8,00,04,00,
63783877,00000227,false,Rx,1,8,00,00,65,21,07,00,1F,C5,
63784126,00000237,false,Rx,1,8,3C,41,00,00,00,00,00,00,
63784360,00000247,false,Rx,1,8,44,7D,6E,03,00,00,20,00,
63784608,00000717,false,Rx,1,8,13,00,00,00,00,00,00,00,
63793417,00000217,false,Rx,1,8,00,00,01,FC,9C,02,00,00,
63883570,00000207,false,Rx,1,8,00,00,C0,FF,C8,00,04,00,
63883801,00000227,false,Rx,1,8,00,00,C9,1E,04,00,1F,C5,
63884050,00000237,false,Rx,1,8,3C,41,00,00,00,00,00,00,
63884291,00000247,false,Rx,1,8,44,7D,6E,03,00,00,20,00,
63884531,00000717,false,Rx,1,8,14,00,00,00,E7,FF,00,00,
63893372,00000217,false,Rx,1,8,00,00,01,FC,9C,02,00,00,
63983572,00000207,false,Rx,1,8,00,00,C0,FF,C8,00,04,00,
63983812,00000227,false,Rx,1,8,00,00,68,1C,01,00,1F,C5,
63984060,00000237,false,Rx,1,8,3C,41,00,00,00,00,00,00,
63984293,00000247,false,Rx,1,8,44,7D,6E,03,00,00,20,00,
63993372,00000217,false,Rx,1,8,00,00,01,FC,9C,02,00,00,
64083454,00000367,false,Rx,1,8,00,00,00,00,00,00,00,00,
64083701,00000207,false,Rx,1,8,00,00,C0,FF,C8,00,04,00,
64083941,00000227,false,Rx,1,8,00,00,38,1A,03,00,1F,C5,
64084188,00000237,false,Rx,1,8,3C,41,00,00,00,00,00,00,
64084423,00000247,false,Rx,1,8,44,7D,6E,03,00,00,20,00,
64084670,00000717,false,Rx,1,8,16,00,00,00,00,00,4E,46,
64093353,00000217,false,Rx,1,8,00,00,01,FC,9C,02,00,00,
64093601,00000377,false,Rx,1,8,00,00,00,00,00,00,00,00,
64103446,00000347,false,Rx,1,8,00,00,00,00,00,08,00,00,
64113449,00000357,false,Rx,1,8,00,00,00,00,00,00,00,00,
64123446,00000327,false,Rx,1,8,00,00,00,00,00,00,00,00,
64133444,00000337,false,Rx,1,8,00,00,00,00,00,00,00,00,
64183545,00000207,false,Rx,1,8,00,00,C0,FF,C8,00,04,00,
64183784,00000227,false,Rx,1,8,00,00,25,18,05,00,1F,C5,
64184031,00000237,false,Rx,1,8,3C,41,00,00,00,00,00,00,
64184266,00000247,false,Rx,1,8,44,7D,6E,03,00,00,20,00,
64184521,00000537,false,Rx,1,8,11,00,00,00,00,00,00,00,
64184761,00000717,false,Rx,1,8,17,00,00,50,04,00,00,00,
64193325,00000217,false,Rx,1,8,00,00,01,FC,9C,02,00,00,
64283512,00000207,false,Rx,1,8,00,00,00,00,C8,00,04,00,
64283751,00000227,false,Rx,1,8,00,00,3D,16,00,00,1F,C5,
64284000,00000237,false,Rx,1,8,3C,41,00,00,00,00,00,00,
64284239,00000247,false,Rx,1,8,44,7D,6E,03,00,00,20,00,
64284488,00000717,false,Rx,1,8,18,00,00,00,00,00,00,00,
64293304,00000217,false,Rx,1,8,00,00,01,FC,9C,02,00,00,
64383484,00000207,false,Rx,1,8,00,00,C0,FF,C8,00,04,00,
64383723,00000227,false,Rx,1,8,00,00,7D,14,04,00,1F,C5,
64383972,00000237,false,Rx,1,8,3C,41,00,00,00,00,00,00,
64384204,00000247,false,Rx,1,8,44,7D,6E,03,00,00,20,00,
64384452,00000717,false,Rx,1,8,19,00,00,00,00,00,00,00,
64393261,00000217,false,Rx,1,8,00,00,01,FC,9C,02,00,00,
64483474,00000207,false,Rx,1,8,00,00,00,00,C8,00,04,00,
64483706,00000227,false,Rx,1,8,00,00,E3,12,0C,00,1F,C5,
64483953,00000237,false,Rx,1,8,3C,41,00,00,00,00,00,00,
64484193,00000247,false,Rx,1,8,44,7D,6E,03,00,00,20,00,
64484443,00000717,false,Rx,1,8,01,00,00,00,00,00,00,00,
64493266,00000217,false,Rx,1,8,00,00,01,FC,9C,02,00,00,
64583424,00000207,false,Rx,1,8,00,00,C0,FF,C8,00,04,00,
64583656,00000227,false,Rx,1,8,00,00,5E,11,00,00,1F,C5,
64583903,00000237,false,Rx,1,8,3C,41,00,00,00,00,00,00,
64584143,00000247,false,Rx,1,8,44,7D,6E,03,00,00,20,00,
64584393,00000717,false,Rx,1,8,02,00,00,00,00,00,00,00,
64593238,00000217,false,Rx,1,8,00,00,01,FC,9C,02,00,00,
64683427,00000207,false,Rx,1,8,00,00,00,00,C8,00,04,00,
64683666,00000227,false,Rx,1,8,00,00,F9,0F,02,00,1F,C5,
64683914,00000237,false,Rx,1,8,3C,41,00,00,00,00,00,00,
