Time Stamp,ID,Extended,Dir,Bus,LEN,D1,D2,D3,D4,D5,D6,D7,D8
10935876,000005E7,false,Rx,1,8,00,3F,05,06,00,00,00,01,
11057245,00000217,false,Rx,1,8,00,00,80,FF,7D,02,00,04,
11147456,00000207,false,Rx,1,8,00,01,40,FF,00,00,04,00,
11147703,00000227,false,Rx,1,8,00,00,00,00,02,00,1F,C5,
11147952,00000237,false,Rx,1,8,3D,41,00,00,00,00,00,00,
11148192,00000247,false,Rx,1,8,00,7D,6E,03,00,00,20,00,
11148439,00000717,false,Rx,1,8,02,00,00,00,00,00,00,00,
11157248,00000217,false,Rx,1,8,00,00,80,FF,9C,02,01,04,
11247416,00000207,false,Rx,1,8,01,01,80,FF,C8,02,04,00,
11247656,00000227,false,Rx,1,8,00,00,00,00,01,00,1F,C5,
11247904,00000237,false,Rx,1,8,3D,41,00,00,00,00,00,00,
11248144,00000247,false,Rx,1,8,44,7D,6E,03,00,00,20,00,
11257227,00000217,false,Rx,1,8,02,00,80,FF,9C,02,01,04,
11347405,00000207,false,Rx,1,8,01,01,80,FF,C8,02,04,00,
11347651,00000227,false,Rx,1,8,00,00,00,00,01,00,1F,C5,
11347900,00000237,false,Rx,1,8,3D,41,00,00,00,00,00,00,
11348141,00000247,false,Rx,1,8,44,7D,6E,03,00,00,20,00,
11348388,00000717,false,Rx,1,8,04,00,00,00,00,00,00,00,
11357205,00000217,false,Rx,1,8,02,40,00,FF,9C,02,01,04,
11447389,00000207,false,Rx,1,8,01,01,80,FF,C8,02,04,00,
11447635,00000227,false,Rx,1,8,00,00,00,00,07,00,1F,C5,
11447884,00000237,false,Rx,1,8,3D,41,00,00,00,00,00,00,
11448124,00000247,false,Rx,1,8,44,7D,6E,03,00,00,20,00,
11448372,00000717,false,Rx,1,8,05,00,00,00,00,00,00,00,
11457179,00000217,false,Rx,1,8,02,40,00,FF,9C,02,01,04,
11547343,00000207,false,Rx,1,8,01,01,80,FF,C8,02,04,00,
11547582,00000227,false,Rx,1,8,00,00,00,00,08,00,1F,C5,
11547831,00000237,false,Rx,1,8,3D,41,00,00,00,00,00,00,
11548071,00000247,false,Rx,1,8,44,7D,6E,03,00,00,20,00,
11548304,00000717,false,Rx,1,8,06,00,B6,44,66,06,00,40,
11557135,00000217,false,Rx,1,8,02,40,00,FF,9C,02,01,04,
11647353,00000207,false,Rx,1,8,01,01,80,FF,C8,02,04,00,
11647600,00000227,false,Rx,1,8,00,00,00,00,00,00,1F,C5,
11647850,00000237,false,Rx,1,8,3D,41,00,00,00,00,00,00,
11648082,00000247,false,Rx,1,8,44,7D,6E,03,00,00,20,00,
11648330,00000717,false,Rx,1,8,07,00,00,00,02,0A,00,00,
11657146,00000217,false,Rx,1,8,02,40,00,FF,9C,02,01,04,
11747306,00000207,false,Rx,1,8,01,01,80,FF,C8,00,04,00,
11747553,00000227,false,Rx,1,8,00,00,00,00,02,00,1F,C5,
11747801,00000237,false,Rx,1,8,3D,41,00,00,00,00,00,00,
11748042,00000247,false,Rx,1,8,44,7D,6E,03,00,00,20,00,
11748283,00000717,false,Rx,1,8,08,00,00,00,32,45,00,00,
11757122,00000217,false,Rx,1,8,02,80,80,FE,9C,02,00,04,
11847290,00000207,false,Rx,1,8,01,01,80,FF,C8,00,04,00,
11847537,00000227,false,Rx,1,8,00,00,00,00,02,00,1F,C5,
11847792,00000237,false,Rx,1,8,3D,41,00,00,00,00,00,00,
11848026,00000247,false,Rx,1,8,44,7D,6E,03,00,00,20,00,
11848267,00000717,false,Rx,1,8,09,00,8A,45,00,00,00,00,
11857082,00000217,false,Rx,1,8,02,80,80,FE,9C,02,00,04,
11947289,00000207,false,Rx,1,8,01,01,80,FF,C8,00,04,00,
11947528,00000227,false,Rx,1,8,00,00,00,00,00,00,1F,C5,
11947775,00000237,false,Rx,1,8,3D,41,00,00,00,00,00,00,
11948018,00000247,false,Rx,1,8,44,7D,6E,03,00,00,20,00,
11948265,00000717,false,Rx,1,8,0A,00,00,00,00,00,00,00,
11957073,00000217,false,Rx,1,8,02,80,80,FE,9C,02,00,04,
12047168,00000367,false,Rx,1,8,00,00,00,00,00,00,00,00,
12047414,00000207,false,Rx,1,8,01,01,80,FF,C8,00,04,00,
12047654,00000227,false,Rx,1,8,00,00,00,00,0A,00,1F,C5,
12047904,00000237,false,Rx,1,8,3D,41,00,00,00,00,00,00,
12048136,00000247,false,Rx,1,8,44,7D,6E,03,00,00,20,00,
12048384,00000717,false,Rx,1,8,0B,00,00,00,00,00,00,00,
12057033,00000217,false,Rx,1,8,02,80,80,FE,9C,02,00,04,
12057279,00000507,false,Rx,1,8,2C,00,00,00,00,00,00,40,
12057526,00000377,false,Rx,1,8,00,00,00,00,00,00,00,00,
12067160,00000347,false,Rx,1,8,00,00,00,00,00,08,00,00,
12077157,00000357,false,Rx,1,8,00,00,00,00,00,00,00,00,
12087161,00000327,false,Rx,1,8,00,00,00,00,00,00,00,00,
12097150,00000337,false,Rx,1,8,00,00,00,00,00,00,00,00,
12107155,00000367,false,Rx,1,8,00,00,00,00,00,00,00,00,
12117158,00000377,false,Rx,1,8,00,00,00,00,00,00,00,00,
12127162,00000347,false,Rx,1,8,00,00,00,00,00,08,00,00,
12137165,00000357,false,Rx,1,8,00,00,00,00,00,00,00,00,
12147157,00000327,false,Rx,1,8,00,00,00,00,00,00,00,00,
12147403,00000207,false,Rx,1,8,01,01,C0,FF,C8,00,04,00,
12147652,00000227,false,Rx,1,8,00,00,00,00,04,00,1F,C5,
12147900,00000237,false,Rx,1,8,3D,41,00,00,00,00,00,00,
12148140,00000247,false,Rx,1,8,44,7D,6E,03,00,00,20,00,
12148380,00000717,false,Rx,1,8,0C,01,00,04,04,00,01,00,
12157037,00000217,false,Rx,1,8,02,80,00,FE,9C,02,00,04,
12157291,00000337,false,Rx,1,8,00,00,00,00,00,00,00,00,
12247223,00000207,false,Rx,1,8,01,01,C0,FF,C8,00,04,00,
12247470,00000227,false,Rx,1,8,00,00,00,00,00,00,1F,C5,
12247717,00000237,false,Rx,1,8,3D,41,00,00,00,00,00,00,
12247960,00000247,false,Rx,1,8,44,7D,6E,03,00,00,20,00,
12248200,00000717,false,Rx,1,8,0E,00,00,02,A6,04,00,00,
12257010,00000217,false,Rx,1,8,02,80,00,FE,9C,02,00,04,
12347182,00000207,false,Rx,1,8,01,01,C0,FF,C8,00,04,00,
12347430,00000227,false,Rx,1,8,00,00,00,00,03,00,1F,C5,
12347677,00000237,false,Rx,1,8,3D,41,00,00,00,00,00,00,
12347918,00000247,false,Rx,1,8,44,7D,6E,03,00,00,20,00,
12348152,00000717,false,Rx,1,8,0F,00,EB,01,EE,0D,00,00,
12356968,00000217,false,Rx,1,8,02,C0,00,FE,9C,02,00,04,
12447188,00000207,false,Rx,1,8,00,01,C0,FF,C8,00,04,00,
12447434,00000227,false,Rx,1,8,00,00,00,00,00,00,1F,C5,
12447681,00000237,false,Rx,1,8,3D,41,00,00,00,00,00,00,
12447923,00000247,false,Rx,1,8,44,7D,6E,03,00,00,20,00,
12448156,00000717,false,Rx,1,8,10,06,70,FF,03,B0,FF,00,
12456973,00000217,false,Rx,1,8,02,C0,00,FE,9C,02,00,04,
12547147,00000207,false,Rx,1,8,00,00,C0,FF,C8,00,04,00,
12547394,00000227,false,Rx,1,8,00,00,00,00,01,00,1F,C5,
12547641,00000237,false,Rx,1,8,3D,41,00,00,00,00,00,00,
12547875,00000247,false,Rx,1,8,44,7D,6E,03,00,00,20,00,
12548123,00000717,false,Rx,1,8,11,00,00,00,00,00,02,02,
12556930,00000217,false,Rx,1,8,02,C0,00,FE,9C,02,00,04,
12647138,00000207,false,Rx,1,8,00,00,C0,FF,C8,00,04,00,
12647384,00000227,false,Rx,1,8,00,00,00,00,07,00,1F,C5,
12647632,00000237,false,Rx,1,8,3D,41,00,00,00,00,00,00,
12647873,00000247,false,Rx,1,8,44,7D,6E,03,00,00,20,00,
12648106,00000717,false,Rx,1,8,12,40,25,00,27,00,15,00,
12656924,00000217,false,Rx,1,8,02,C0,80,FD,9C,02,00,04,
12747120,00000207,false,Rx,1,8,00,00,C0,FF,C8,00,04,00,
12747366,00000227,false,Rx,1,8,00,00,00,00,02,00,1F,C5,
12747614,00000237,false,Rx,1,8,3D,41,00,00,00,00,00,00,
12747848,00000247,false,Rx,1,8,44,7D,6E,03,00,00,20,00,
12748095,00000717,false,Rx,1,8,13,00,00,00,00,00,00,00,
12756898,00000217,false,Rx,1,8,02,C0,80,FD,9C,02,00,04,
12847081,00000207,false,Rx,1,8,00,00,C0,FF,C8,00,04,00,
12847321,00000227,false,Rx,1,8,00,00,00,00,00,00,1F,C5,
12847568,00000237,false,Rx,1,8,3D,41,00,00,00,00,00,00,
12847808,00000247,false,Rx,1,8,44,7D,6E,03,00,00,20,00,
12848050,00000717,false,Rx,1,8,14,00,00,00,E2,FF,00,00,
12856873,00000217,false,Rx,1,8,02,C0,80,FD,9C,02,00,04,
12947084,00000207,false,Rx,1,8,00,00,C0,FF,C8,00,04,00,
12947324,00000227,false,Rx,1,8,00,00,00,00,01,00,1F,C5,
12947572,00000237,false,Rx,1,8,3D,41,00,00,00,00,00,00,
12947812,00000247,false,Rx,1,8,44,7D,6E,03,00,00,20,00,
12956867,00000217,false,Rx,1,8,02,C0,80,FD,9C,02,00,04,
13046948,00000367,false,Rx,1,8,00,00,00,00,00,00,00,00,
13047195,00000207,false,Rx,1,8,00,00,C0,FF,C8,00,04,00,
13047442,00000227,false,Rx,1,8,00,00,00,00,05,00,1F,C5,
13047690,00000237,false,Rx,1,8,3D,41,00,00,00,00,00,00,
13047925,00000247,false,Rx,1,8,44,7D,6E,03,00,00,20,00,
13048172,00000717,false,Rx,1,8,16,00,00,00,00,00,4E,46,
13056840,00000217,false,Rx,1,8,02,C0,80,FD,9C,02,00,04,
13057087,00000377,false,Rx,1,8,00,00,00,00,00,00,00,00,
13066941,00000347,false,Rx,1,8,00,00,00,00,00,08,00,00,
13076939,00000357,false,Rx,1,8,00,00,00,00,00,00,00,00,
13086937,00000327,false,Rx,1,8,00,00,00,00,00,00,00,00,
13096934,00000337,false,Rx,1,8,00,00,00,00,00,00,00,00,
13147029,00000207,false,Rx,1,8,00,00,C0,FF,C8,00,04,00,
13147275,00000227,false,Rx,1,8,00,00,00,00,03,00,1F,C5,
13147523,00000237,false,Rx,1,8,3D,41,00,00,00,00,00,00,
13147764,00000247,false,Rx,1,8,44,7D,6E,03,00,00,20,00,
13148004,00000717,false,Rx,1,8,17,00,00,C0,03,00,00,00,
13156820,00000217,false,Rx,1,8,02,C0,80,FD,9C,02,00,04,
13247019,00000207,false,Rx,1,8,00,00,C0,FF,C8,00,04,00,
13247265,00000227,false,Rx,1,8,00,00,00,00,01,00,1F,C5,
13247514,00000237,false,Rx,1,8,3D,41,00,00,00,00,00,00,
13247754,00000247,false,Rx,1,8,44,7D,6E,03,00,00,20,00,
13248002,00000717,false,Rx,1,8,18,00,00,00,00,00,00,00,
13256802,00000217,false,Rx,1,8,02,C0,00,FD,9C,02,00,04,
13346978,00000207,false,Rx,1,8,00,00,C0,FF,C8,00,04,00,
13347217,00000227,false,Rx,1,8,00,00,00,00,0A,00,1F,C5,
13347466,00000237,false,Rx,1,8,3D,41,00,00,00,00,00,00,
13347706,00000247,false,Rx,1,8,44,7D,6E,03,00,00,20,00,
13347954,00000717,false,Rx,1,8,19,00,00,00,00,00,00,00,
13356763,00000217,false,Rx,1,8,02,C0,00,FD,9C,02,00,04,
13446968,00000207,false,Rx,1,8,00,00,C0,FF,C8,00,04,00,
13447215,00000227,false,Rx,1,8,00,00,00,00,05,00,1F,C5,
13447463,00000237,false,Rx,1,8,3D,41,00,00,00,00,00,00,
13447703,00000247,false,Rx,1,8,44,7D,6E,03,00,00,20,00,
13447954,00000717,false,Rx,1,8,01,00,00,00,00,00,00,00,
13456754,00000217,false,Rx,1,8,02,C0,00,FD,9C,02,00,04,
13546910,00000207,false,Rx,1,8,00,00,C0,FF,C8,00,04,00,
13547165,00000227,false,Rx,1,8,00,00,00,00,02,00,1F,C5,
13547412,00000237,false,Rx,1,8,3D,41,00,00,00,00,00,00,
13547644,00000247,false,Rx,1,8,44,7D,6E,03,00,00,20,00,
13547894,00000717,false,Rx,1,8,02,00,00,00,00,00,00,00,
13556733,00000217,false,Rx,1,8,02,C0,00,FD,9C,02,00,04,
13646903,00000207,false,Rx,1,8,00,00,C0,FF,C8,00,04,00,
13647142,00000227,false,Rx,1,8,00,00,00,00,08,00,1F,C5,
13647389,00000237,false,Rx,1,8,3D,41,00,00,00,00,00,00,
13647630,00000247,false,Rx,1,8,44,7D,6E,03,00,00,20,00,
13656708,00000217,false,Rx,1,8,02,C0,00,FD,9C,02,00,04,
13746893,00000207,false,Rx,1,8,00,00,C0,FF,C8,00,04,00,
13747139,00000227,false,Rx,1,8,00,00,00,00,02,00,1F,C5,
13747388,00000237,false,Rx,1,8,3D,41,00,00,00,00,00,00,
13747628,00000247,false,Rx,1,8,44,7D,6E,03,00,00,20,00,
13747877,00000717,false,Rx,1,8,04,00,00,00,00,00,00,00,
13756692,00000217,false,Rx,1,8,02,C0,00,FD,9C,02,00,04,
13846868,00000207,false,Rx,1,8,00,00,C0,FF,C8,00,04,00,
13847114,00000227,false,Rx,1,8,00,00,00,00,02,00,1F,C5,
13847363,00000237,false,Rx,1,8,3D,41,00,00,00,00,00,00,
13847603,00000247,false,Rx,1,8,44,7D,6E,03,00,00,20,00,
13847844,00000717,false,Rx,1,8,05,00,00,00,00,00,00,00,
13856646,00000217,false,Rx,1,8,02,C0,00,FD,9C,02,00,04,
13946865,00000207,false,Rx,1,8,00,00,C0,FF,C8,00,04,00,
13947105,00000227,false,Rx,1,8,00,00,00,00,00,00,1F,C5,
13947352,00000237,false,Rx,1,8,3D,41,00,00,00,00,00,00,
13947592,00000247,false,Rx,1,8,44,7D,6E,03,00,00,20,00,
13947826,00000717,false,Rx,1,8,06,00,56,46,66,06,00,40,
13956650,00000217,false,Rx,1,8,02,C0,00,FD,9C,02,00,04,
14046741,00000367,false,Rx,1,8,00,00,00,00,00,00,00,00,
14046989,00000207,false,Rx,1,8,00,00,C0,FF,C8,00,04,00,
14047237,00000227,false,Rx,1,8,00,00,00,00,04,00,1F,C5,
14047484,00000237,false,Rx,1,8,3D,41,00,00,00,00,00,00,
14047718,00000247,false,Rx,1,8,44,7D,6E,03,00,00,20,00,
14047967,00000717,false,Rx,1,8,07,00,00,00,02,0A,00,00,
14056636,00000217,false,Rx,1,8,02,00,01,FD,9C,02,00,04,
14056884,00000377,false,Rx,1,8,00,00,00,00,00,00,00,00,
14066735,00000347,false,Rx,1,8,00,00,00,00,00,08,00,00,
14076733,00000357,false,Rx,1,8,00,00,00,00,00,00,00,00,
14086728,00000327,false,Rx,1,8,00,00,00,00,00,00,00,00,
14096726,00000337,false,Rx,1,8,00,00,00,00,00,00,00,00,
14146810,00000207,false,Rx,1,8,00,00,C0,FF,C8,00,04,00,
14147050,00000227,false,Rx,1,8,00,00,00,00,00,00,1F,C5,
14147297,00000237,false,Rx,1,8,3D,41,00,00,00,00,00,00,
14147538,00000247,false,Rx,1,8,44,7D,6E,03,00,00,20,00,
14147778,00000717,false,Rx,1,8,08,00,00,00,3E,46,00,00,
14156595,00000217,false,Rx,1,8,02,00,01,FD,9C,02,00,04,
14246800,00000207,false,Rx,1,8,00,00,C0,FF,C8,00,04,00,
14247047,00000227,false,Rx,1,8,00,00,00,00,00,00,1F,C5,
14247294,00000237,false,Rx,1,8,3D,41,00,00,00,00,00,00,
14247528,00000247,false,Rx,1,8,44,7D,6E,03,00,00,20,00,
14247768,00000717,false,Rx,1,8,09,00,4A,46,00,00,00,00,
14256586,00000217,false,Rx,1,8,02,00,01,FD,9C,02,00,04,
14346759,00000207,false,Rx,1,8,00,00,C0,FF,C8,00,04,00,
14347007,00000227,false,Rx,1,8,00,00,00,00,01,00,1F,C5,
14347255,00000237,false,Rx,1,8,3D,41,00,00,00,00,00,00,
14347495,00000247,false,Rx,1,8,44,7D,6E,03,00,00,20,00,
14347735,00000717,false,Rx,1,8,0A,00,00,00,00,00,00,00,
14356545,00000217,false,Rx,1,8,02,00,01,FD,9C,02,00,04,
14446761,00000207,false,Rx,1,8,00,00,C0,FF,C8,00,04,00,
14447008,00000227,false,Rx,1,8,00,00,00,00,04,00,1F,C5,
14447257,00000237,false,Rx,1,8,3D,41,00,00,00,00,00,00,
14447497,00000247,false,Rx,1,8,44,7D,6E,03,00,00,20,00,
14447744,00000717,false,Rx,1,8,0B,00,00,00,00,00,00,00,
14456550,00000217,false,Rx,1,8,02,00,81,FC,9C,02,00,04,
14546740,00000207,false,Rx,1,8,00,00,C0,FF,C8,00,04,00,
14546981,00000227,false,Rx,1,8,00,00,00,00,00,00,1F,C5,
14547228,00000237,false,Rx,1,8,3D,41,00,00,00,00,00,00,
14547468,00000247,false,Rx,1,8,44,7D,6E,03,00,00,20,00,
14547709,00000717,false,Rx,1,8,0C,01,00,04,04,00,01,00,
14556524,00000217,false,Rx,1,8,02,00,81,FC,9C,02,00,04,
14646686,00000207,false,Rx,1,8,00,00,00,00,C8,00,04,00,
14646927,00000227,false,Rx,1,8,00,00,00,00,02,00,1F,C5,
14647182,00000237,false,Rx,1,8,3D,41,00,00,00,00,00,00,
14647415,00000247,false,Rx,1,8,44,7D,6E,03,00,00,20,00,
14647663,00000717,false,Rx,1,8,0E,00,00,02,06,0E,00,00,
14656479,00000217,false,Rx,1,8,02,00,81,FC,9C,02,00,04,
14746704,00000207,false,Rx,1,8,00,00,C0,FF,C8,00,04,00,
14746945,00000227,false,Rx,1,8,00,00,00,00,03,00,1F,C5,
14747192,00000237,false,Rx,1,8,3D,41,00,00,00,00,00,00,
14747433,00000247,false,Rx,1,8,44,7D,6E,03,00,00,20,00,
14747673,00000717,false,Rx,1,8,0F,00,EB,01,CD,10,00,00,
14756489,00000217,false,Rx,1,8,02,00,81,FC,9C,02,00,04,
14846643,00000207,false,Rx,1,8,00,00,C0,FF,C8,00,04,00,
14846898,00000227,false,Rx,1,8,00,00,00,00,04,00,1F,C5,
14847146,00000237,false,Rx,1,8,3D,41,00,00,00,00,00,00,
14847379,00000247,false,Rx,1,8,44,7D,6E,03,00,00,20,00,
14847618,00000717,false,Rx,1,8,10,08,00,FF,04,90,FF,00,
14856465,00000217,false,Rx,1,8,02,00,81,FC,9C,02,00,04,
14946620,00000207,false,Rx,1,8,00,00,C0,FF,C8,00,04,00,
14946868,00000227,false,Rx,1,8,00,00,00,00,00,00,1F,C5,
14947116,00000237,false,Rx,1,8,3D,41,00,00,00,00,00,00,
14947356,00000247,false,Rx,1,8,44,7D,6E,03,00,00,20,00,
14947596,00000717,false,Rx,1,8,11,00,00,00,00,00,02,02,
14956442,00000217,false,Rx,1,8,02,00,81,FC,9C,02,00,04,
15046524,00000367,false,Rx,1,8,00,00,00,00,00,00,00,00,
15046770,00000207,false,Rx,1,8,00,00,C0,FF,C8,00,04,00,
15047012,00000227,false,Rx,1,8,00,00,00,00,08,00,1F,C5,
15047260,00000237,false,Rx,1,8,3D,41,00,00,00,00,00,00,
15047499,00000247,false,Rx,1,8,44,7D,6E,03,00,00,20,00,
15047733,00000717,false,Rx,1,8,12,40,28,00,27,00,15,00,
15056417,00000217,false,Rx,1,8,02,00,81,FC,9C,02,00,04,
15056663,00000377,false,Rx,1,8,00,00,00,00,00,00,00,00,
15066517,00000347,false,Rx,1,8,00,00,00,00,00,08,00,00,
15076515,00000357,false,Rx,1,8,00,00,00,00,00,00,00,00,
15086512,00000327,false,Rx,1,8,00,00,00,00,00,00,00,00,
15096509,00000337,false,Rx,1,8,00,00,00,00,00,00,00,00,
15146574,00000207,false,Rx,1,8,00,00,00,00,C8,00,04,00,
15146822,00000227,false,Rx,1,8,00,00,00,00,04,00,1F,C5,
15147070,00000237,false,Rx,1,8,3D,41,00,00,00,00,00,00,
15147310,00000247,false,Rx,1,8,44,7D,6E,03,00,00,20,00,
15147559,00000717,false,Rx,1,8,13,00,00,00,00,00,00,00,
15156374,00000217,false,Rx,1,8,02,00,81,FC,9C,02,00,04,
15246597,00000207,false,Rx,1,8,00,00,00,00,C8,00,04,00,
15246845,00000227,false,Rx,1,8,00,00,00,00,01,00,1F,C5,
15247092,00000237,false,Rx,1,8,3D,41,00,00,00,00,00,00,
15247325,00000247,false,Rx,1,8,44,7D,6E,03,00,00,20,00,
15247573,00000717,false,Rx,1,8,14,00,00,00,1F,00,00,00,
15256381,00000217,false,Rx,1,8,02,00,81,FC,9C,02,00,04,
15346533,00000207,false,Rx,1,8,00,00,C0,FF,C8,00,04,00,
15346779,00000227,false,Rx,1,8,00,00,00,00,03,00,1F,C5,
15347027,00000237,false,Rx,1,8,3D,41,00,00,00,00,00,00,
15347268,00000247,false,Rx,1,8,44,7D,6E,03,00,00,20,00,
15356351,00000217,false,Rx,1,8,02,00,81,FC,9C,02,00,04,
15446523,00000207,false,Rx,1,8,00,00,C0,FF,C8,00,04,00,
15446769,00000227,false,Rx,1,8,00,00,00,00,00,00,1F,C5,
15447019,00000237,false,Rx,1,8,3D,41,00,00,00,00,00,00,
15447251,00000247,false,Rx,1,8,44,7D,6E,03,00,00,20,00,
15447498,00000717,false,Rx,1,8,16,00,00,00,00,00,E6,45,
15456316,00000217,false,Rx,1,8,02,00,81,FC,9C,02,00,04,
15546512,00000207,false,Rx,1,8,00,00,C0,FF,C8,00,04,00,
15546758,00000227,false,Rx,1,8,00,00,00,00,01,00,1F,C5,
15547008,00000237,false,Rx,1,8,3D,41,00,00,00,00,00,00,
15547248,00000247,false,Rx,1,8,44,7D,6E,03,00,00,20,00,
15547488,00000717,false,Rx,1,8,17,00,00,40,04,00,00,00,
15556321,00000217,false,Rx,1,8,02,00,81,FC,9C,02,00,04,
15646474,00000207,false,Rx,1,8,00,00,C0,FF,C8,00,04,00,
15646722,00000227,false,Rx,1,8,00,00,00,00,01,00,1F,C5,
15646970,00000237,false,Rx,1,8,3D,41,00,00,00,00,00,00,
15647210,00000247,false,Rx,1,8,44,7D,6E,03,00,00,20,00,
15647458,00000717,false,Rx,1,8,18,00,00,00,00,00,00,00,
15656275,00000217,false,Rx,1,8,02,00,81,FC,9C,02,00,04,
15746467,00000207,false,Rx,1,8,00,00,C0,FF,C8,00,04,00,
15746707,00000227,false,Rx,1,8,00,00,00,00,0A,00,1F,C5,
15746955,00000237,false,Rx,1,8,3D,41,00,00,00,00,00,00,
15747195,00000247,false,Rx,1,8,44,7D,6E,03,00,00,20,00,
15747443,00000717,false,Rx,1,8,19,00,00,00,00,00,00,00,
15756268,00000217,false,Rx,1,8,02,00,81,FC,9C,02,00,04,
15846422,00000207,false,Rx,1,8,00,00,C0,FF,C8,00,04,00,
15846675,00000227,false,Rx,1,8,00,00,00,00,04,00,1F,C5,
15846917,00000237,false,Rx,1,8,3D,41,00,00,00,00,00,00,
15847158,00000247,false,Rx,1,8,44,7D,6E,03,00,00,20,00,
15847406,00000717,false,Rx,1,8,01,00,00,00,00,00,00,00,
15856244,00000217,false,Rx,1,8,02,00,81,FC,9C,02,00,04,
15946401,00000207,false,Rx,1,8,00,00,C0,FF,C8,00,04,00,
15946648,00000227,false,Rx,1,8,00,00,00,00,00,00,1F,C5,
15946896,00000237,false,Rx,1,8,3D,41,00,00,00,00,00,00,
15947130,00000247,false,Rx,1,8,44,7D,6E,03,00,00,20,00,
15947377,00000717,false,Rx,1,8,02,00,00,00,00,00,00,00,
15956201,00000217,false,Rx,1,8,02,00,81,FC,9C,02,00,04,
16046318,00000367,false,Rx,1,8,00,00,00,00,00,00,00,00,
16046565,00000207,false,Rx,1,8,00,00,00,00,C8,00,04,00,
16046813,00000227,false,Rx,1,8,00,00,00,00,04,00,1F,C5,
16047062,00000237,false,Rx,1,8,3D,41,00,00,00,00,00,00,
16047294,00000247,false,Rx,1,8,44,7D,6E,03,00,00,20,00,
16056210,00000217,false,Rx,1,8,02,00,81,FC,9C,02,00,04,
16056456,00000377,false,Rx,1,8,00,00,00,00,00,00,00,00,
16066311,00000347,false,Rx,1,8,00,00,00,00,00,08,00,00,
16076308,00000357,false,Rx,1,8,00,00,00,00,00,00,00,00,
16086305,00000327,false,Rx,1,8,00,00,00,00,00,00,00,00,
16096304,00000337,false,Rx,1,8,00,00,00,00,00,00,00,00,
16146364,00000207,false,Rx,1,8,00,00,C0,FF,C8,00,04,00,
16146612,00000227,false,Rx,1,8,00,00,00,00,02,00,1F,C5,
16146860,00000237,false,Rx,1,8,3D,41,00,00,00,00,00,00,
16147100,00000247,false,Rx,1,8,44,7D,6E,03,00,00,20,00,
16147347,00000717,false,Rx,1,8,04,00,00,00,00,00,00,00,
16156186,00000217,false,Rx,1,8,02,00,81,FC,9C,02,00,04,
16246361,00000207,false,Rx,1,8,00,00,00,00,C8,00,04,00,
16246608,00000227,false,Rx,1,8,00,00,00,00,00,00,1F,C5,
16246857,00000237,false,Rx,1,8,3D,41,00,00,00,00,00,00,
16247090,00000247,false,Rx,1,8,44,7D,6E,03,00,00,20,00,
16247338,00000717,false,Rx,1,8,05,00,00,00,00,00,00,00,
16256163,00000217,false,Rx,1,8,02,00,81,FC,9C,02,00,04,
16346352,00000207,false,Rx,1,8,00,00,00,00,C8,00,04,00,
16346590,00000227,false,Rx,1,8,00,00,00,00,00,00,1F,C5,
16346846,00000237,false,Rx,1,8,3D,41,00,00,00,00,00,00,
16347080,00000247,false,Rx,1,8,44,7D,6E,03,00,00,20,00,
16347312,00000717,false,Rx,1,8,06,00,B2,45,66,06,00,40,
16356150,00000217,false,Rx,1,8,02,00,81,FC,9C,02,00,04,
16446311,00000207,false,Rx,1,8,00,00,00,00,C8,00,04,00,
16446550,00000227,false,Rx,1,8,00,00,00,00,01,00,1F,C5,
16446805,00000237,false,Rx,1,8,3D,41,00,00,00,00,00,00,
16447039,00000247,false,Rx,1,8,44,7D,6E,03,00,00,20,00,
16447287,00000717,false,Rx,1,8,07,00,00,00,02,0A,00,00,
16456105,00000217,false,Rx,1,8,02,00,81,FC,9C,02,00,04,
16546301,00000207,false,Rx,1,8,00,00,00,00,C8,00,04,00,
16546547,00000227,false,Rx,1,8,00,00,00,00,03,00,1F,C5,
16546796,00000237,false,Rx,1,8,3D,41,00,00,00,00,00,00,
16547036,00000247,false,Rx,1,8,44,7D,6E,03,00,00,20,00,
16547276,00000717,false,Rx,1,8,08,00,00,00,5A,46,00,00,
16556100,00000217,false,Rx,1,8,02,00,81,FC,9C,02,00,04,
16646256,00000207,false,Rx,1,8,00,00,C0,FF,C8,00,04,00,
16646502,00000227,false,Rx,1,8,00,00,00,00,01,00,1F,C5,
16646750,00000237,false,Rx,1,8,3D,41,00,00,00,00,00,00,
16646992,00000247,false,Rx,1,8,44,7D,6E,03,00,00,20,00,
16647232,00000717,false,Rx,1,8,09,00,B2,45,00,00,00,00,
16656072,00000217,false,Rx,1,8,02,00,81,FC,9C,02,00,04,
16746250,00000207,false,Rx,1,8,00,00,00,00,C8,00,04,00,
16746497,00000227,false,Rx,1,8,00,00,00,00,02,00,1F,C5,
16746745,00000237,false,Rx,1,8,3D,41,00,00,00,00,00,00,
16746978,00000247,false,Rx,1,8,44,7D,6E,03,00,00,20,00,
16747227,00000717,false,Rx,1,8,0A,00,00,00,00,00,00,00,
16756045,00000217,false,Rx,1,8,02,00,81,FC,9C,02,00,04,
16846240,00000207,false,Rx,1,8,00,00,00,00,C8,00,04,00,
16846487,00000227,false,Rx,1,8,00,00,00,00,04,00,1F,C5,
16846734,00000237,false,Rx,1,8,3D,41,00,00,00,00,00,00,
16846975,00000247,false,Rx,1,8,44,7D,6E,03,00,00,20,00,
16847216,00000717,false,Rx,1,8,0B,00,00,00,00,00,00,00,
16856042,00000217,false,Rx,1,8,02,00,81,FC,9C,02,00,04,
16946216,00000207,false,Rx,1,8,00,00,00,00,C8,00,04,00,
16946454,00000227,false,Rx,1,8,00,00,00,00,0B,00,1F,C5,
16946702,00000237,false,Rx,1,8,3D,41,00,00,00,00,00,00,
16946944,00000247,false,Rx,1,8,44,7D,6E,03,00,00,20,00,
16947184,00000717,false,Rx,1,8,0C,01,00,04,04,00,01,00,
16955993,00000217,false,Rx,1,8,02,00,81,FC,9C,02,00,04,
17046107,00000367,false,Rx,1,8,00,00,00,00,00,00,00,00,
17046353,00000207,false,Rx,1,8,00,00,C0,FF,C8,00,04,00,
17046601,00000227,false,Rx,1,8,00,00,00,00,08,00,1F,C5,
17046850,00000237,false,Rx,1,8,3D,41,00,00,00,00,00,00,
17047083,00000247,false,Rx,1,8,44,7D,6E,03,00,00,20,00,
17047323,00000717,false,Rx,1,8,0E,00,00,02,66,17,00,00,
17055987,00000217,false,Rx,1,8,02,00,81,FC,9C,02,00,04,
17056241,00000377,false,Rx,1,8,00,00,00,00,00,00,00,00,
17066089,00000347,false,Rx,1,8,00,00,00,00,00,08,00,00,
17076087,00000357,false,Rx,1,8,00,00,00,00,00,00,00,00,
17086090,00000327,false,Rx,1,8,00,00,00,00,00,00,00,00,
17096079,00000337,false,Rx,1,8,00,00,00,00,00,00,00,00,
17146157,00000207,false,Rx,1,8,00,00,C0,FF,C8,00,04,00,
17146403,00000227,false,Rx,1,8,00,00,00,00,04,00,1F,C5,
17146652,00000237,false,Rx,1,8,3D,41,00,00,00,00,00,00,
17146893,00000247,false,Rx,1,8,44,7D,6E,03,00,00,20,00,
17147125,00000717,false,Rx,1,8,0F,00,EB,01,CA,10,00,00,
17155974,00000217,false,Rx,1,8,02,00,81,FC,9C,02,00,04,
17246132,00000207,false,Rx,1,8,00,00,C0,FF,C8,00,04,00,
17246379,00000227,false,Rx,1,8,00,00,00,00,01,00,1F,C5,
17246626,00000237,false,Rx,1,8,3D,41,00,00,00,00,00,00,
17246867,00000247,false,Rx,1,8,44,7D,6E,03,00,00,20,00,
17247107,00000717,false,Rx,1,8,10,08,F0,FE,04,90,FF,00,
17255934,00000217,false,Rx,1,8,02,00,81,FC,9C,02,00,04,
17346129,00000207,false,Rx,1,8,00,00,C0,FF,C8,00,04,00,
17346376,00000227,false,Rx,1,8,00,00,00,00,01,00,1F,C5,
17346624,00000237,false,Rx,1,8,3D,41,00,00,00,00,00,00,
17346857,00000247,false,Rx,1,8,44,7D,6E,03,00,00,20,00,
17347105,00000717,false,Rx,1,8,11,00,00,00,00,00,02,02,
17355928,00000217,false,Rx,1,8,02,00,81,FC,9C,02,00,04,
17446087,00000207,false,Rx,1,8,00,00,C0,FF,C8,00,04,00,
17446333,00000227,false,Rx,1,8,00,00,00,00,04,00,1F,C5,
17446580,00000237,false,Rx,1,8,3D,41,00,00,00,00,00,00,
17446820,00000247,false,Rx,1,8,44,7D,6E,03,00,00,20,00,
17447055,00000717,false,Rx,1,8,12,40,29,00,27,00,15,00,
17455887,00000217,false,Rx,1,8,02,00,81,FC,9C,02,00,04,
17546094,00000207,false,Rx,1,8,00,00,C0,FF,C8,00,04,00,
17546333,00000227,false,Rx,1,8,00,00,00,00,0E,00,1F,C5,
17546581,00000237,false,Rx,1,8,3D,41,00,00,00,00,00,00,
17546822,00000247,false,Rx,1,8,44,7D,6E,03,00,00,20,00,
17547070,00000717,false,Rx,1,8,13,00,00,00,00,00,00,00,
17555893,00000217,false,Rx,1,8,02,00,81,FC,9C,02,00,04,
17646067,00000207,false,Rx,1,8,00,00,C0,FF,C8,00,04,00,
17646313,00000227,false,Rx,1,8,00,00,00,00,02,00,1F,C5,
17646562,00000237,false,Rx,1,8,3D,41,00,00,00,00,00,00,
17646802,00000247,false,Rx,1,8,44,7D,6E,03,00,00,20,00,
17647050,00000717,false,Rx,1,8,14,00,00,00,F6,FF,00,00,
17655868,00000217,false,Rx,1,8,02,00,81,FC,9C,02,00,04,
17746027,00000207,false,Rx,1,8,00,00,00,00,C8,00,04,00,
17746273,00000227,false,Rx,1,8,00,00,00,00,00,00,1F,C5,
17746521,00000237,false,Rx,1,8,3D,41,00,00,00,00,00,00,
17746754,00000247,false,Rx,1,8,44,7D,6E,03,00,00,20,00,
17755822,00000217,false,Rx,1,8,02,00,81,FC,9C,02,00,04,
17846046,00000207,false,Rx,1,8,00,00,C0,FF,C8,00,04,00,
17846294,00000227,false,Rx,1,8,00,00,00,00,04,00,1F,C5,
17846541,00000237,false,Rx,1,8,3D,41,00,00,00,00,00,00,
17846781,00000247,false,Rx,1,8,44,7D,6E,03,00,00,20,00,
17847016,00000717,false,Rx,1,8,16,00,00,00,00,00,D2,45,
17855819,00000217,false,Rx,1,8,02,00,81,FC,9C,02,00,04,
17945995,00000207,false,Rx,1,8,00,00,00,00,C8,00,04,00,
17946235,00000227,false,Rx,1,8,00,00,00,00,05,00,1F,C5,
17946482,00000237,false,Rx,1,8,3D,41,00,00,00,00,00,00,
17946722,00000247,false,Rx,1,8,44,7D,6E,03,00,00,20,00,
17946964,00000717,false,Rx,1,8,17,00,00,50,04,00,00,00,
17955809,00000217,false,Rx,1,8,02,00,81,FC,9C,02,00,04,
18045904,00000367,false,Rx,1,8,00,00,00,00,00,00,00,00,
18046150,00000207,false,Rx,1,8,00,00,C0,FF,C8,00,04,00,
18046390,00000227,false,Rx,1,8,00,00,00,00,05,00,1F,C5,
18046638,00000237,false,Rx,1,8,3D,41,00,00,00,00,00,00,
18046880,00000247,false,Rx,1,8,44,7D,6E,03,00,00,20,00,
18047127,00000717,false,Rx,1,8,18,00,00,00,00,00,00,00,
18055780,00000217,false,Rx,1,8,02,00,81,FC,9C,02,00,04,
18056029,00000377,false,Rx,1,8,00,00,00,00,00,00,00,00,
18065898,00000347,false,Rx,1,8,00,00,00,00,00,08,00,00,
18075896,00000357,false,Rx,1,8,00,00,00,00,00,00,00,00,
18085879,00000327,false,Rx,1,8,00,00,00,00,00,00,00,00,
18095876,00000337,false,Rx,1,8,00,00,00,00,00,00,00,00,
18145971,00000207,false,Rx,1,8,00,00,C0,FF,C8,00,04,00,
18146225,00000227,false,Rx,1,8,00,00,00,00,02,00,1F,C5,
18146473,00000237,false,Rx,1,8,3D,41,00,00,00,00,00,00,
18146706,00000247,false,Rx,1,8,44,7D,6E,03,00,00,20,00,
18146954,00000717,false,Rx,1,8,19,00,00,00,00,00,00,00,
18155754,00000217,false,Rx,1,8,02,00,81,FC,9C,02,00,04,
18245923,00000207,false,Rx,1,8,00,00,C0,FF,C8,00,04,00,
18246169,00000227,false,Rx,1,8,00,00,00,00,00,00,1F,C5,
18246418,00000237,false,Rx,1,8,3D,41,00,00,00,00,00,00,
18246658,00000247,false,Rx,1,8,44,7D,6E,03,00,00,20,00,
18246899,00000717,false,Rx,1,8,01,00,00,00,00,00,00,00,
18255716,00000217,false,Rx,1,8,02,00,81,FC,9C,02,00,04,
18345923,00000207,false,Rx,1,8,00,00,C0,FF,C8,00,04,00,
18346163,00000227,false,Rx,1,8,00,00,00,00,00,00,1F,C5,
18346417,00000237,false,Rx,1,8,3D,41,00,00,00,00,00,00,
18346650,00000247,false,Rx,1,8,44,7D,6E,03,00,00,20,00,
18346898,00000717,false,Rx,1,8,02,00,00,00,00,00,00,00,
18355724,00000217,false,Rx,1,8,02,00,81,FC,9C,02,00,04,
18445880,00000207,false,Rx,1,8,00,00,C0,FF,C8,00,04,00,
18446127,00000227,false,Rx,1,8,00,00,00,00,05,00,1F,C5,
18446375,00000237,false,Rx,1,8,3D,41,00,00,00,00,00,00,
18446615,00000247,false,Rx,1,8,44,7D,6E,03,00,00,20,00,
18455692,00000217,false,Rx,1,8,02,00,81,FC,9C,02,00,04,
18545857,00000207,false,Rx,1,8,00,00,C0,FF,C8,00,04,00,
18546103,00000227,false,Rx,1,8,00,00,00,00,01,00,1F,C5,
18546350,00000237,false,Rx,1,8,3D,41,00,00,00,00,00,00,
18546590,00000247,false,Rx,1,8,44,7D,6E,03,00,00,20,00,
18546839,00000717,false,Rx,1,8,04,00,00,00,00,00,00,00,
18555655,00000217,false,Rx,1,8,02,00,81,FC,9C,02,00,04,
18645870,00000207,false,Rx,1,8,00,00,C0,FF,C8,00,04,00,
18646124,00000227,false,Rx,1,8,00,00,00,00,04,00,1F,C5,
18646371,00000237,false,Rx,1,8,3D,41,00,00,00,00,00,00,
18646605,00000247,false,Rx,1,8,44,7D,6E,03,00,00,20,00,
18646854,00000717,false,Rx,1,8,05,00,00,00,00,00,00,00,
18655656,00000217,false,Rx,1,8,02,00,81,FC,9C,02,00,04,
18745838,00000207,false,Rx,1,8,00,00,00,00,C8,00,04,00,
18746084,00000227,false,Rx,1,8,00,00,00,00,01,00,1F,C5,
18746333,00000237,false,Rx,1,8,3D,41,00,00,00,00,00,00,
18746565,00000247,false,Rx,1,8,44,7D,6E,03,00,00,20,00,
18746805,00000717,false,Rx,1,8,06,00,4A,46,66,06,00,40,
18755615,00000217,false,Rx,1,8,02,00,81,FC,9C,02,00,04,
18845816,00000207,false,Rx,1,8,00,00,C0,FF,C8,00,04,00,
18846056,00000227,false,Rx,1,8,00,00,00,00,05,00,1F,C5,
18846305,00000237,false,Rx,1,8,3D,41,00,00,00,00,00,00,
18846545,00000247,false,Rx,1,8,44,7D,6E,03,00,00,20,00,
18846792,00000717,false,Rx,1,8,07,00,00,00,02,0A,00,00,
18855610,00000217,false,Rx,1,8,02,00,81,FC,9C,02,00,04,
18945771,00000207,false,Rx,1,8,00,00,C0,FF,C8,00,04,00,
18946013,00000227,false,Rx,1,8,00,00,00,00,00,00,1F,C5,
18946260,00000237,false,Rx,1,8,3D,41,00,00,00,00,00,00,
18946500,00000247,false,Rx,1,8,44,7D,6E,03,00,00,20,00,
18946741,00000717,false,Rx,1,8,08,00,00,00,CA,45,00,00,
18955587,00000217,false,Rx,1,8,02,00,81,FC,9C,02,00,04,
19045673,00000367,false,Rx,1,8,00,00,00,00,00,00,00,00,
19045922,00000207,false,Rx,1,8,00,00,00,00,C8,00,04,00,
19046162,00000227,false,Rx,1,8,00,00,00,00,00,00,1F,C5,
19046409,00000237,false,Rx,1,8,3D,41,00,00,00,00,00,00,
19046650,00000247,false,Rx,1,8,44,7D,6E,03,00,00,20,00,
19046883,00000717,false,Rx,1,8,09,00,46,46,00,00,00,00,
19055545,00000217,false,Rx,1,8,02,00,81,FC,9C,02,00,04,
19055800,00000377,false,Rx,1,8,00,00,00,00,00,00,00,00,
19065670,00000347,false,Rx,1,8,00,00,00,00,00,08,00,00,
19075674,00000357,false,Rx,1,8,00,00,00,00,00,00,00,00,
19085688,00000327,false,Rx,1,8,00,00,00,00,00,00,00,00,
19095685,00000337,false,Rx,1,8,00,00,00,00,00,00,00,00,
19145749,00000207,false,Rx,1,8,00,00,C0,FF,C8,00,04,00,
19145997,00000227,false,Rx,1,8,00,00,00,00,06,00,1F,C5,
19146245,00000237,false,Rx,1,8,3D,41,00,00,00,00,00,00,
19146486,00000247,false,Rx,1,8,44,7D,6E,03,00,00,20,00,
19146733,00000717,false,Rx,1,8,0A,00,00,00,00,00,00,00,
19155550,00000217,false,Rx,1,8,02,00,81,FC,9C,02,00,04,
19245722,00000207,false,Rx,1,8,00,00,00,00,C8,00,04,00,
19245970,00000227,false,Rx,1,8,00,00,00,00,02,00,1F,C5,
19246217,00000237,false,Rx,1,8,3D,41,00,00,00,00,00,00,
19246458,00000247,false,Rx,1,8,44,7D,6E,03,00,00,20,00,
19246705,00000717,false,Rx,1,8,0B,00,00,00,00,00,00,00,
19255530,00000217,false,Rx,1,8,02,00,81,FC,9C,02,00,04,
19345718,00000207,false,Rx,1,8,00,00,C0,FF,C8,00,04,00,
19345965,00000227,false,Rx,1,8,00,00,00,00,02,00,1F,C5,
19346214,00000237,false,Rx,1,8,3D,41,00,00,00,00,00,00,
19346454,00000247,false,Rx,1,8,44,7D,6E,03,00,00,20,00,
19346694,00000717,false,Rx,1,8,0C,01,00,04,04,00,01,00,
19355502,00000217,false,Rx,1,8,02,00,81,FC,9C,02,00,04,
19445706,00000207,false,Rx,1,8,00,00,00,00,C8,00,04,00,
19445954,00000227,false,Rx,1,8,00,00,00,00,06,00,1F,C5,
19446201,00000237,false,Rx,1,8,3D,41,00,00,00,00,00,00,
19446441,00000247,false,Rx,1,8,44,7D,6E,03,00,00,20,00,
19446681,00000717,false,Rx,1,8,0E,00,00,02,C6,20,00,00,
19455489,00000217,false,Rx,1,8,02,00,81,FC,9C,02,00,04,
19545668,00000207,false,Rx,1,8,00,00,00,00,C8,00,04,00,
19545910,00000227,false,Rx,1,8,00,00,00,00,00,00,1F,C5,
19546157,00000237,false,Rx,1,8,3D,41,00,00,00,00,00,00,
19546397,00000247,false,Rx,1,8,44,7D,6E,03,00,00,20,00,
19546630,00000717,false,Rx,1,8,0F,00,EB,01,31,0E,00,00,
19555446,00000217,false,Rx,1,8,02,00,81,FC,9C,02,00,04,
19645661,00000207,false,Rx,1,8,00,00,C0,FF,C8,00,04,00,
19645901,00000227,false,Rx,1,8,00,00,00,00,00,00,1F,C5,
19646148,00000237,false,Rx,1,8,3D,41,00,00,00,00,00,00,
19646389,00000247,false,Rx,1,8,44,7D,6E,03,00,00,20,00,
19646629,00000717,false,Rx,1,8,10,08,E0,FE,04,90,FF,00,
19655438,00000217,false,Rx,1,8,02,00,81,FC,9C,02,00,04,
19745620,00000207,false,Rx,1,8,00,00,00,00,C8,00,04,00,
19745860,00000227,false,Rx,1,8,00,00,00,00,01,00,1F,C5,
19746107,00000237,false,Rx,1,8,3D,41,00,00,00,00,00,00,
19746348,00000247,false,Rx,1,8,44,7D,6E,03,00,00,20,00,
19746596,00000717,false,Rx,1,8,11,00,00,00,00,00,02,02,
19755418,00000217,false,Rx,1,8,02,00,81,FC,9C,02,00,04,
19845592,00000207,false,Rx,1,8,00,00,C0,FF,C8,00,04,00,
19845839,00000227,false,Rx,1,8,00,00,00,00,02,00,1F,C5,
19846087,00000237,false,Rx,1,8,3D,41,00,00,00,00,00,00,
19846327,00000247,false,Rx,1,8,44,7D,6E,03,00,00,20,00,
19846560,00000717,false,Rx,1,8,12,40,29,00,27,00,15,00,
19855389,00000217,false,Rx,1,8,02,00,81,FC,9C,02,00,04,
19945587,00000207,false,Rx,1,8,00,00,00,00,C8,00,04,00,
19945835,00000227,false,Rx,1,8,00,00,00,00,03,00,1F,C5,
19946076,00000237,false,Rx,1,8,3D,41,00,00,00,00,00,00,
19946316,00000247,false,Rx,1,8,44,7D,6E,03,00,00,20,00,
19946563,00000717,false,Rx,1,8,13,00,00,00,00,00,00,00,
19955381,00000217,false,Rx,1,8,02,00,81,FC,9C,02,00,04,
20045463,00000367,false,Rx,1,8,00,00,00,00,00,00,00,00,
20045709,00000207,false,Rx,1,8,00,00,C0,FF,C8,00,04,00,
20045952,00000227,false,Rx,1,8,00,00,00,00,01,00,1F,C5,
20046199,00000237,false,Rx,1,8,3D,41,00,00,00,00,00,00,
20046439,00000247,false,Rx,1,8,44,7D,6E,03,00,00,20,00,
20046688,00000717,false,Rx,1,8,14,00,00,00,0A,00,00,00,
20055335,00000217,false,Rx,1,8,02,00,81,FC,9C,02,00,04,
20055582,00000377,false,Rx,1,8,00,00,00,00,00,00,00,00,
20065451,00000347,false,Rx,1,8,00,00,00,00,00,08,00,00,
20075449,00000357,false,Rx,1,8,00,00,00,00,00,00,00,00,
20085447,00000327,false,Rx,1,8,00,00,00,00,00,00,00,00,
20095451,00000337,false,Rx,1,8,00,00,00,00,00,00,00,00,
20145539,00000207,false,Rx,1,8,00,00,C0,FF,C8,00,04,00,
20145786,00000227,false,Rx,1,8,00,00,00,00,00,00,1F,C5,
20146035,00000237,false,Rx,1,8,3D,41,00,00,00,00,00,00,
20146267,00000247,false,Rx,1,8,44,7D,6E,03,00,00,20,00,
20155336,00000217,false,Rx,1,8,02,00,81,FC,9C,02,00,04,
20245503,00000207,false,Rx,1,8,00,00,00,00,C8,00,04,00,
20245749,00000227,false,Rx,1,8,00,00,00,00,02,00,1F,C5,
20245997,00000237,false,Rx,1,8,3D,41,00,00,00,00,00,00,
20246238,00000247,false,Rx,1,8,44,7D,6E,03,00,00,20,00,
20246478,00000717,false,Rx,1,8,16,00,00,00,00,00,FE,45,
20255317,00000217,false,Rx,1,8,02,00,81,FC,9C,02,00,04,
20345479,00000207,false,Rx,1,8,00,00,C0,FF,C8,00,04,00,
20345726,00000227,false,Rx,1,8,00,00,00,00,00,00,1F,C5,
20345974,00000237,false,Rx,1,8,3D,41,00,00,00,00,00,00,
20346208,00000247,false,Rx,1,8,44,7D,6E,03,00,00,20,00,
20346455,00000717,false,Rx,1,8,17,00,00,50,04,00,00,00,
20355281,00000217,false,Rx,1,8,02,00,81,FC,9C,02,00,04,
20445467,00000207,false,Rx,1,8,00,00,C0,FF,C8,00,04,00,
20445713,00000227,false,Rx,1,8,00,00,00,00,00,00,1F,C5,
20445963,00000237,false,Rx,1,8,3D,41,00,00,00,00,00,00,
20446203,00000247,false,Rx,1,8,44,7D,6E,03,00,00,20,00,
20446450,00000717,false,Rx,1,8,18,00,00,00,00,00,00,00,
20455268,00000217,false,Rx,1,8,02,00,81,FC,9C,02,00,04,
20545429,00000207,false,Rx,1,8,00,00,C0,FF,C8,00,04,00,
20545675,00000227,false,Rx,1,8,00,00,00,00,02,00,1F,C5,
20545925,00000237,false,Rx,1,8,3D,41,00,00,00,00,00,00,
20546164,00000247,false,Rx,1,8,44,7D,6E,03,00,00,20,00,
20546412,00000717,false,Rx,1,8,19,00,00,00,00,00,00,00,
20555228,00000217,false,Rx,1,8,02,00,81,FC,9C,02,00,04,
20645437,00000207,false,Rx,1,8,00,00,00,00,C8,00,04,00,
20645684,00000227,false,Rx,1,8,00,00,00,00,02,00,1F,C5,
20645933,00000237,false,Rx,1,8,3D,41,00,00,00,00,00,00,
20646172,00000247,false,Rx,1,8,44,7D,6E,03,00,00,20,00,
20646421,00000717,false,Rx,1,8,01,00,00,00,00,00,00,00,
20655230,00000217,false,Rx,1,8,02,00,81,FC,9C,02,00,04,
20745407,00000207,false,Rx,1,8,00,00,C0,FF,C8,00,04,00,
20745653,00000227,false,Rx,1,8,00,00,00,00,00,00,1F,C5,
20745902,00000237,false,Rx,1,8,3D,41,00,00,00,00,00,00,
20746142,00000247,false,Rx,1,8,44,7D,6E,03,00,00,20,00,
20746390,00000717,false,Rx,1,8,02,00,00,00,00,00,00,00,
20755207,00000217,false,Rx,1,8,02,00,81,FC,9C,02,00,04,
20845369,00000207,false,Rx,1,8,00,00,C0,FF,C8,00,04,00,
20845607,00000227,false,Rx,1,8,00,00,00,00,00,00,1F,C5,
20845856,00000237,false,Rx,1,8,3D,41,00,00,00,00,00,00,
20846097,00000247,false,Rx,1,8,44,7D,6E,03,00,00,20,00,
20855172,00000217,false,Rx,1,8,02,00,01,FC,9C,02,00,04,
20945374,00000207,false,Rx,1,8,00,00,C0,FF,C8,00,04,00,
20945620,00000227,false,Rx,1,8,00,00,00,00,05,00,1F,C5,
20945862,00000237,false,Rx,1,8,3D,41,00,00,00,00,00,00,
20946102,00000247,false,Rx,1,8,44,7D,6E,03,00,00,20,00,
20946349,00000717,false,Rx,1,8,04,00,00,00,00,00,00,00,
20955165,00000217,false,Rx,1,8,02,00,01,FC,9C,02,00,04,
21045258,00000367,false,Rx,1,8,00,00,00,00,00,00,00,00,
21045504,00000207,false,Rx,1,8,00,00,C0,FF,C8,00,04,00,
21045745,00000227,false,Rx,1,8,00,00,00,00,05,00,1F,C5,
21045994,00000237,false,Rx,1,8,3D,41,00,00,00,00,00,00,
21046233,00000247,false,Rx,1,8,44,7D,6E,03,00,00,20,00,
21046482,00000717,false,Rx,1,8,05,00,00,00,00,00,00,00,
21055152,00000217,false,Rx,1,8,02,00,01,FC,9C,02,00,04,
21055399,00000377,false,Rx,1,8,00,00,00,00,00,00,00,00,
21065245,00000347,false,Rx,1,8,00,00,00,00,00,08,00,00,
21075243,00000357,false,Rx,1,8,00,00,00,00,00,00,00,00,
21085243,00000327,false,Rx,1,8,00,00,00,00,00,00,00,00,
21095240,00000337,false,Rx,1,8,00,00,00,00,00,00,00,00,
21145320,00000207,false,Rx,1,8,00,00,C0,FF,C8,00,04,00,
21145568,00000227,false,Rx,1,8,00,00,00,00,05,00,1F,C5,
21145815,00000237,false,Rx,1,8,3D,41,00,00,00,00,00,00,
21146057,00000247,false,Rx,1,8,44,7D,6E,03,00,00,20,00,
21146290,00000717,false,Rx,1,8,06,00,42,46,66,06,00,40,
21155129,00000217,false,Rx,1,8,02,00,01,FC,9C,02,00,04,
21245302,00000207,false,Rx,1,8,00,00,00,00,C8,00,04,00,
21245550,00000227,false,Rx,1,8,00,00,00,00,01,00,1F,C5,
21245797,00000237,false,Rx,1,8,3D,41,00,00,00,00,00,00,
21246031,00000247,false,Rx,1,8,44,7D,6E,03,00,00,20,00,
21246279,00000717,false,Rx,1,8,07,00,00,00,02,0A,00,00,
21255104,00000217,false,Rx,1,8,02,00,01,FC,9C,02,00,04,
21345271,00000207,false,Rx,1,8,00,00,C0,FF,C8,00,04,00,
21345517,00000227,false,Rx,1,8,00,00,00,00,05,00,1F,C5,
21345765,00000237,false,Rx,1,8,3D,41,00,00,00,00,00,00,
21346008,00000247,false,Rx,1,8,44,7D,6E,03,00,00,20,00,
21346248,00000717,false,Rx,1,8,08,00,00,00,CA,45,00,00,
21355064,00000217,false,Rx,1,8,02,00,01,FC,9C,02,00,04,
21445278,00000207,false,Rx,1,8,00,00,C0,FF,C8,00,04,00,
21445525,00000227,false,Rx,1,8,00,00,00,00,01,00,1F,C5,
21445772,00000237,false,Rx,1,8,3D,41,00,00,00,00,00,00,
21446014,00000247,false,Rx,1,8,44,7D,6E,03,00,00,20,00,
21446254,00000717,false,Rx,1,8,09,00,3E,46,00,00,00,00,
21455064,00000217,false,Rx,1,8,02,00,01,FC,9C,02,00,04,
21545223,00000207,false,Rx,1,8,00,00,00,00,C8,00,04,00,
21545469,00000227,false,Rx,1,8,00,00,00,00,01,00,1F,C5,
21545717,00000237,false,Rx,1,8,3D,41,00,00,00,00,00,00,
21545952,00000247,false,Rx,1,8,44,7D,6E,03,00,00,20,00,
21546199,00000717,false,Rx,1,8,0A,00,00,00,00,00,00,00,
21555039,00000217,false,Rx,1,8,02,00,01,FC,9C,02,00,04,
21645213,00000207,false,Rx,1,8,00,00,C0,FF,C8,00,04,00,
21645466,00000227,false,Rx,1,8,00,00,00,00,02,00,1F,C5,
21645715,00000237,false,Rx,1,8,3D,41,00,00,00,00,00,00,
21645948,00000247,false,Rx,1,8,44,7D,6E,03,00,00,20,00,
21646195,00000717,false,Rx,1,8,0B,00,00,00,00,00,00,00,
21655014,00000217,false,Rx,1,8,02,00,01,FC,9C,02,00,04,
21745214,00000207,false,Rx,1,8,00,00,C0,FF,C8,00,04,00,
21745461,00000227,false,Rx,1,8,00,00,00,00,08,00,1F,C5,
21745708,00000237,false,Rx,1,8,3D,41,00,00,00,00,00,00,
21745949,00000247,false,Rx,1,8,44,7D,6E,03,00,00,20,00,
21746190,00000717,false,Rx,1,8,0C,01,00,04,04,00,01,00,
21754998,00000217,false,Rx,1,8,02,00,01,FC,9C,02,00,04,
21845162,00000207,false,Rx,1,8,00,00,C0,FF,C8,00,04,00,
21845409,00000227,false,Rx,1,8,00,00,00,00,01,00,1F,C5,
21845656,00000237,false,Rx,1,8,3D,41,00,00,00,00,00,00,
21845890,00000247,false,Rx,1,8,44,7D,6E,03,00,00,20,00,
21846131,00000537,false,Rx,1,8,0A,01,0E,00,FC,00,3F,00,
21846371,00000717,false,Rx,1,8,0E,00,00,02,26,2A,00,00,
21854959,00000217,false,Rx,1,8,02,00,01,FC,9C,02,00,04,
21945152,00000207,false,Rx,1,8,00,00,C0,FF,C8,00,04,00,
21945398,00000227,false,Rx,1,8,00,00,00,00,01,00,1F,C5,
21945646,00000237,false,Rx,1,8,3D,41,00,00,00,00,00,00,
21945888,00000247,false,Rx,1,8,44,7D,6E,03,00,00,20,00,
21946120,00000717,false,Rx,1,8,0F,00,EB,01,EE,0D,00,00,
21954958,00000217,false,Rx,1,8,02,00,01,FC,9C,02,00,04,
22045034,00000367,false,Rx,1,8,00,00,00,00,00,00,00,00,
22045280,00000207,false,Rx,1,8,00,00,C0,FF,C8,00,04,00,
22045528,00000227,false,Rx,1,8,00,00,00,00,02,00,1F,C5,
22045776,00000237,false,Rx,1,8,3D,41,00,00,00,00,00,00,
22046010,00000247,false,Rx,1,8,44,7D,6E,03,00,00,20,00,
22046249,00000717,false,Rx,1,8,10,08,E0,FE,04,90,FF,00,
22054934,00000217,false,Rx,1,8,02,00,01,FC,9C,02,00,04,
22055180,00000377,false,Rx,1,8,00,00,00,00,00,00,00,00,
22065026,00000347,false,Rx,1,8,00,00,00,00,00,08,00,00,
22075024,00000357,false,Rx,1,8,00,00,00,00,00,00,00,00,
22085027,00000327,false,Rx,1,8,00,00,00,00,00,00,00,00,
22095023,00000337,false,Rx,1,8,00,00,00,00,00,00,00,00,
22145099,00000207,false,Rx,1,8,00,00,C0,FF,C8,00,04,00,
22145345,00000227,false,Rx,1,8,00,00,00,00,03,00,1F,C5,
22145594,00000237,false,Rx,1,8,3D,41,00,00,00,00,00,00,
22145826,00000247,false,Rx,1,8,44,7D,6E,03,00,00,20,00,
22146075,00000717,false,Rx,1,8,11,00,00,00,00,00,02,02,
22154891,00000217,false,Rx,1,8,02,00,01,FC,9C,02,00,04,
22245097,00000207,false,Rx,1,8,00,00,00,00,C8,00,04,00,
22245344,00000227,false,Rx,1,8,00,00,00,00,02,00,1F,C5,
22245592,00000237,false,Rx,1,8,3D,41,00,00,00,00,00,00,
22245833,00000247,false,Rx,1,8,44,7D,6E,03,00,00,20,00,
22246066,00000717,false,Rx,1,8,12,40,29,00,27,00,16,00,
22254898,00000217,false,Rx,1,8,02,00,01,FC,9C,02,00,04,
22345048,00000207,false,Rx,1,8,00,00,C0,FF,C8,00,04,00,
22345296,00000227,false,Rx,1,8,00,00,00,00,05,00,1F,C5,
22345543,00000237,false,Rx,1,8,3D,41,00,00,00,00,00,00,
22345783,00000247,false,Rx,1,8,44,7D,6E,03,00,00,20,00,
22346032,00000717,false,Rx,1,8,13,00,00,00,00,00,00,00,
22354850,00000217,false,Rx,1,8,02,00,01,FC,9C,02,00,04,
22445068,00000207,false,Rx,1,8,00,00,C0,FF,C8,00,04,00,
22445302,00000227,false,Rx,1,8,00,00,00,00,05,00,1F,C5,
22445549,00000237,false,Rx,1,8,3D,41,00,00,00,00,00,00,
22445790,00000247,false,Rx,1,8,44,7D,6E,03,00,00,20,00,
22446039,00000717,false,Rx,1,8,14,00,00,00,FB,FF,00,00,
22454847,00000217,false,Rx,1,8,02,00,01,FC,9C,02,00,04,
22545029,00000207,false,Rx,1,8,00,00,C0,FF,C8,00,04,00,
22545276,00000227,false,Rx,1,8,00,00,00,00,01,00,1F,C5,
22545523,00000237,false,Rx,1,8,3D,41,00,00,00,00,00,00,
22545764,00000247,false,Rx,1,8,44,7D,6E,03,00,00,20,00,
22554833,00000217,false,Rx,1,8,02,00,01,FC,9C,02,00,04,
22645008,00000207,false,Rx,1,8,00,00,C0,FF,C8,00,04,00,
22645254,00000227,false,Rx,1,8,00,00,00,00,02,00,1F,C5,
22645503,00000237,false,Rx,1,8,3D,41,00,00,00,00,00,00,
22645743,00000247,false,Rx,1,8,44,7D,6E,03,00,00,20,00,
22645977,00000717,false,Rx,1,8,16,00,00,00,00,00,12,46,
22654792,00000217,false,Rx,1,8,02,00,01,FC,9C,02,00,04,
22744986,00000207,false,Rx,1,8,00,00,00,00,C8,00,04,00,
22745232,00000227,false,Rx,1,8,00,00,00,00,09,00,1F,C5,
22745473,00000237,false,Rx,1,8,3D,41,00,00,00,00,00,00,
22745713,00000247,false,Rx,1,8,44,7D,6E,03,00,00,20,00,
22745962,00000537,false,Rx,1,8,0B,00,05,06,00,00,00,00,
22746203,00000717,false,Rx,1,8,17,00,00,50,04,00,00,00,
22754789,00000217,false,Rx,1,8,02,00,01,FC,9C,02,00,04,
22844942,00000207,false,Rx,1,8,00,00,C0,FF,C8,00,04,00,
22845182,00000227,false,Rx,1,8,00,00,00,00,00,00,1F,C5,
22845429,00000237,false,Rx,1,8,3D,41,00,00,00,00,00,00,
22845669,00000247,false,Rx,1,8,44,7D,6E,03,00,00,20,00,
22845919,00000717,false,Rx,1,8,18,00,00,00,00,00,00,00,
22854759,00000217,false,Rx,1,8,02,00,01,FC,9C,02,00,04,
22944936,00000207,false,Rx,1,8,00,00,00,00,C8,00,04,00,
22945182,00000227,false,Rx,1,8,00,00,00,00,03,00,1F,C5,
22945429,00000237,false,Rx,1,8,3D,41,00,00,00,00,00,00,
22945669,00000247,false,Rx,1,8,44,7D,6E,03,00,00,20,00,
22945911,00000717,false,Rx,1,8,19,00,00,00,00,00,00,00,
22954744,00000217,false,Rx,1,8,02,00,01,FC,9C,02,00,04,
23044830,00000367,false,Rx,1,8,00,00,00,00,00,00,00,00,
23045077,00000207,false,Rx,1,8,00,00,C0,FF,C8,00,04,00,
23045324,00000227,false,Rx,1,8,00,00,00,00,01,00,1F,C5,
23045572,00000237,false,Rx,1,8,3D,41,00,00,00,00,00,00,
23045805,00000247,false,Rx,1,8,44,7D,6E,03,00,00,20,00,
23046053,00000717,false,Rx,1,8,01,00,00,00,00,00,00,00,
23054723,00000217,false,Rx,1,8,02,00,01,FC,9C,02,00,04,
23054971,00000377,false,Rx,1,8,00,00,00,00,00,00,00,00,
23064818,00000347,false,Rx,1,8,00,00,00,00,00,08,00,00,
23074822,00000357,false,Rx,1,8,00,00,00,00,00,00,00,00,
23084819,00000327,false,Rx,1,8,00,00,00,00,00,00,00,00,
23094817,00000337,false,Rx,1,8,00,00,00,00,00,00,00,00,
23144880,00000207,false,Rx,1,8,00,00,C0,FF,C8,00,04,00,
23145127,00000227,false,Rx,1,8,00,00,00,00,01,00,1F,C5,
23145374,00000237,false,Rx,1,8,3D,41,00,00,00,00,00,00,
23145615,00000247,false,Rx,1,8,44,7D,6E,03,00,00,20,00,
23145856,00000717,false,Rx,1,8,02,00,00,00,00,00,00,00,
23154682,00000217,false,Rx,1,8,02,00,01,FC,9C,02,00,04,
23244888,00000207,false,Rx,1,8,00,00,00,00,C8,00,04,00,
23245134,00000227,false,Rx,1,8,00,00,00,00,05,00,1F,C5,
23245383,00000237,false,Rx,1,8,3D,41,00,00,00,00,00,00,
23245623,00000247,false,Rx,1,8,44,7D,6E,03,00,00,20,00,
23254678,00000217,false,Rx,1,8,02,00,01,FC,9C,02,00,04,
23344842,00000207,false,Rx,1,8,00,00,00,00,C8,00,04,00,
23345090,00000227,false,Rx,1,8,00,00,00,00,00,00,1F,C5,
23345337,00000237,false,Rx,1,8,3D,41,00,00,00,00,00,00,
23345577,00000247,false,Rx,1,8,44,7D,6E,03,00,00,20,00,
23345824,00000717,false,Rx,1,8,04,00,00,00,00,00,00,00,
23354665,00000217,false,Rx,1,8,02,00,01,FC,9C,02,00,04,
23444835,00000207,false,Rx,1,8,00,00,C0,FF,C8,00,04,00,
23445075,00000227,false,Rx,1,8,00,00,00,00,00,00,1F,C5,
23445322,00000237,false,Rx,1,8,3D,41,00,00,00,00,00,00,
23445562,00000247,false,Rx,1,8,44,7D,6E,03,00,00,20,00,
23445811,00000717,false,Rx,1,8,05,00,00,00,00,00,00,00,
23454628,00000217,false,Rx,1,8,02,00,01,FC,9C,02,00,04,
23544814,00000207,false,Rx,1,8,00,00,C0,FF,C8,00,04,00,
23545061,00000227,false,Rx,1,8,00,00,00,00,02,00,1F,C5,
23545309,00000237,false,Rx,1,8,3D,41,00,00,00,00,00,00,
23545550,00000247,false,Rx,1,8,44,7D,6E,03,00,00,20,00,
23545782,00000717,false,Rx,1,8,06,00,52,46,66,06,00,40,
23554612,00000217,false,Rx,1,8,02,00,01,FC,9C,02,00,04,
23644789,00000207,false,Rx,1,8,00,00,C0,FF,C8,00,04,00,
23645029,00000227,false,Rx,1,8,00,00,00,00,00,00,1F,C5,
23645276,00000237,false,Rx,1,8,3D,41,00,00,00,00,00,00,
23645518,00000247,false,Rx,1,8,44,7D,6E,03,00,00,20,00,
23645757,00000537,false,Rx,1,8,0D,00,00,00,7D,F1,02,85,
23646000,00000717,false,Rx,1,8,07,00,00,00,02,0A,00,00,
23654570,00000217,false,Rx,1,8,02,00,01,FC,9C,02,00,04,
23744792,00000207,false,Rx,1,8,00,00,C0,FF,C8,00,04,00,
23745039,00000227,false,Rx,1,8,00,00,00,00,05,00,1F,C5,
23745288,00000237,false,Rx,1,8,3D,41,00,00,00,00,00,00,
23745520,00000247,false,Rx,1,8,44,7D,6E,03,00,00,20,00,
23745760,00000717,false,Rx,1,8,08,00,00,00,52,46,00,00,
23754578,00000217,false,Rx,1,8,02,00,01,FC,9C,02,00,04,
23844738,00000207,false,Rx,1,8,00,00,00,00,C8,00,04,00,
23844985,00000227,false,Rx,1,8,00,00,00,00,04,00,1F,C5,
23845233,00000237,false,Rx,1,8,3D,41,00,00,00,00,00,00,
23845473,00000247,false,Rx,1,8,44,7D,6E,03,00,00,20,00,
23845713,00000717,false,Rx,1,8,09,00,56,46,00,00,00,00,
23854553,00000217,false,Rx,1,8,02,00,01,FC,9C,02,00,04,
23944726,00000207,false,Rx,1,8,00,00,00,00,C8,00,04,00,
23944968,00000227,false,Rx,1,8,00,00,00,00,00,00,1F,C5,
23945216,00000237,false,Rx,1,8,3D,41,00,00,00,00,00,00,
23945456,00000247,false,Rx,1,8,44,7D,6E,03,00,00,20,00,
23945704,00000717,false,Rx,1,8,0A,00,00,00,00,00,00,00,
23954512,00000217,false,Rx,1,8,02,00,01,FC,9C,02,00,04,
24044607,00000367,false,Rx,1,8,00,00,00,00,00,00,00,00,
24044856,00000207,false,Rx,1,8,00,00,C0,FF,C8,00,04,00,
24045103,00000227,false,Rx,1,8,00,00,00,00,06,00,1F,C5,
24045351,00000237,false,Rx,1,8,3D,41,00,00,00,00,00,00,
24045584,00000247,false,Rx,1,8,44,7D,6E,03,00,00,20,00,
24045833,00000717,false,Rx,1,8,0B,00,00,00,00,00,00,00,
24054509,00000217,false,Rx,1,8,02,00,01,FC,9C,02,00,04,
24054756,00000377,false,Rx,1,8,00,00,00,00,00,00,00,00,
24064602,00000347,false,Rx,1,8,00,00,00,00,00,08,00,00,
24074598,00000357,false,Rx,1,8,00,00,00,00,00,00,00,00,
24084603,00000327,false,Rx,1,8,00,00,00,00,00,00,00,00,
24094600,00000337,false,Rx,1,8,00,00,00,00,00,00,00,00,
24144674,00000207,false,Rx,1,8,00,00,C0,FF,C8,00,04,00,
24144915,00000227,false,Rx,1,8,00,00,00,00,01,00,1F,C5,
24145162,00000237,false,Rx,1,8,3D,41,00,00,00,00,00,00,
24145403,00000247,false,Rx,1,8,44,7D,6E,03,00,00,20,00,
24145643,00000717,false,Rx,1,8,0C,01,00,04,04,00,01,00,
24154467,00000217,false,Rx,1,8,02,00,01,FC,9C,02,00,04,
24244686,00000207,false,Rx,1,8,00,00,00,00,C8,00,04,00,
24244933,00000227,false,Rx,1,8,00,00,00,00,04,00,1F,C5,
24245182,00000237,false,Rx,1,8,3D,41,00,00,00,00,00,00,
24245421,00000247,false,Rx,1,8,44,7D,6E,03,00,00,20,00,
24245654,00000717,false,Rx,1,8,0E,00,00,02,86,33,00,00,
24254470,00000217,false,Rx,1,8,02,00,01,FC,9C,02,00,04,
24344645,00000207,false,Rx,1,8,00,00,00,00,C8,00,04,00,
24344885,00000227,false,Rx,1,8,00,00,00,00,00,00,1F,C5,
24345134,00000237,false,Rx,1,8,3D,41,00,00,00,00,00,00,
24345374,00000247,false,Rx,1,8,44,7D,6E,03,00,00,20,00,
24345614,00000717,false,Rx,1,8,0F,00,EB,01,C8,10,00,00,
24354445,00000217,false,Rx,1,8,02,00,01,FC,9C,02,00,04,
24444600,00000207,false,Rx,1,8,00,00,C0,FF,C8,00,04,00,
24444848,00000227,false,Rx,1,8,00,00,00,00,01,00,1F,C5,
24445096,00000237,false,Rx,1,8,3D,41,00,00,00,00,00,00,
24445335,00000247,false,Rx,1,8,44,7D,6E,03,00,00,20,00,
24445575,00000717,false,Rx,1,8,10,09,E0,FE,04,90,FF,00,
24454402,00000217,false,Rx,1,8,02,00,01,FC,9C,02,00,04,
24544608,00000207,false,Rx,1,8,00,00,C0,FF,C8,00,04,00,
24544850,00000227,false,Rx,1,8,00,00,00,00,04,00,1F,C5,
24545097,00000237,false,Rx,1,8,3D,41,00,00,00,00,00,00,
24545337,00000247,false,Rx,1,8,44,7D,6E,03,00,00,20,00,
24545586,00000537,false,Rx,1,8,0E,00,00,00,00,00,00,00,
24545826,00000717,false,Rx,1,8,11,00,00,00,00,00,02,02,
24554405,00000217,false,Rx,1,8,02,00,01,FC,9C,02,00,04,
24644563,00000207,false,Rx,1,8,00,00,C0,FF,C8,00,04,00,
24644816,00000227,false,Rx,1,8,00,00,00,00,02,00,1F,C5,
24645065,00000237,false,Rx,1,8,3D,41,00,00,00,00,00,00,
24645298,00000247,false,Rx,1,8,44,7D,6E,03,00,00,20,00,
24645538,00000717,false,Rx,1,8,12,40,29,00,27,00,16,00,
24654385,00000217,false,Rx,1,8,02,00,01,FC,9C,02,00,04,
24744542,00000207,false,Rx,1,8,00,00,C0,FF,C8,00,04,00,
24744788,00000227,false,Rx,1,8,00,00,00,00,02,00,1F,C5,
24745037,00000237,false,Rx,1,8,3D,41,00,00,00,00,00,00,
24745278,00000247,false,Rx,1,8,44,7D,6E,03,00,00,20,00,
24745525,00000717,false,Rx,1,8,13,00,00,00,00,00,00,00,
24754356,00000217,false,Rx,1,8,02,00,01,FC,9C,02,00,04,
24844540,00000207,false,Rx,1,8,00,00,C0,FF,C8,00,04,00,
24844786,00000227,false,Rx,1,8,00,00,00,00,02,00,1F,C5,
24845036,00000237,false,Rx,1,8,3D,41,00,00,00,00,00,00,
24845276,00000247,false,Rx,1,8,44,7D,6E,03,00,00,20,00,
24845523,00000717,false,Rx,1,8,14,00,00,00,FD,FF,00,00,
24854334,00000217,false,Rx,1,8,02,00,01,FC,9C,02,00,04,
24944507,00000207,false,Rx,1,8,00,00,00,00,C8,00,04,00,
24944746,00000227,false,Rx,1,8,00,00,00,00,0C,00,1F,C5,
24944995,00000237,false,Rx,1,8,3D,41,00,00,00,00,00,00,
24945235,00000247,false,Rx,1,8,44,7D,6E,03,00,00,20,00,
24954303,00000217,false,Rx,1,8,02,00,01,FC,9C,02,00,04,
25044418,00000367,false,Rx,1,8,00,00,00,00,00,00,00,00,
25044666,00000207,false,Rx,1,8,00,00,00,00,C8,00,04,00,
25044907,00000227,false,Rx,1,8,00,00,00,00,00,00,1F,C5,
25045154,00000237,false,Rx,1,8,3D,41,00,00,00,00,00,00,
25045394,00000247,false,Rx,1,8,44,7D,6E,03,00,00,20,00,
25045635,00000717,false,Rx,1,8,16,00,00,00,00,00,DA,45,
25054296,00000217,false,Rx,1,8,02,00,01,FC,9C,02,00,04,
25054542,00000377,false,Rx,1,8,00,00,00,00,00,00,00,00,
25064396,00000347,false,Rx,1,8,00,00,00,00,00,08,00,00,
25074394,00000357,false,Rx,1,8,00,00,00,00,00,00,00,00,
25084391,00000327,false,Rx,1,8,00,00,00,00,00,00,00,00,
25094388,00000337,false,Rx,1,8,00,00,00,00,00,00,00,00,
25144456,00000207,false,Rx,1,8,00,00,C0,FF,C8,00,04,00,
25144703,00000227,false,Rx,1,8,00,00,00,00,02,00,1F,C5,
25144952,00000237,false,Rx,1,8,3D,41,00,00,00,00,00,00,
25145184,00000247,false,Rx,1,8,44,7D,6E,03,00,00,20,00,
25145433,00000717,false,Rx,1,8,17,00,00,50,04,00,00,00,
25154272,00000217,false,Rx,1,8,02,00,01,FC,9C,02,00,04,
25244432,00000207,false,Rx,1,8,00,00,C0,FF,C8,00,04,00,
25244678,00000227,false,Rx,1,8,00,00,00,00,03,00,1F,C5,
25244927,00000237,false,Rx,1,8,3D,41,00,00,00,00,00,00,
25245160,00000247,false,Rx,1,8,44,7D,6E,03,00,00,20,00,
25245408,00000717,false,Rx,1,8,18,00,00,00,00,00,00,00,
25254231,00000217,false,Rx,1,8,02,00,01,FC,9C,02,00,04,
25344439,00000207,false,Rx,1,8,00,00,C0,FF,C8,00,04,00,
25344685,00000227,false,Rx,1,8,00,00,00,00,01,00,1F,C5,
25344935,00000237,false,Rx,1,8,3D,41,00,00,00,00,00,00,
25345167,00000247,false,Rx,1,8,44,7D,6E,03,00,00,20,00,
25345415,00000717,false,Rx,1,8,19,00,00,00,00,00,00,00,
25354238,00000217,false,Rx,1,8,02,00,01,FC,9C,02,00,04,
25444391,00000207,false,Rx,1,8,00,00,00,00,C8,00,04,00,
25444637,00000227,false,Rx,1,8,00,00,00,00,00,00,1F,C5,
25444887,00000237,false,Rx,1,8,3D,41,00,00,00,00,00,00,
25445127,00000247,false,Rx,1,8,44,7D,6E,03,00,00,20,00,
25445359,00000537,false,Rx,1,8,0F,00,00,00,8C,A1,70,0A,
25445608,00000717,false,Rx,1,8,01,00,00,00,00,00,00,00,
25454196,00000217,false,Rx,1,8,02,00,01,FC,9C,02,00,04,
25544386,00000207,false,Rx,1,8,00,00,C0,FF,C8,00,04,00,
25544633,00000227,false,Rx,1,8,00,00,00,00,03,00,1F,C5,
25544882,00000237,false,Rx,1,8,3D,41,00,00,00,00,00,00,
25545122,00000247,false,Rx,1,8,44,7D,6E,03,00,00,20,00,
25545361,00000717,false,Rx,1,8,02,00,00,00,00,00,00,00,
25554185,00000217,false,Rx,1,8,02,00,01,FC,9C,02,00,04,
25644376,00000207,false,Rx,1,8,00,00,00,00,C8,00,04,00,
25644616,00000227,false,Rx,1,8,00,00,00,00,00,00,1F,C5,
25644865,00000237,false,Rx,1,8,3D,41,00,00,00,00,00,00,
25645105,00000247,false,Rx,1,8,44,7D,6E,03,00,00,20,00,
25654167,00000217,false,Rx,1,8,02,00,01,FC,9C,02,00,04,
25744331,00000207,false,Rx,1,8,00,00,C0,FF,C8,00,04,00,
25744577,00000227,false,Rx,1,8,00,00,00,00,01,00,1F,C5,
25744824,00000237,false,Rx,1,8,3D,41,00,00,00,00,00,00,
25745066,00000247,false,Rx,1,8,44,7D,6E,03,00,00,20,00,
25745314,00000717,false,Rx,1,8,04,00,00,00,00,00,00,00,
25754129,00000217,false,Rx,1,8,02,00,01,FC,9C,02,00,04,
25844331,00000207,false,Rx,1,8,00,00,00,00,C8,00,04,00,
25844570,00000227,false,Rx,1,8,00,00,00,00,00,00,1F,C5,
25844818,00000237,false,Rx,1,8,3D,41,00,00,00,00,00,00,
25845060,00000247,false,Rx,1,8,44,7D,6E,03,00,00,20,00,
25845308,00000717,false,Rx,1,8,05,00,00,00,00,00,00,00,
25854127,00000217,false,Rx,1,8,02,00,01,FC,9C,02,00,04,
25944279,00000207,false,Rx,1,8,00,00,C0,FF,C8,00,04,00,
25944525,00000227,false,Rx,1,8,00,00,00,00,01,00,1F,C5,
25944773,00000237,false,Rx,1,8,3D,41,00,00,00,00,00,00,
25945014,00000247,false,Rx,1,8,44,7D,6E,03,00,00,20,00,
25945247,00000717,false,Rx,1,8,06,00,B2,45,66,06,00,40,
25954102,00000217,false,Rx,1,8,02,00,01,FC,9C,02,00,04,
26044202,00000367,false,Rx,1,8,00,00,00,00,00,00,00,00,
26044448,00000207,false,Rx,1,8,00,00,00,00,C8,00,04,00,
26044697,00000227,false,Rx,1,8,00,00,00,00,04,00,1F,C5,
26044945,00000237,false,Rx,1,8,3D,41,00,00,00,00,00,00,
26045185,00000247,false,Rx,1,8,44,7D,6E,03,00,00,20,00,
26045426,00000717,false,Rx,1,8,07,00,00,00,02,0A,00,00,
26054081,00000217,false,Rx,1,8,02,00,01,FC,9C,02,00,04,
26054328,00000377,false,Rx,1,8,00,00,00,00,00,00,00,00,
26064204,00000347,false,Rx,1,8,00,00,00,00,00,08,00,00,
26074179,00000357,false,Rx,1,8,00,00,00,00,00,00,00,00,
26084185,00000327,false,Rx,1,8,00,00,00,00,00,00,00,00,
26094167,00000337,false,Rx,1,8,00,00,00,00,00,00,00,00,
26144268,00000207,false,Rx,1,8,00,00,C0,FF,C8,00,04,00,
26144515,00000227,false,Rx,1,8,00,00,00,00,01,00,1F,C5,
26144763,00000237,false,Rx,1,8,3D,41,00,00,00,00,00,00,
26144997,00000247,false,Rx,1,8,44,7D,6E,03,00,00,20,00,
26145238,00000717,false,Rx,1,8,08,00,00,00,F2,45,00,00,
26154068,00000217,false,Rx,1,8,02,00,01,FC,9C,02,00,04,
26244222,00000207,false,Rx,1,8,00,00,00,00,C8,00,04,00,
26244470,00000227,false,Rx,1,8,00,00,00,00,01,00,1F,C5,
26244717,00000237,false,Rx,1,8,3D,41,00,00,00,00,00,00,
26244952,00000247,false,Rx,1,8,44,7D,6E,03,00,00,20,00,
26245193,00000717,false,Rx,1,8,09,00,DA,45,00,00,00,00,
26254026,00000217,false,Rx,1,8,02,00,01,FC,9C,02,00,04,
26344216,00000207,false,Rx,1,8,00,00,00,00,C8,00,04,00,
26344462,00000227,false,Rx,1,8,00,00,00,00,02,00,1F,C5,
26344717,00000237,false,Rx,1,8,3D,41,00,00,00,00,00,00,
26344951,00000247,false,Rx,1,8,44,7D,6E,03,00,00,20,00,
26345200,00000537,false,Rx,1,8,10,00,00,0A,00,00,00,00,
26345440,00000717,false,Rx,1,8,0A,00,00,00,00,00,00,00,
26354018,00000217,false,Rx,1,8,02,00,01,FC,9C,02,00,04,
26444178,00000207,false,Rx,1,8,00,00,00,00,C8,00,04,00,
26444424,00000227,false,Rx,1,8,00,00,00,00,00,00,1F,C5,
26444671,00000237,false,Rx,1,8,3D,41,00,00,00,00,00,00,
26444907,00000247,false,Rx,1,8,44,7D,6E,03,00,00,20,00,
26445155,00000717,false,Rx,1,8,0B,00,00,00,00,00,00,00,
26454002,00000217,false,Rx,1,8,02,00,01,FC,9C,02,00,04,
26544167,00000207,false,Rx,1,8,00,00,00,00,C8,00,04,00,
26544414,00000227,false,Rx,1,8,00,00,00,00,01,00,1F,C5,
26544655,00000237,false,Rx,1,8,3D,41,00,00,00,00,00,00,
26544896,00000247,false,Rx,1,8,44,7D,6E,03,00,00,20,00,
26545135,00000717,false,Rx,1,8,0C,01,00,04,04,00,01,00,
26553967,00000217,false,Rx,1,8,02,00,01,FC,9C,02,00,04,
26644155,00000207,false,Rx,1,8,00,00,C0,FF,C8,00,04,00,
26644402,00000227,false,Rx,1,8,00,00,00,00,00,00,1F,C5,
26644649,00000237,false,Rx,1,8,3D,41,00,00,00,00,00,00,
26644883,00000247,false,Rx,1,8,44,7D,6E,03,00,00,20,00,
26645123,00000717,false,Rx,1,8,0E,00,00,02,E6,3C,00,00,
26653954,00000217,false,Rx,1,8,02,00,01,FC,9C,02,00,04,
26744130,00000207,false,Rx,1,8,00,00,00,00,C8,00,04,00,
26744370,00000227,false,Rx,1,8,00,00,00,00,0D,00,1F,C5,
26744617,00000237,false,Rx,1,8,3D,41,00,00,00,00,00,00,
26744858,00000247,false,Rx,1,8,44,7D,6E,03,00,00,20,00,
26745092,00000717,false,Rx,1,8,0F,00,EB,01,F3,0D,00,00,
26753915,00000217,false,Rx,1,8,02,00,01,FC,9C,02,00,04,
26844120,00000207,false,Rx,1,8,00,00,C0,FF,C8,00,04,00,
26844359,00000227,false,Rx,1,8,00,00,00,00,00,00,1F,C5,
26844607,00000237,false,Rx,1,8,3D,41,00,00,00,00,00,00,
26844848,00000247,false,Rx,1,8,44,7D,6E,03,00,00,20,00,
26845088,00000717,false,Rx,1,8,10,09,E0,FE,04,90,FF,00,
26853921,00000217,false,Rx,1,8,02,00,01,FC,9C,02,00,04,
26944077,00000207,false,Rx,1,8,00,00,C0,FF,C8,00,04,00,
26944323,00000227,false,Rx,1,8,00,00,00,00,00,00,1F,C5,
26944571,00000237,false,Rx,1,8,3D,41,00,00,00,00,00,00,
26944804,00000247,false,Rx,1,8,44,7D,6E,03,00,00,20,00,
26945052,00000717,false,Rx,1,8,11,00,00,00,00,00,02,02,
26953899,00000217,false,Rx,1,8,02,00,01,FC,9C,02,00,04,
27043973,00000367,false,Rx,1,8,00,00,00,00,00,00,00,00,
27044220,00000207,false,Rx,1,8,00,00,C0,FF,C8,00,04,00,
27044467,00000227,false,Rx,1,8,00,00,00,00,00,00,1F,C5,
27044716,00000237,false,Rx,1,8,3D,41,00,00,00,00,00,00,
27044949,00000247,false,Rx,1,8,44,7D,6E,03,00,00,20,00,
27045189,00000717,false,Rx,1,8,12,40,29,00,27,00,16,00,
27053851,00000217,false,Rx,1,8,02,00,01,FC,9C,02,00,04,
27054104,00000377,false,Rx,1,8,00,00,00,00,00,00,00,00,
27063974,00000347,false,Rx,1,8,00,00,00,00,00,08,00,00,
27073986,00000357,false,Rx,1,8,00,00,00,00,00,00,00,00,
27083984,00000327,false,Rx,1,8,00,00,00,00,00,00,00,00,
27093966,00000337,false,Rx,1,8,00,00,00,00,00,00,00,00,
27144046,00000207,false,Rx,1,8,00,00,00,00,C8,00,04,00,
27144293,00000227,false,Rx,1,8,00,00,00,00,01,00,1F,C5,
27144541,00000237,false,Rx,1,8,3D,41,00,00,00,00,00,00,
27144781,00000247,false,Rx,1,8,44,7D,6E,03,00,00,20,00,
27145030,00000717,false,Rx,1,8,13,00,00,00,00,00,00,00,
27153846,00000217,false,Rx,1,8,02,00,01,FC,9C,02,00,04,
27244011,00000207,false,Rx,1,8,00,00,C0,FF,C8,00,04,00,
27244259,00000227,false,Rx,1,8,00,00,00,00,01,00,1F,C5,
27244506,00000237,false,Rx,1,8,3D,41,00,00,00,00,00,00,
27244746,00000247,false,Rx,1,8,44,7D,6E,03,00,00,20,00,
27244995,00000537,false,Rx,1,8,11,00,00,00,00,00,00,00,
27245235,00000717,false,Rx,1,8,14,00,00,00,FD,FF,00,00,
27253806,00000217,false,Rx,1,8,02,00,01,FC,9C,02,00,04,
27344013,00000207,false,Rx,1,8,00,00,C0,FF,C8,00,04,00,
27344253,00000227,false,Rx,1,8,00,00,00,00,01,00,1F,C5,
27344500,00000237,false,Rx,1,8,3D,41,00,00,00,00,00,00,
27344740,00000247,false,Rx,1,8,44,7D,6E,03,00,00,20,00,
27353808,00000217,false,Rx,1,8,02,00,01,FC,9C,02,00,04,
27443984,00000207,false,Rx,1,8,00,00,C0,FF,C8,00,04,00,
27444231,00000227,false,Rx,1,8,00,00,00,00,00,00,1F,C5,
27444478,00000237,false,Rx,1,8,3D,41,00,00,00,00,00,00,
27444712,00000247,false,Rx,1,8,44,7D,6E,03,00,00,20,00,
27444953,00000717,false,Rx,1,8,16,00,00,00,00,00,5E,46,
27453789,00000217,false,Rx,1,8,02,00,01,FC,9C,02,00,04,
27543943,00000207,false,Rx,1,8,00,00,C0,FF,C8,00,04,00,
27544182,00000227,false,Rx,1,8,00,00,00,00,00,00,1F,C5,
27544430,00000237,false,Rx,1,8,3D,41,00,00,00,00,00,00,
27544671,00000247,false,Rx,1,8,44,7D,6E,03,00,00,20,00,
27544912,00000717,false,Rx,1,8,17,00,00,50,04,00,00,00,
27553744,00000217,false,Rx,1,8,02,00,01,FC,9C,02,00,04,
27643951,00000207,false,Rx,1,8,00,00,00,00,C8,00,04,00,
27644190,00000227,false,Rx,1,8,00,00,00,00,00,00,1F,C5,
27644439,00000237,false,Rx,1,8,3D,41,00,00,00,00,00,00,
27644678,00000247,false,Rx,1,8,44,7D,6E,03,00,00,20,00,
27644927,00000717,false,Rx,1,8,18,00,00,00,00,00,00,00,
27653751,00000217,false,Rx,1,8,02,00,01,FC,9C,02,00,04,
27743921,00000207,false,Rx,1,8,00,00,C0,FF,C8,00,04,00,
27744168,00000227,false,Rx,1,8,00,00,00,00,00,00,1F,C5,
27744416,00000237,false,Rx,1,8,3D,41,00,00,00,00,00,00,
27744648,00000247,false,Rx,1,8,44,7D,6E,03,00,00,20,00,
27744896,00000717,false,Rx,1,8,19,00,00,00,00,00,00,00,
27753728,00000217,false,Rx,1,8,02,00,01,FC,9C,02,00,04,
27843898,00000207,false,Rx,1,8,00,00,C0,FF,C8,00,04,00,
27844137,00000227,false,Rx,1,8,00,00,00,00,00,00,1F,C5,
27844392,00000237,false,Rx,1,8,3D,41,00,00,00,00,00,00,
27844625,00000247,false,Rx,1,8,44,7D,6E,03,00,00,20,00,
27844874,00000717,false,Rx,1,8,01,00,00,00,00,00,00,00,
27853698,00000217,false,Rx,1,8,02,00,01,FC,9C,02,00,04,
27943883,00000207,false,Rx,1,8,00,00,00,00,C8,00,04,00,
27944130,00000227,false,Rx,1,8,00,00,00,00,00,00,1F,C5,
27944377,00000237,false,Rx,1,8,3D,41,00,00,00,00,00,00,
27944618,00000247,false,Rx,1,8,44,7D,6E,03,00,00,20,00,
27944866,00000717,false,Rx,1,8,02,00,00,00,00,00,00,00,
27953680,00000217,false,Rx,1,8,02,00,01,FC,9C,02,00,04,
28043767,00000367,false,Rx,1,8,00,00,00,00,00,00,00,00,
28044015,00000207,false,Rx,1,8,00,00,00,00,C8,00,04,00,
28044262,00000227,false,Rx,1,8,00,00,00,00,06,00,1F,C5,
28044510,00000237,false,Rx,1,8,3D,41,00,00,00,00,00,00,
28044750,00000247,false,Rx,1,8,44,7D,6E,03,00,00,20,00,
28053637,00000217,false,Rx,1,8,02,00,01,FC,9C,02,00,04,
28053885,00000377,false,Rx,1,8,00,00,00,00,00,00,00,00,
28063761,00000347,false,Rx,1,8,00,00,00,00,00,08,00,00,
28073757,00000357,false,Rx,1,8,00,00,00,00,00,00,00,00,
28083761,00000327,false,Rx,1,8,00,00,00,00,00,00,00,00,
28093759,00000337,false,Rx,1,8,00,00,00,00,00,00,00,00,
28143840,00000207,false,Rx,1,8,00,00,00,00,C8,00,04,00,
28144086,00000227,false,Rx,1,8,00,00,00,00,00,00,1F,C5,
28144335,00000237,false,Rx,1,8,3D,41,00,00,00,00,00,00,
28144575,00000247,false,Rx,1,8,44,7D,6E,03,00,00,20,00,
28144807,00000537,false,Rx,1,8,12,03,E9,DA,DC,E1,B0,3F,
28145049,00000717,false,Rx,1,8,04,00,00,00,00,00,00,00,
28153642,00000217,false,Rx,1,8,02,00,01,FC,9C,02,00,04,
28243793,00000207,false,Rx,1,8,00,00,C0,FF,C8,00,04,00,
28244041,00000227,false,Rx,1,8,00,00,00,00,03,00,1F,C5,
28244290,00000237,false,Rx,1,8,3D,41,00,00,00,00,00,00,
28244530,00000247,false,Rx,1,8,44,7D,6E,03,00,00,20,00,
28244777,00000717,false,Rx,1,8,05,00,00,00,00,00,00,00,
28253617,00000217,false,Rx,1,8,02,00,01,FC,9C,02,00,04,
28343771,00000207,false,Rx,1,8,00,00,00,00,C8,00,04,00,
28344020,00000227,false,Rx,1,8,00,00,00,00,00,00,1F,C5,
28344267,00000237,false,Rx,1,8,3D,41,00,00,00,00,00,00,
28344507,00000247,false,Rx,1,8,44,7D,6E,03,00,00,20,00,
28344748,00000717,false,Rx,1,8,06,00,6E,45,66,06,00,40,
28353580,00000217,false,Rx,1,8,02,00,01,FC,9C,02,00,04,
28443773,00000207,false,Rx,1,8,00,00,C0,FF,C8,00,04,00,
28444022,00000227,false,Rx,1,8,00,00,00,00,04,00,1F,C5,
28444276,00000237,false,Rx,1,8,3D,41,00,00,00,00,00,00,
28444509,00000247,false,Rx,1,8,44,7D,6E,03,00,00,20,00,
28444757,00000717,false,Rx,1,8,07,00,00,00,02,0A,00,00,
28453583,00000217,false,Rx,1,8,02,00,01,FC,9C,02,00,04,
28543736,00000207,false,Rx,1,8,00,00,C0,FF,C8,00,04,00,
28543983,00000227,false,Rx,1,8,00,00,00,00,05,00,1F,C5,
28544230,00000237,false,Rx,1,8,3D,41,00,00,00,00,00,00,
28544471,00000247,false,Rx,1,8,44,7D,6E,03,00,00,20,00,
28544711,00000717,false,Rx,1,8,08,00,00,00,DE,45,00,00,
28553535,00000217,false,Rx,1,8,02,00,01,FC,9C,02,00,04,
28643731,00000207,false,Rx,1,8,00,00,C0,FF,C8,00,04,00,
28643971,00000227,false,Rx,1,8,00,00,00,00,01,00,1F,C5,
28644219,00000237,false,Rx,1,8,3D,41,00,00,00,00,00,00,
28644460,00000247,false,Rx,1,8,44,7D,6E,03,00,00,20,00,
28644700,00000717,false,Rx,1,8,09,00,2E,46,00,00,00,00,
28653533,00000217,false,Rx,1,8,02,00,01,FC,9C,02,00,04,
28743688,00000207,false,Rx,1,8,00,00,C0,FF,C8,00,04,00,
28743928,00000227,false,Rx,1,8,00,00,00,00,00,00,1F,C5,
28744177,00000237,false,Rx,1,8,3D,41,00,00,00,00,00,00,
28744416,00000247,false,Rx,1,8,44,7D,6E,03,00,00,20,00,
28744664,00000717,false,Rx,1,8,0A,00,00,00,00,00,00,00,
28753504,00000217,false,Rx,1,8,02,00,01,FC,9C,02,00,04,
28843678,00000207,false,Rx,1,8,00,00,C0,FF,C8,00,04,00,
28843918,00000227,false,Rx,1,8,00,00,00,00,03,00,1F,C5,
28844166,00000237,false,Rx,1,8,3D,41,00,00,00,00,00,00,
28844406,00000247,false,Rx,1,8,44,7D,6E,03,00,00,20,00,
28844654,00000717,false,Rx,1,8,0B,00,00,00,00,00,00,00,
28853477,00000217,false,Rx,1,8,02,00,01,FC,9C,02,00,04,
28943670,00000207,false,Rx,1,8,00,00,C0,FF,C8,00,04,00,
28943919,00000227,false,Rx,1,8,00,00,00,00,02,00,1F,C5,
28944166,00000237,false,Rx,1,8,3D,41,00,00,00,00,00,00,
28944406,00000247,false,Rx,1,8,44,7D,6E,03,00,00,20,00,
28944647,00000717,false,Rx,1,8,0C,01,00,04,04,00,01,00,
28953471,00000217,false,Rx,1,8,02,00,01,FC,9C,02,00,04,
29043546,00000367,false,Rx,1,8,00,00,00,00,00,00,00,00,
29043794,00000207,false,Rx,1,8,00,00,00,00,C8,00,04,00,
29044042,00000227,false,Rx,1,8,00,00,00,00,00,00,1F,C5,
29044289,00000237,false,Rx,1,8,3D,41,00,00,00,00,00,00,
29044523,00000247,false,Rx,1,8,44,7D,6E,03,00,00,20,00,
29044771,00000537,false,Rx,1,8,13,01,FE,00,00,FC,00,00,
29045011,00000717,false,Rx,1,8,0E,00,00,02,46,46,00,00,
29053429,00000217,false,Rx,1,8,02,00,01,FC,9C,02,00,04,
29053676,00000377,false,Rx,1,8,00,00,00,00,00,00,00,00,
29063544,00000347,false,Rx,1,8,00,00,00,00,00,08,00,00,
29073542,00000357,false,Rx,1,8,00,00,00,00,00,00,00,00,
29083540,00000327,false,Rx,1,8,00,00,00,00,00,00,00,00,
29093537,00000337,false,Rx,1,8,00,00,00,00,00,00,00,00,
29143646,00000207,false,Rx,1,8,00,00,00,00,C8,00,04,00,
29143893,00000227,false,Rx,1,8,00,00,00,00,05,00,1F,C5,
29144140,00000237,false,Rx,1,8,3D,41,00,00,00,00,00,00,
29144381,00000247,false,Rx,1,8,44,7D,6E,03,00,00,20,00,
29144614,00000717,false,Rx,1,8,0F,00,EB,01,F0,0D,00,00,
29153421,00000217,false,Rx,1,8,02,00,01,FC,9C,02,00,04,
29243613,00000207,false,Rx,1,8,00,00,00,00,C8,00,04,00,
29243853,00000227,false,Rx,1,8,00,00,00,00,01,00,1F,C5,
29244101,00000237,false,Rx,1,8,3D,41,00,00,00,00,00,00,
29244341,00000247,false,Rx,1,8,44,7D,6E,03,00,00,20,00,
29244581,00000717,false,Rx,1,8,10,09,E0,FE,04,90,FF,00,
29253412,00000217,false,Rx,1,8,02,00,01,FC,9C,02,00,04,
29343583,00000207,false,Rx,1,8,00,00,C0,FF,C8,00,04,00,
29343830,00000227,false,Rx,1,8,00,00,00,00,05,00,1F,C5,
29344071,00000237,false,Rx,1,8,3D,41,00,00,00,00,00,00,
29344311,00000247,false,Rx,1,8,44,7D,6E,03,00,00,20,00,
29344558,00000717,false,Rx,1,8,11,00,00,00,00,00,02,02,
29353367,00000217,false,Rx,1,8,02,00,01,FC,9C,02,00,04,
29443570,00000207,false,Rx,1,8,00,00,C0,FF,C8,00,04,00,
29443817,00000227,false,Rx,1,8,00,00,00,00,07,00,1F,C5,
29444067,00000237,false,Rx,1,8,3D,41,00,00,00,00,00,00,
29444307,00000247,false,Rx,1,8,44,7D,6E,03,00,00,20,00,
29444541,00000717,false,Rx,1,8,12,40,29,00,27,00,16,00,
29453358,00000217,false,Rx,1,8,02,00,01,FC,9C,02,00,04,
29543536,00000207,false,Rx,1,8,00,00,00,00,C8,00,04,00,
29543783,00000227,false,Rx,1,8,00,00,00,00,03,00,1F,C5,
29544032,00000237,false,Rx,1,8,3D,41,00,00,00,00,00,00,
29544264,00000247,false,Rx,1,8,44,7D,6E,03,00,00,20,00,
29544513,00000717,false,Rx,1,8,13,00,00,00,00,00,00,00,
29553335,00000217,false,Rx,1,8,02,00,01,FC,9C,02,00,04,
29643505,00000207,false,Rx,1,8,00,00,C0,FF,C8,00,04,00,
29643759,00000227,false,Rx,1,8,00,00,00,00,04,00,1F,C5,
29644007,00000237,false,Rx,1,8,3D,41,00,00,00,00,00,00,
29644241,00000247,false,Rx,1,8,44,7D,6E,03,00,00,20,00,
29644488,00000717,false,Rx,1,8,14,00,00,00,2C,00,00,00,
29653311,00000217,false,Rx,1,8,02,00,01,FC,9C,02,00,04,
29743512,00000207,false,Rx,1,8,00,00,00,00,C8,00,04,00,
29743758,00000227,false,Rx,1,8,00,00,00,00,01,00,1F,C5,
29744007,00000237,false,Rx,1,8,3D,41,00,00,00,00,00,00,
29744248,00000247,false,Rx,1,8,44,7D,6E,03,00,00,20,00,
29753301,00000217,false,Rx,1,8,02,00,01,FC,9C,02,00,04,
29843469,00000207,false,Rx,1,8,00,00,00,00,C8,00,04,00,
29843715,00000227,false,Rx,1,8,00,00,00,00,00,00,1F,C5,
29843965,00000237,false,Rx,1,8,3D,41,00,00,00,00,00,00,
29844197,00000247,false,Rx,1,8,44,7D,6E,03,00,00,20,00,
29844437,00000717,false,Rx,1,8,16,00,00,00,00,00,B6,45,
29853254,00000217,false,Rx,1,8,02,00,01,FC,9C,02,00,04,
29943459,00000207,false,Rx,1,8,00,00,C0,FF,C8,00,04,00,
29943705,00000227,false,Rx,1,8,00,00,00,00,00,00,1F,C5,
29943948,00000237,false,Rx,1,8,3D,41,00,00,00,00,00,00,
29944187,00000247,false,Rx,1,8,44,7D,6E,03,00,00,20,00,
29944435,00000537,false,Rx,1,8,14,05,00,00,00,00,00,00,
29944676,00000717,false,Rx,1,8,17,00,00,50,04,00,00,00,
29953248,00000217,false,Rx,1,8,02,00,81,FC,9C,02,00,04,
30043343,00000367,false,Rx,1,8,00,00,00,00,00,00,00,00,
30043591,00000207,false,Rx,1,8,00,00,00,00,C8,00,04,00,
30043839,00000227,false,Rx,1,8,00,00,00,00,02,00,1F,C5,
30044086,00000237,false,Rx,1,8,3D,41,00,00,00,00,00,00,
30044327,00000247,false,Rx,1,8,44,7D,6E,03,00,00,20,00,
30044575,00000717,false,Rx,1,8,18,00,00,00,00,00,00,00,
30053236,00000217,false,Rx,1,8,02,00,81,FC,9C,02,00,04,
30053489,00000377,false,Rx,1,8,00,00,00,00,00,00,00,00,
30063338,00000347,false,Rx,1,8,00,00,00,00,00,08,00,00,
30073334,00000357,false,Rx,1,8,00,00,00,00,00,00,00,00,
30083330,00000327,false,Rx,1,8,00,00,00,00,00,00,00,00,
30093328,00000337,false,Rx,1,8,00,00,00,00,00,00,00,00,
30143393,00000207,false,Rx,1,8,00,00,C0,FF,C8,00,04,00,
30143640,00000227,false,Rx,1,8,00,00,00,00,05,00,1F,C5,
30143889,00000237,false,Rx,1,8,3D,41,00,00,00,00,00,00,
30144129,00000247,false,Rx,1,8,44,7D,6E,03,00,00,20,00,
30144370,00000717,false,Rx,1,8,19,00,00,00,00,00,00,00,
30153200,00000217,false,Rx,1,8,02,00,01,FC,9C,02,00,04,
30243392,00000207,false,Rx,1,8,00,00,00,00,C8,00,04,00,
30243638,00000227,false,Rx,1,8,00,00,00,00,01,00,1F,C5,
30243880,00000237,false,Rx,1,8,3D,41,00,00,00,00,00,00,
30244121,00000247,false,Rx,1,8,44,7D,6E,03,00,00,20,00,
30244369,00000717,false,Rx,1,8,01,00,00,00,00,00,00,00,
30253187,00000217,false,Rx,1,8,02,00,01,FC,9C,02,00,04,
30343344,00000207,false,Rx,1,8,00,00,C0,FF,C8,00,04,00,
30343590,00000227,false,Rx,1,8,00,00,00,00,01,00,1F,C5,
30343838,00000237,false,Rx,1,8,3D,41,00,00,00,00,00,00,
30344079,00000247,false,Rx,1,8,44,7D,6E,03,00,00,20,00,
30344326,00000717,false,Rx,1,8,02,00,00,00,00,00,00,00,
30353150,00000217,false,Rx,1,8,02,00,01,FC,9C,02,00,04,
30443371,00000207,false,Rx,1,8,00,00,00,00,C8,00,04,00,
30443617,00000227,false,Rx,1,8,00,00,00,00,05,00,1F,C5,
30443867,00000237,false,Rx,1,8,3D,41,00,00,00,00,00,00,
30444099,00000247,false,Rx,1,8,44,7D,6E,03,00,00,20,00,
30453152,00000217,false,Rx,1,8,02,00,01,FC,9C,02,00,04,
30543330,00000207,false,Rx,1,8,00,00,C0,FF,C8,00,04,00,
30543578,00000227,false,Rx,1,8,00,00,00,00,02,00,1F,C5,
30543825,00000237,false,Rx,1,8,3D,41,00,00,00,00,00,00,
30544059,00000247,false,Rx,1,8,44,7D,6E,03,00,00,20,00,
30544307,00000717,false,Rx,1,8,04,00,00,00,00,00,00,00,
30553123,00000217,false,Rx,1,8,02,00,81,FC,9C,02,00,04,
30643287,00000207,false,Rx,1,8,00,00,00,00,C8,00,04,00,
30643535,00000227,false,Rx,1,8,00,00,00,00,02,00,1F,C5,
30643782,00000237,false,Rx,1,8,3D,41,00,00,00,00,00,00,
30644023,00000247,false,Rx,1,8,44,7D,6E,03,00,00,20,00,
30644264,00000717,false,Rx,1,8,05,00,00,00,00,00,00,00,
30653081,00000217,false,Rx,1,8,02,00,81,FC,9C,02,00,04,
30743288,00000207,false,Rx,1,8,00,00,00,00,C8,00,04,00,
30743534,00000227,false,Rx,1,8,00,00,00,00,03,00,1F,C5,
30743789,00000237,false,Rx,1,8,3D,41,00,00,00,00,00,00,
30744024,00000247,false,Rx,1,8,44,7D,6E,03,00,00,20,00,
30744264,00000717,false,Rx,1,8,06,00,52,46,66,06,00,40,
30753088,00000217,false,Rx,1,8,02,00,81,FC,9C,02,00,04,
30843251,00000207,false,Rx,1,8,00,00,C0,FF,C8,00,04,00,
30843497,00000227,false,Rx,1,8,00,00,00,00,01,00,1F,C5,
30843744,00000237,false,Rx,1,8,3D,41,00,00,00,00,00,00,
30843979,00000247,false,Rx,1,8,44,7D,6E,03,00,00,20,00,
30844226,00000717,false,Rx,1,8,07,00,00,00,02,0A,00,00,
30853065,00000217,false,Rx,1,8,02,00,81,FC,9C,02,00,04,
30943240,00000207,false,Rx,1,8,00,00,C0,FF,C8,00,04,00,
30943487,00000227,false,Rx,1,8,00,00,00,00,01,00,1F,C5,
30943735,00000237,false,Rx,1,8,3D,41,00,00,00,00,00,00,
30943970,00000247,false,Rx,1,8,44,7D,6E,03,00,00,20,00,
30944210,00000717,false,Rx,1,8,08,00,00,00,36,46,00,00,
30953042,00000217,false,Rx,1,8,02,00,81,FC,9C,02,00,04,
31043120,00000367,false,Rx,1,8,00,00,00,00,00,00,00,00,
31043366,00000207,false,Rx,1,8,00,00,C0,FF,C8,00,04,00,
31043615,00000227,false,Rx,1,8,00,00,00,00,03,00,1F,C5,
31043863,00000237,false,Rx,1,8,3D,41,00,00,00,00,00,00,
31044103,00000247,false,Rx,1,8,44,7D,6E,03,00,00,20,00,
31044344,00000717,false,Rx,1,8,09,00,36,46,00,00,00,00,
31053014,00000217,false,Rx,1,8,02,00,81,FC,9C,02,00,04,
31053268,00000377,false,Rx,1,8,00,00,00,00,00,00,00,00,
31063115,00000347,false,Rx,1,8,00,00,00,00,00,08,00,00,
31073112,00000357,false,Rx,1,8,00,00,00,00,00,00,00,00,
31083116,00000327,false,Rx,1,8,00,00,00,00,00,00,00,00,
31093113,00000337,false,Rx,1,8,00,00,00,00,00,00,00,00,
31143199,00000207,false,Rx,1,8,00,00,00,00,C8,00,04,00,
31143447,00000227,false,Rx,1,8,00,00,00,00,00,00,1F,C5,
31143694,00000237,false,Rx,1,8,3D,41,00,00,00,00,00,00,
31143935,00000247,false,Rx,1,8,44,7D,6E,03,00,00,20,00,
31144176,00000717,false,Rx,1,8,0A,00,00,00,00,00,00,00,
31152977,00000217,false,Rx,1,8,02,00,81,FC,9C,02,00,04,
31243196,00000207,false,Rx,1,8,00,00,00,00,C8,00,04,00,
31243449,00000227,false,Rx,1,8,00,00,00,00,02,00,1F,C5,
31243697,00000237,false,Rx,1,8,3D,41,00,00,00,00,00,00,
31243930,00000247,false,Rx,1,8,44,7D,6E,03,00,00,20,00,
31244179,00000717,false,Rx,1,8,0B,00,00,00,00,00,00,00,
31252981,00000217,false,Rx,1,8,02,00,81,FC,9C,02,00,04,
31343153,00000207,false,Rx,1,8,00,00,C0,FF,C8,00,04,00,
31343399,00000227,false,Rx,1,8,00,00,00,00,02,00,1F,C5,
31343647,00000237,false,Rx,1,8,3D,41,00,00,00,00,00,00,
31343889,00000247,false,Rx,1,8,44,7D,6E,03,00,00,20,00,
31344128,00000717,false,Rx,1,8,0C,01,00,04,04,00,01,00,
31352953,00000217,false,Rx,1,8,02,00,81,FC,9C,02,00,04,
31443117,00000207,false,Rx,1,8,00,00,C0,FF,C8,00,04,00,
31443364,00000227,false,Rx,1,8,00,00,00,00,06,00,1F,C5,
31443611,00000237,false,Rx,1,8,3D,41,00,00,00,00,00,00,
31443846,00000247,false,Rx,1,8,44,7D,6E,03,00,00,20,00,
31444086,00000717,false,Rx,1,8,0E,00,00,02,A6,4F,00,00,
31452927,00000217,false,Rx,1,8,02,00,81,FC,9C,02,00,04,
31543118,00000207,false,Rx,1,8,00,00,00,00,C8,00,04,00,
31543365,00000227,false,Rx,1,8,00,00,00,00,03,00,1F,C5,
31543613,00000237,false,Rx,1,8,3D,41,00,00,00,00,00,00,
31543855,00000247,false,Rx,1,8,44,7D,6E,03,00,00,20,00,
31544087,00000717,false,Rx,1,8,0F,00,EB,01,CA,10,00,00,
31552918,00000217,false,Rx,1,8,02,00,81,FC,9C,02,00,04,
31643097,00000207,false,Rx,1,8,00,00,00,00,C8,00,04,00,
31643336,00000227,false,Rx,1,8,00,00,00,00,00,00,1F,C5,
31643584,00000237,false,Rx,1,8,3D,41,00,00,00,00,00,00,
31643824,00000247,false,Rx,1,8,44,7D,6E,03,00,00,20,00,
31644065,00000717,false,Rx,1,8,10,09,E0,FE,04,90,FF,00,
31652881,00000217,false,Rx,1,8,02,00,81,FC,9C,02,00,04,
31743069,00000207,false,Rx,1,8,00,00,C0,FF,C8,00,04,00,
31743316,00000227,false,Rx,1,8,00,00,00,00,01,00,1F,C5,
31743563,00000237,false,Rx,1,8,3D,41,00,00,00,00,00,00,
31743803,00000247,false,Rx,1,8,44,7D,6E,03,00,00,20,00,
31744045,00000537,false,Rx,1,8,0A,01,0E,00,FC,00,3F,00,
31744285,00000717,false,Rx,1,8,11,00,00,00,00,00,02,02,
31752872,00000217,false,Rx,1,8,02,00,81,FC,9C,02,00,04,
31843067,00000207,false,Rx,1,8,00,00,C0,FF,C8,00,04,00,
31843321,00000227,false,Rx,1,8,00,00,00,00,04,00,1F,C5,
31843568,00000237,false,Rx,1,8,3D,41,00,00,00,00,00,00,
31843802,00000247,false,Rx,1,8,44,7D,6E,03,00,00,20,00,
31844043,00000717,false,Rx,1,8,12,40,29,00,27,00,16,00,
31852843,00000217,false,Rx,1,8,02,00,81,FC,9C,02,00,04,
31943014,00000207,false,Rx,1,8,00,00,C0,FF,C8,00,04,00,
31943260,00000227,false,Rx,1,8,00,00,00,00,03,00,1F,C5,
31943507,00000237,false,Rx,1,8,3D,41,00,00,00,00,00,00,
31943748,00000247,false,Rx,1,8,44,7D,6E,03,00,00,20,00,
31943997,00000717,false,Rx,1,8,13,00,00,00,00,00,00,00,
31952804,00000217,false,Rx,1,8,02,00,81,FC,9C,02,00,04,
32042913,00000367,false,Rx,1,8,00,00,00,00,00,00,00,00,
32043167,00000207,false,Rx,1,8,00,00,00,00,C8,00,04,00,
32043414,00000227,false,Rx,1,8,00,00,00,00,03,00,1F,C5,
32043655,00000237,false,Rx,1,8,3D,41,00,00,00,00,00,00,
32043896,00000247,false,Rx,1,8,44,7D,6E,03,00,00,20,00,
32044136,00000717,false,Rx,1,8,14,00,00,00,DD,FF,00,00,
32052807,00000217,false,Rx,1,8,02,00,81,FC,9C,02,00,04,
32053054,00000377,false,Rx,1,8,00,00,00,00,00,00,00,00,
32062910,00000347,false,Rx,1,8,00,00,00,00,00,08,00,00,
32072908,00000357,false,Rx,1,8,00,00,00,00,00,00,00,00,
32082906,00000327,false,Rx,1,8,00,00,00,00,00,00,00,00,
32092903,00000337,false,Rx,1,8,00,00,00,00,00,00,00,00,
32142966,00000207,false,Rx,1,8,00,00,00,00,C8,00,04,00,
32143213,00000227,false,Rx,1,8,00,00,00,00,00,00,1F,C5,
32143461,00000237,false,Rx,1,8,3D,41,00,00,00,00,00,00,
32143701,00000247,false,Rx,1,8,44,7D,6E,03,00,00,20,00,
32152771,00000217,false,Rx,1,8,02,00,81,FC,9C,02,00,04,
32242986,00000207,false,Rx,1,8,00,00,C0,FF,C8,00,04,00,
32243233,00000227,false,Rx,1,8,00,00,00,00,01,00,1F,C5,
32243480,00000237,false,Rx,1,8,3D,41,00,00,00,00,00,00,
32243720,00000247,false,Rx,1,8,44,7D,6E,03,00,00,20,00,
32243956,00000717,false,Rx,1,8,16,00,00,00,00,00,D6,45,
32252766,00000217,false,Rx,1,8,02,00,01,FC,9C,02,00,04,
32342954,00000207,false,Rx,1,8,00,00,00,00,C8,00,04,00,
32343200,00000227,false,Rx,1,8,00,00,00,00,03,00,1F,C5,
32343447,00000237,false,Rx,1,8,3D,41,00,00,00,00,00,00,
32343687,00000247,false,Rx,1,8,44,7D,6E,03,00,00,20,00,
32343929,00000717,false,Rx,1,8,17,00,00,50,04,00,00,00,
32352751,00000217,false,Rx,1,8,02,00,01,FC,9C,02,00,04,
32442921,00000207,false,Rx,1,8,00,00,00,00,C8,00,04,00,
32443167,00000227,false,Rx,1,8,00,00,00,00,04,00,1F,C5,
32443422,00000237,false,Rx,1,8,3D,41,00,00,00,00,00,00,
32443656,00000247,false,Rx,1,8,44,7D,6E,03,00,00,20,00,
32443904,00000717,false,Rx,1,8,18,00,00,00,00,00,00,00,
32452704,00000217,false,Rx,1,8,02,00,01,FC,9C,02,00,04,
32542918,00000207,false,Rx,1,8,00,00,C0,FF,C8,00,04,00,
32543164,00000227,false,Rx,1,8,00,00,00,00,01,00,1F,C5,
32543413,00000237,false,Rx,1,8,3D,41,00,00,00,00,00,00,
32543645,00000247,false,Rx,1,8,44,7D,6E,03,00,00,20,00,
32543894,00000717,false,Rx,1,8,19,00,00,00,00,00,00,00,
32552704,00000217,false,Rx,1,8,02,00,01,FC,9C,02,00,04,
32642873,00000207,false,Rx,1,8,00,00,C0,FF,C8,00,04,00,
32643111,00000227,false,Rx,1,8,00,00,00,00,0E,00,1F,C5,
32643360,00000237,false,Rx,1,8,3D,41,00,00,00,00,00,00,
32643600,00000247,false,Rx,1,8,44,7D,6E,03,00,00,20,00,
32643848,00000537,false,Rx,1,8,0B,00,05,06,00,00,00,00,
32644089,00000717,false,Rx,1,8,01,00,00,00,00,00,00,00,
32652681,00000217,false,Rx,1,8,02,00,01,FC,9C,02,00,04,
32742852,00000207,false,Rx,1,8,00,00,C0,FF,C8,00,04,00,
32743092,00000227,false,Rx,1,8,00,00,00,00,00,00,1F,C5,
32743340,00000237,false,Rx,1,8,3D,41,00,00,00,00,00,00,
32743580,00000247,false,Rx,1,8,44,7D,6E,03,00,00,20,00,
32743829,00000717,false,Rx,1,8,02,00,00,00,00,00,00,00,
32752668,00000217,false,Rx,1,8,02,00,01,FC,9C,02,00,04,
32842839,00000207,false,Rx,1,8,00,00,C0,FF,C8,00,04,00,
32843087,00000227,false,Rx,1,8,00,00,00,00,04,00,1F,C5,
32843334,00000237,false,Rx,1,8,3D,41,00,00,00,00,00,00,
32843574,00000247,false,Rx,1,8,44,7D,6E,03,00,00,20,00,
32852642,00000217,false,Rx,1,8,02,00,01,FC,9C,02,00,04,
32942797,00000207,false,Rx,1,8,00,00,00,00,C8,00,04,00,
32943044,00000227,false,Rx,1,8,00,00,00,00,01,00,1F,C5,
32943291,00000237,false,Rx,1,8,3D,41,00,00,00,00,00,00,
32943532,00000247,false,Rx,1,8,44,7D,6E,03,00,00,20,00,
32943780,00000717,false,Rx,1,8,04,00,00,00,00,00,00,00,
32952594,00000217,false,Rx,1,8,02,00,01,FC,9C,02,00,04,
33042696,00000367,false,Rx,1,8,00,00,00,00,00,00,00,00,
33042943,00000207,false,Rx,1,8,00,00,00,00,C8,00,04,00,
33043191,00000227,false,Rx,1,8,00,00,00,00,02,00,1F,C5,
33043439,00000237,false,Rx,1,8,3D,41,00,00,00,00,00,00,
33043679,00000247,false,Rx,1,8,44,7D,6E,03,00,00,20,00,
33043928,00000717,false,Rx,1,8,05,00,00,00,00,00,00,00,
33052596,00000217,false,Rx,1,8,02,00,01,FC,9C,02,00,04,
33052843,00000377,false,Rx,1,8,00,00,00,00,00,00,00,00,
33062691,00000347,false,Rx,1,8,00,00,00,00,00,08,00,00,
33072688,00000357,false,Rx,1,8,00,00,00,00,00,00,00,00,
33082684,00000327,false,Rx,1,8,00,00,00,00,00,00,00,00,
33092681,00000337,false,Rx,1,8,00,00,00,00,00,00,00,00,
33142799,00000207,false,Rx,1,8,00,00,C0,FF,C8,00,04,00,
33143046,00000227,false,Rx,1,8,00,00,00,00,04,00,1F,C5,
33143295,00000237,false,Rx,1,8,3D,41,00,00,00,00,00,00,
33143527,00000247,false,Rx,1,8,44,7D,6E,03,00,00,20,00,
33143767,00000717,false,Rx,1,8,06,00,56,46,66,06,00,40,
33152578,00000217,false,Rx,1,8,02,00,01,FC,9C,02,00,04,
33242753,00000207,false,Rx,1,8,00,00,C0,FF,C8,00,04,00,
33242993,00000227,false,Rx,1,8,00,00,00,00,00,00,1F,C5,
33243241,00000237,false,Rx,1,8,3D,41,00,00,00,00,00,00,
33243481,00000247,false,Rx,1,8,44,7D,6E,03,00,00,20,00,
33243729,00000717,false,Rx,1,8,07,00,00,00,02,0A,00,00,
33252538,00000217,false,Rx,1,8,02,00,01,FC,9C,02,00,04,
33342727,00000207,false,Rx,1,8,00,00,C0,FF,C8,00,04,00,
33342976,00000227,false,Rx,1,8,00,00,00,00,03,00,1F,C5,
33343223,00000237,false,Rx,1,8,3D,41,00,00,00,00,00,00,
33343463,00000247,false,Rx,1,8,44,7D,6E,03,00,00,20,00,
33343704,00000717,false,Rx,1,8,08,00,00,00,56,46,00,00,
33352535,00000217,false,Rx,1,8,02,00,01,FC,9C,02,00,04,
33442703,00000207,false,Rx,1,8,00,00,00,00,C8,00,04,00,
33442944,00000227,false,Rx,1,8,00,00,00,00,00,00,1F,C5,
33443191,00000237,false,Rx,1,8,3D,41,00,00,00,00,00,00,
33443431,00000247,false,Rx,1,8,44,7D,6E,03,00,00,20,00,
33443672,00000717,false,Rx,1,8,09,00,D6,45,00,00,00,00,
33452494,00000217,false,Rx,1,8,02,00,01,FC,9C,02,00,04,
33542691,00000207,false,Rx,1,8,00,00,C0,FF,C8,00,04,00,
33542938,00000227,false,Rx,1,8,00,00,00,00,00,00,1F,C5,
33543186,00000237,false,Rx,1,8,3D,41,00,00,00,00,00,00,
33543427,00000247,false,Rx,1,8,44,7D,6E,03,00,00,20,00,
33543667,00000537,false,Rx,1,8,0D,00,00,00,7D,F1,02,85,
33543908,00000717,false,Rx,1,8,0A,00,00,00,00,00,00,00,
33552499,00000217,false,Rx,1,8,02,00,01,FC,9C,02,00,04,
33642654,00000207,false,Rx,1,8,00,00,C0,FF,C8,00,04,00,
33642895,00000227,false,Rx,1,8,00,00,00,00,00,00,1F,C5,
33643142,00000237,false,Rx,1,8,3D,41,00,00,00,00,00,00,
33643383,00000247,false,Rx,1,8,44,7D,6E,03,00,00,20,00,
33643631,00000717,false,Rx,1,8,0B,00,00,00,00,00,00,00,
33652472,00000217,false,Rx,1,8,02,00,01,FC,9C,02,00,04,
33742643,00000207,false,Rx,1,8,00,00,00,00,C8,00,04,00,
33742890,00000227,false,Rx,1,8,00,00,00,00,02,00,1F,C5,
33743139,00000237,false,Rx,1,8,3D,41,00,00,00,00,00,00,
33743379,00000247,false,Rx,1,8,44,7D,6E,03,00,00,20,00,
33743619,00000717,false,Rx,1,8,0C,01,00,04,04,00,01,00,
33752427,00000217,false,Rx,1,8,02,00,01,FC,9C,02,00,04,
33842630,00000207,false,Rx,1,8,00,00,00,00,C8,00,04,00,
33842878,00000227,false,Rx,1,8,00,00,00,00,00,00,1F,C5,
33843126,00000237,false,Rx,1,8,3D,41,00,00,00,00,00,00,
33843366,00000247,false,Rx,1,8,44,7D,6E,03,00,00,20,00,
33843606,00000717,false,Rx,1,8,0E,00,00,02,06,59,00,00,
33852424,00000217,false,Rx,1,8,02,00,01,FC,9C,02,00,04,
33942607,00000207,false,Rx,1,8,00,00,C0,FF,C8,00,04,00,
33942848,00000227,false,Rx,1,8,00,00,00,00,00,00,1F,C5,
33943096,00000237,false,Rx,1,8,3D,41,00,00,00,00,00,00,
33943336,00000247,false,Rx,1,8,44,7D,6E,03,00,00,20,00,
33943577,00000717,false,Rx,1,8,0F,00,EB,01,34,0E,00,00,
33952409,00000217,false,Rx,1,8,02,00,01,FC,9C,02,00,04,
34042506,00000367,false,Rx,1,8,00,00,00,00,00,00,00,00,
34042753,00000207,false,Rx,1,8,00,00,00,00,C8,00,04,00,
34042994,00000227,false,Rx,1,8,00,00,00,00,0C,00,1F,C5,
34043242,00000237,false,Rx,1,8,3D,41,00,00,00,00,00,00,
34043483,00000247,false,Rx,1,8,44,7D,6E,03,00,00,20,00,
34043722,00000717,false,Rx,1,8,10,09,E0,FE,04,90,FF,00,
34052383,00000217,false,Rx,1,8,02,00,01,FC,9C,02,00,04,
34052630,00000377,false,Rx,1,8,00,00,00,00,00,00,00,00,
34062492,00000347,false,Rx,1,8,00,00,00,00,00,08,00,00,
34072482,00000357,false,Rx,1,8,00,00,00,00,00,00,00,00,
34082479,00000327,false,Rx,1,8,00,00,00,00,00,00,00,00,
34092477,00000337,false,Rx,1,8,00,00,00,00,00,00,00,00,
34142563,00000207,false,Rx,1,8,00,00,C0,FF,C8,00,04,00,
34142801,00000227,false,Rx,1,8,00,00,00,00,00,00,1F,C5,
34143050,00000237,false,Rx,1,8,3D,41,00,00,00,00,00,00,
34143291,00000247,false,Rx,1,8,44,7D,6E,03,00,00,20,00,
34143531,00000717,false,Rx,1,8,11,00,00,00,00,00,02,02,
34152364,00000217,false,Rx,1,8,02,00,01,FC,9C,02,00,04,
34242522,00000207,false,Rx,1,8,00,00,00,00,C8,00,04,00,
34242768,00000227,false,Rx,1,8,00,00,00,00,04,00,1F,C5,
34243018,00000237,false,Rx,1,8,3D,41,00,00,00,00,00,00,
34243258,00000247,false,Rx,1,8,44,7D,6E,03,00,00,20,00,
34243490,00000717,false,Rx,1,8,12,40,29,00,27,00,16,00,
34252316,00000217,false,Rx,1,8,02,00,81,FC,9C,02,00,04,
34342529,00000207,false,Rx,1,8,00,00,00,00,C8,00,04,00,
34342768,00000227,false,Rx,1,8,00,00,00,00,00,00,1F,C5,
34343018,00000237,false,Rx,1,8,3D,41,00,00,00,00,00,00,
34343258,00000247,false,Rx,1,8,44,7D,6E,03,00,00,20,00,
34343505,00000717,false,Rx,1,8,13,00,00,00,00,00,00,00,
34352323,00000217,false,Rx,1,8,02,00,81,FC,9C,02,00,04,
34442484,00000207,false,Rx,1,8,00,00,00,00,C8,00,04,00,
34442732,00000227,false,Rx,1,8,00,00,00,00,02,00,1F,C5,
34442980,00000237,false,Rx,1,8,3D,41,00,00,00,00,00,00,
34443212,00000247,false,Rx,1,8,44,7D,6E,03,00,00,20,00,
34443461,00000537,false,Rx,1,8,0E,00,00,00,00,00,00,00,
34443708,00000717,false,Rx,1,8,14,00,00,00,0C,00,00,00,
34452296,00000217,false,Rx,1,8,02,00,81,FC,9C,02,00,04,
34542486,00000207,false,Rx,1,8,00,00,C0,FF,C8,00,04,00,
34542726,00000227,false,Rx,1,8,00,00,00,00,00,00,1F,C5,
34542974,00000237,false,Rx,1,8,3D,41,00,00,00,00,00,00,
34543214,00000247,false,Rx,1,8,44,7D,6E,03,00,00,20,00,
34552270,00000217,false,Rx,1,8,02,00,81,FC,9C,02,00,04,
34642474,00000207,false,Rx,1,8,00,00,00,00,C8,00,04,00,
34642720,00000227,false,Rx,1,8,00,00,00,00,00,00,1F,C5,
34642970,00000237,false,Rx,1,8,3D,41,00,00,00,00,00,00,
34643203,00000247,false,Rx,1,8,44,7D,6E,03,00,00,20,00,
34643451,00000717,false,Rx,1,8,16,00,00,00,00,00,B6,45,
34652260,00000217,false,Rx,1,8,02,00,81,FC,9C,02,00,04,
34742419,00000207,false,Rx,1,8,00,00,C0,FF,C8,00,04,00,
34742665,00000227,false,Rx,1,8,00,00,00,00,00,00,1F,C5,
34742914,00000237,false,Rx,1,8,3D,41,00,00,00,00,00,00,
34743148,00000247,false,Rx,1,8,44,7D,6E,03,00,00,20,00,
34743395,00000717,false,Rx,1,8,17,00,00,50,04,00,00,00,
34752221,00000217,false,Rx,1,8,02,00,81,FC,9C,02,00,04,
34842416,00000207,false,Rx,1,8,00,00,C0,FF,C8,00,04,00,
34842655,00000227,false,Rx,1,8,00,00,00,00,00,00,1F,C5,
34842905,00000237,false,Rx,1,8,3D,41,00,00,00,00,00,00,
34843144,00000247,false,Rx,1,8,44,7D,6E,03,00,00,20,00,
34843392,00000717,false,Rx,1,8,18,00,00,00,00,00,00,00,
34852215,00000217,false,Rx,1,8,02,00,81,FC,9C,02,00,04,
34942386,00000207,false,Rx,1,8,00,00,00,00,C8,00,04,00,
34942634,00000227,false,Rx,1,8,00,00,00,00,00,00,1F,C5,
34942882,00000237,false,Rx,1,8,3D,41,00,00,00,00,00,00,
34943115,00000247,false,Rx,1,8,44,7D,6E,03,00,00,20,00,
34943362,00000717,false,Rx,1,8,19,00,00,00,00,00,00,00,
34952188,00000217,false,Rx,1,8,02,00,81,FC,9C,02,00,04,
35042273,00000367,false,Rx,1,8,00,00,00,00,00,00,00,00,
35042520,00000207,false,Rx,1,8,00,00,C0,FF,C8,00,04,00,
35042760,00000227,false,Rx,1,8,00,00,00,00,00,00,1F,C5,
35043008,00000237,false,Rx,1,8,3D,41,00,00,00,00,00,00,
35043249,00000247,false,Rx,1,8,44,7D,6E,03,00,00,20,00,
35043496,00000717,false,Rx,1,8,01,00,00,00,00,00,00,00,
35052150,00000217,false,Rx,1,8,02,00,81,FC,9C,02,00,04,
35052396,00000377,false,Rx,1,8,00,00,00,00,00,00,00,00,
35062280,00000347,false,Rx,1,8,00,00,00,00,00,08,00,00,
35072292,00000357,false,Rx,1,8,00,00,00,00,00,00,00,00,
35082290,00000327,false,Rx,1,8,00,00,00,00,00,00,00,00,
35092273,00000337,false,Rx,1,8,00,00,00,00,00,00,00,00,
35142369,00000207,false,Rx,1,8,00,00,C0,FF,C8,00,04,00,
35142615,00000227,false,Rx,1,8,00,00,00,00,03,00,1F,C5,
35142864,00000237,false,Rx,1,8,3D,41,00,00,00,00,00,00,
35143105,00000247,false,Rx,1,8,44,7D,6E,03,00,00,20,00,
35143344,00000717,false,Rx,1,8,02,00,00,00,00,00,00,00,
35152152,00000217,false,Rx,1,8,02,00,81,FC,9C,02,00,04,
35242314,00000207,false,Rx,1,8,00,00,00,00,C8,00,04,00,
35242560,00000227,false,Rx,1,8,00,00,00,00,02,00,1F,C5,
35242808,00000237,false,Rx,1,8,3D,41,00,00,00,00,00,00,
35243050,00000247,false,Rx,1,8,44,7D,6E,03,00,00,20,00,
35252110,00000217,false,Rx,1,8,02,00,81,FC,9C,02,00,04,
35342313,00000207,false,Rx,1,8,00,00,00,00,C8,00,04,00,
35342559,00000227,false,Rx,1,8,00,00,00,00,00,00,1F,C5,
35342808,00000237,false,Rx,1,8,3D,41,00,00,00,00,00,00,
35343042,00000247,false,Rx,1,8,44,7D,6E,03,00,00,20,00,
35343282,00000537,false,Rx,1,8,0F,00,00,00,8C,A1,70,0A,
35343530,00000717,false,Rx,1,8,04,00,00,00,00,00,00,00,
35352102,00000217,false,Rx,1,8,02,00,81,FC,9C,02,00,04,
35442310,00000207,false,Rx,1,8,00,00,00,00,C8,00,04,00,
35442549,00000227,false,Rx,1,8,00,00,00,00,00,00,1F,C5,
35442798,00000237,false,Rx,1,8,3D,41,00,00,00,00,00,00,
35443039,00000247,false,Rx,1,8,44,7D,6E,03,00,00,20,00,
35443286,00000717,false,Rx,1,8,05,00,00,00,00,00,00,00,
35452087,00000217,false,Rx,1,8,02,00,81,FC,9C,02,00,04,
35542262,00000207,false,Rx,1,8,00,00,C0,FF,C8,00,04,00,
35542510,00000227,false,Rx,1,8,00,00,00,00,00,00,1F,C5,
35542757,00000237,false,Rx,1,8,3D,41,00,00,00,00,00,00,
35542990,00000247,false,Rx,1,8,44,7D,6E,03,00,00,20,00,
35543232,00000717,false,Rx,1,8,06,00,D6,45,66,06,00,40,
35552049,00000217,false,Rx,1,8,02,00,81,FC,9C,02,00,04,
35642247,00000207,false,Rx,1,8,00,00,C0,FF,C8,00,04,00,
35642487,00000227,false,Rx,1,8,00,00,00,00,00,00,1F,C5,
35642734,00000237,false,Rx,1,8,3D,41,00,00,00,00,00,00,
35642975,00000247,false,Rx,1,8,44,7D,6E,03,00,00,20,00,
35643216,00000717,false,Rx,1,8,07,00,00,00,02,0A,00,00,
35652042,00000217,false,Rx,1,8,02,00,81,FC,9C,02,00,04,
35742200,00000207,false,Rx,1,8,00,00,C0,FF,C8,00,04,00,
35742447,00000227,false,Rx,1,8,00,00,00,00,00,00,1F,C5,
35742694,00000237,false,Rx,1,8,3D,41,00,00,00,00,00,00,
35742929,00000247,false,Rx,1,8,44,7D,6E,03,00,00,20,00,
35743176,00000717,false,Rx,1,8,08,00,00,00,16,46,00,00,
35752016,00000217,false,Rx,1,8,02,00,81,FC,9C,02,00,04,
35842191,00000207,false,Rx,1,8,00,00,C0,FF,C8,00,04,00,
35842437,00000227,false,Rx,1,8,00,00,00,00,03,00,1F,C5,
35842684,00000237,false,Rx,1,8,3D,41,00,00,00,00,00,00,
35842926,00000247,false,Rx,1,8,44,7D,6E,03,00,00,20,00,
35843166,00000717,false,Rx,1,8,09,00,F6,45,00,00,00,00,
35852005,00000217,false,Rx,1,8,02,00,81,FC,9C,02,00,04,
35942200,00000207,false,Rx,1,8,00,00,C0,FF,C8,00,04,00,
35942446,00000227,false,Rx,1,8,00,00,00,00,04,00,1F,C5,
35942695,00000237,false,Rx,1,8,3D,41,00,00,00,00,00,00,
35942928,00000247,false,Rx,1,8,44,7D,6E,03,00,00,20,00,
35943176,00000717,false,Rx,1,8,0A,00,00,00,00,00,00,00,
35951984,00000217,false,Rx,1,8,02,00,81,FC,9C,02,00,04,
36042065,00000367,false,Rx,1,8,00,00,00,00,00,00,00,00,
36042311,00000207,false,Rx,1,8,00,00,00,00,C8,00,04,00,
36042560,00000227,false,Rx,1,8,00,00,00,00,01,00,1F,C5,
36042807,00000237,false,Rx,1,8,3D,41,00,00,00,00,00,00,
36043041,00000247,false,Rx,1,8,44,7D,6E,03,00,00,20,00,
36043289,00000717,false,Rx,1,8,0B,00,00,00,00,00,00,00,
36051936,00000217,false,Rx,1,8,02,00,81,FC,9C,02,00,04,
36052190,00000377,false,Rx,1,8,00,00,00,00,00,00,00,00,
36062052,00000347,false,Rx,1,8,00,00,00,00,00,08,00,00,
36072057,00000357,false,Rx,1,8,00,00,00,00,00,00,00,00,
36082054,00000327,false,Rx,1,8,00,00,00,00,00,00,00,00,
36092066,00000337,false,Rx,1,8,00,00,00,00,00,00,00,00,
36142144,00000207,false,Rx,1,8,00,00,C0,FF,C8,00,04,00,
36142391,00000227,false,Rx,1,8,00,00,00,00,01,00,1F,C5,
36142639,00000237,false,Rx,1,8,3D,41,00,00,00,00,00,00,
36142872,00000247,false,Rx,1,8,44,7D,6E,03,00,00,20,00,
36143113,00000717,false,Rx,1,8,0C,01,00,04,04,00,01,00,
36151930,00000217,false,Rx,1,8,02,00,81,FC,9C,02,00,04,
36242100,00000207,false,Rx,1,8,00,00,C0,FF,C8,00,04,00,
36242346,00000227,false,Rx,1,8,00,00,00,00,05,00,1F,C5,
36242593,00000237,false,Rx,1,8,3D,41,00,00,00,00,00,00,
36242835,00000247,false,Rx,1,8,44,7D,6E,03,00,00,20,00,
36243077,00000537,false,Rx,1,8,10,00,00,0A,00,00,00,00,
36243316,00000717,false,Rx,1,8,0E,00,00,02,66,62,00,00,
36251918,00000217,false,Rx,1,8,02,00,81,FC,9C,02,00,04,
36342085,00000207,false,Rx,1,8,00,00,C0,FF,C8,00,04,00,
36342323,00000227,false,Rx,1,8,00,00,00,00,00,00,1F,C5,
36342571,00000237,false,Rx,1,8,3D,41,00,00,00,00,00,00,
36342812,00000247,false,Rx,1,8,44,7D,6E,03,00,00,20,00,
36343045,00000717,false,Rx,1,8,0F,00,EB,01,EF,0D,00,00,
36351883,00000217,false,Rx,1,8,02,00,81,FC,9C,02,00,04,
36442092,00000207,false,Rx,1,8,00,00,00,00,C8,00,04,00,
36442331,00000227,false,Rx,1,8,00,00,00,00,00,00,1F,C5,
36442579,00000237,false,Rx,1,8,3D,41,00,00,00,00,00,00,
36442819,00000247,false,Rx,1,8,44,7D,6E,03,00,00,20,00,
36443060,00000717,false,Rx,1,8,10,09,E0,FE,04,90,FF,00,
36451870,00000217,false,Rx,1,8,02,00,81,FC,9C,02,00,04,
36542032,00000207,false,Rx,1,8,00,00,00,00,C8,00,04,00,
36542278,00000227,false,Rx,1,8,00,00,00,00,04,00,1F,C5,
36542527,00000237,false,Rx,1,8,3D,41,00,00,00,00,00,00,
36542767,00000247,false,Rx,1,8,44,7D,6E,03,00,00,20,00,
36543007,00000717,false,Rx,1,8,11,00,00,00,00,00,02,02,
36551832,00000217,false,Rx,1,8,02,00,81,FC,9C,02,00,04,
36642051,00000207,false,Rx,1,8,00,00,C0,FF,C8,00,04,00,
36642298,00000227,false,Rx,1,8,00,00,00,00,02,00,1F,C5,
36642546,00000237,false,Rx,1,8,3D,41,00,00,00,00,00,00,
36642786,00000247,false,Rx,1,8,44,7D,6E,03,00,00,20,00,
36643020,00000717,false,Rx,1,8,12,40,29,00,27,00,16,00,
36651835,00000217,false,Rx,1,8,02,00,81,FC,9C,02,00,04,
36741994,00000207,false,Rx,1,8,00,00,C0,FF,C8,00,04,00,
36742234,00000227,false,Rx,1,8,00,00,00,00,00,00,1F,C5,
36742481,00000237,false,Rx,1,8,3D,41,00,00,00,00,00,00,
36742721,00000247,false,Rx,1,8,44,7D,6E,03,00,00,20,00,
36742970,00000717,false,Rx,1,8,13,00,00,00,00,00,00,00,
36751807,00000217,false,Rx,1,8,02,00,81,FC,9C,02,00,04,
36841971,00000207,false,Rx,1,8,00,00,00,00,C8,00,04,00,
36842218,00000227,false,Rx,1,8,00,00,00,00,01,00,1F,C5,
36842465,00000237,false,Rx,1,8,3D,41,00,00,00,00,00,00,
36842706,00000247,false,Rx,1,8,44,7D,6E,03,00,00,20,00,
36842955,00000717,false,Rx,1,8,14,00,00,00,0C,00,00,00,
36851771,00000217,false,Rx,1,8,02,00,81,FC,9C,02,00,04,
36941984,00000207,false,Rx,1,8,00,00,C0,FF,C8,00,04,00,
36942238,00000227,false,Rx,1,8,00,00,00,00,04,00,1F,C5,
36942485,00000237,false,Rx,1,8,3D,41,00,00,00,00,00,00,
36942719,00000247,false,Rx,1,8,44,7D,6E,03,00,00,20,00,
36951765,00000217,false,Rx,1,8,02,00,81,FC,9C,02,00,04,
37041857,00000367,false,Rx,1,8,00,00,00,00,00,00,00,00,
37042104,00000207,false,Rx,1,8,00,00,00,00,C8,00,04,00,
37042352,00000227,false,Rx,1,8,00,00,00,00,02,00,1F,C5,
37042599,00000237,false,Rx,1,8,3D,41,00,00,00,00,00,00,
37042840,00000247,false,Rx,1,8,44,7D,6E,03,00,00,20,00,
37043080,00000717,false,Rx,1,8,16,00,00,00,00,00,56,46,
37051726,00000217,false,Rx,1,8,02,00,81,FC,9C,02,00,04,
37051973,00000377,false,Rx,1,8,00,00,00,00,00,00,00,00,
37061850,00000347,false,Rx,1,8,00,00,00,00,00,08,00,00,
37071848,00000357,false,Rx,1,8,00,00,00,00,00,00,00,00,
37081843,00000327,false,Rx,1,8,00,00,00,00,00,00,00,00,
37091841,00000337,false,Rx,1,8,00,00,00,00,00,00,00,00,
37141928,00000207,false,Rx,1,8,00,00,C0,FF,C8,00,04,00,
37142174,00000227,false,Rx,1,8,00,00,00,00,02,00,1F,C5,
37142423,00000237,false,Rx,1,8,3D,41,00,00,00,00,00,00,
37142662,00000247,false,Rx,1,8,44,7D,6E,03,00,00,20,00,
37142911,00000537,false,Rx,1,8,11,00,00,00,00,00,00,00,
37143152,00000717,false,Rx,1,8,17,00,00,50,04,00,00,00,
37151722,00000217,false,Rx,1,8,02,00,81,FC,9C,02,00,04,
37241903,00000207,false,Rx,1,8,00,00,C0,FF,C8,00,04,00,
37242150,00000227,false,Rx,1,8,00,00,00,00,04,00,1F,C5,
37242397,00000237,false,Rx,1,8,3D,41,00,00,00,00,00,00,
37242637,00000247,false,Rx,1,8,44,7D,6E,03,00,00,20,00,
37242879,00000717,false,Rx,1,8,18,00,00,00,00,00,00,00,
37251703,00000217,false,Rx,1,8,02,00,81,FC,9C,02,00,04,
37341876,00000207,false,Rx,1,8,00,00,00,00,C8,00,04,00,
37342115,00000227,false,Rx,1,8,00,00,00,00,01,00,1F,C5,
37342362,00000237,false,Rx,1,8,3D,41,00,00,00,00,00,00,
37342602,00000247,false,Rx,1,8,44,7D,6E,03,00,00,20,00,
37342852,00000717,false,Rx,1,8,19,00,00,00,00,00,00,00,
37351660,00000217,false,Rx,1,8,02,00,81,FC,9C,02,00,04,
37441868,00000207,false,Rx,1,8,00,00,C0,FF,C8,00,04,00,
37442114,00000227,false,Rx,1,8,00,00,00,00,06,00,1F,C5,
37442362,00000237,false,Rx,1,8,3D,41,00,00,00,00,00,00,
37442603,00000247,false,Rx,1,8,44,7D,6E,03,00,00,20,00,
37442851,00000717,false,Rx,1,8,01,00,00,00,00,00,00,00,
37451665,00000217,false,Rx,1,8,02,00,81,FC,9C,02,00,04,
37541838,00000207,false,Rx,1,8,00,00,C0,FF,C8,00,04,00,
37542084,00000227,false,Rx,1,8,00,00,00,00,0B,00,1F,C5,
37542325,00000237,false,Rx,1,8,3D,41,00,00,00,00,00,00,
37542565,00000247,false,Rx,1,8,44,7D,6E,03,00,00,20,00,
37542813,00000717,false,Rx,1,8,02,00,00,00,00,00,00,00,
37551636,00000217,false,Rx,1,8,02,00,81,FC,9C,02,00,04,
37641814,00000207,false,Rx,1,8,00,00,00,00,C8,00,04,00,
37642061,00000227,false,Rx,1,8,00,00,00,00,00,00,1F,C5,
37642309,00000237,false,Rx,1,8,3D,41,00,00,00,00,00,00,
