Time Stamp,ID,Extended,Dir,Bus,LEN,D1,D2,D3,D4,D5,D6,D7,D8
74111148,0000042C,false,Rx,1,8,42,60,00,00,64,00,00,00,
74111391,0000043C,false,Rx,1,8,42,60,00,00,64,00,00,00,
74111636,0000044C,false,Rx,1,8,42,60,00,00,64,00,00,00,
74113972,0000045C,false,Rx,1,8,0E,8C,15,0E,00,00,14,8C,
74211149,0000042C,false,Rx,1,8,42,60,00,00,64,00,00,00,
74211392,0000043C,false,Rx,1,8,42,60,00,00,64,00,00,00,
74211637,0000044C,false,Rx,1,8,42,60,00,00,64,00,00,00,
74213976,0000045C,false,Rx,1,8,10,8C,15,0E,00,00,08,8C,
74311373,0000042C,false,Rx,1,8,42,60,00,00,64,00,00,00,
74311616,0000043C,false,Rx,1,8,42,60,00,00,64,00,00,00,
74313965,0000044C,false,Rx,1,8,42,60,00,00,64,00,00,00,
74314200,0000045C,false,Rx,1,8,11,8C,15,0E,00,00,11,8C,
74411147,0000042C,false,Rx,1,8,42,60,00,00,64,00,00,00,
74411391,0000043C,false,Rx,1,8,42,60,00,00,64,00,00,00,
74411634,0000044C,false,Rx,1,8,42,60,00,00,64,00,00,00,
74413968,0000045C,false,Rx,1,8,11,8C,15,0E,00,00,11,8C,
74511163,0000042C,false,Rx,1,8,42,60,00,00,64,00,00,00,
74511399,0000043C,false,Rx,1,8,42,60,00,00,64,00,00,00,
74511650,0000044C,false,Rx,1,8,42,60,00,00,64,00,00,00,
74513987,0000045C,false,Rx,1,8,14,8C,15,0E,00,00,1F,8C,
74611220,0000042C,false,Rx,1,8,42,60,00,00,64,00,00,00,
74611592,0000043C,false,Rx,1,8,42,60,00,00,64,00,00,00,
74614046,0000044C,false,Rx,1,8,42,60,00,00,64,00,00,00,
74614282,0000045C,false,Rx,1,8,0F,8C,15,0E,00,00,11,8C,
74711171,0000042C,false,Rx,1,8,42,60,00,00,64,00,00,00,
74711415,0000043C,false,Rx,1,8,42,60,00,00,64,00,00,00,
74711659,0000044C,false,Rx,1,8,42,60,00,00,64,00,00,00,
74713998,0000045C,false,Rx,1,8,11,8C,15,0E,00,00,11,8C,
74811164,0000042C,false,Rx,1,8,42,60,00,00,64,00,00,00,
74811410,0000043C,false,Rx,1,8,42,60,00,00,64,00,00,00,
74814007,0000044C,false,Rx,1,8,42,60,00,00,64,00,00,00,
74814243,0000045C,false,Rx,1,8,0F,8C,15,0E,00,00,11,8C,
74910951,0000042C,false,Rx,1,8,42,60,00,00,64,00,00,00,
74911196,0000043C,false,Rx,1,8,42,60,00,00,64,00,00,00,
74911439,0000044C,false,Rx,1,8,42,60,00,00,64,00,00,00,
74913781,0000045C,false,Rx,1,8,13,8C,15,0E,00,00,14,8C,
75010924,0000042C,false,Rx,1,8,42,60,00,00,64,00,00,00,
75011167,0000043C,false,Rx,1,8,42,60,00,00,64,00,00,00,
75011411,0000044C,false,Rx,1,8,42,60,00,00,64,00,00,00,
75013746,0000045C,false,Rx,1,8,11,8C,15,0E,00,00,06,8C,
75110931,0000042C,false,Rx,1,8,42,60,00,00,64,00,00,00,
75111174,0000043C,false,Rx,1,8,42,60,00,00,64,00,00,00,
75111418,0000044C,false,Rx,1,8,42,60,00,00,64,00,00,00,
75113758,0000045C,false,Rx,1,8,12,8C,15,0E,00,00,11,8C,
75210953,0000042C,false,Rx,1,8,42,60,00,00,64,00,00,00,
75211196,0000043C,false,Rx,1,8,42,60,00,00,64,00,00,00,
75211441,0000044C,false,Rx,1,8,42,60,00,00,64,00,00,00,
75213780,0000045C,false,Rx,1,8,10,8C,15,0E,00,00,13,8C,
75311338,0000042C,false,Rx,1,8,42,60,00,00,64,00,00,00,
75311574,0000043C,false,Rx,1,8,42,60,00,00,64,00,00,00,
75313794,0000044C,false,Rx,1,8,42,60,00,00,64,00,00,00,
75314030,0000045C,false,Rx,1,8,0E,8C,15,0E,00,00,FA,8B,
75410927,0000042C,false,Rx,1,8,42,60,00,00,64,00,00,00,
75411172,0000043C,false,Rx,1,8,42,60,00,00,64,00,00,00,
75411415,0000044C,false,Rx,1,8,42,60,00,00,64,00,00,00,
75413753,0000045C,false,Rx,1,8,14,8C,15,0E,00,00,14,8C,
75510948,0000042C,false,Rx,1,8,42,60,00,00,64,00,00,00,
75511184,0000043C,false,Rx,1,8,42,60,00,00,64,00,00,00,
75511435,0000044C,false,Rx,1,8,42,60,00,00,64,00,00,00,
75513767,0000045C,false,Rx,1,8,13,8C,15,0E,00,00,21,8C,
75610938,0000042C,false,Rx,1,8,42,60,00,00,64,00,00,00,
75611181,0000043C,false,Rx,1,8,42,60,00,00,64,00,00,00,
75611425,0000044C,false,Rx,1,8,42,60,00,00,64,00,00,00,
75613763,0000045C,false,Rx,1,8,10,8C,15,0E,00,00,13,8C,
75710943,0000042C,false,Rx,1,8,42,60,00,00,64,00,00,00,
75711179,0000043C,false,Rx,1,8,42,60,00,00,64,00,00,00,
75711423,0000044C,false,Rx,1,8,42,60,00,00,64,00,00,00,
75713763,0000045C,false,Rx,1,8,0E,8C,15,0E,00,00,13,8C,
75810878,0000042C,false,Rx,1,8,42,60,00,00,64,00,00,00,
75811121,0000043C,false,Rx,1,8,42,60,00,00,64,00,00,00,
75811366,0000044C,false,Rx,1,8,42,60,00,00,64,00,00,00,
75813956,0000045C,false,Rx,1,8,11,8C,15,0E,00,00,16,8C,
75910878,0000042C,false,Rx,1,8,42,60,00,00,64,00,00,00,
75911122,0000043C,false,Rx,1,8,42,60,00,00,64,00,00,00,
75911366,0000044C,false,Rx,1,8,42,60,00,00,64,00,00,00,
75913709,0000045C,false,Rx,1,8,0F,8C,15,0E,00,00,0A,8C,
76010880,0000042C,false,Rx,1,8,42,60,00,00,64,00,00,00,
76011124,0000043C,false,Rx,1,8,42,60,00,00,64,00,00,00,
76011367,0000044C,false,Rx,1,8,42,60,00,00,64,00,00,00,
76013712,0000045C,false,Rx,1,8,10,8C,15,0E,00,00,14,8C,
76110896,0000042C,false,Rx,1,8,42,60,00,00,64,00,00,00,
76111140,0000043C,false,Rx,1,8,42,60,00,00,64,00,00,00,
76111383,0000044C,false,Rx,1,8,42,60,00,00,64,00,00,00,
76113723,0000045C,false,Rx,1,8,11,8C,15,0E,00,00,14,8C,
76210895,0000042C,false,Rx,1,8,42,60,00,00,64,00,00,00,
76211138,0000043C,false,Rx,1,8,42,60,00,00,64,00,00,00,
76211383,0000044C,false,Rx,1,8,42,60,00,00,64,00,00,00,
76213717,0000045C,false,Rx,1,8,13,8C,15,0E,00,00,16,8C,
76311189,0000042C,false,Rx,1,8,42,60,00,00,64,00,00,00,
76311425,0000043C,false,Rx,1,8,42,60,00,00,64,00,00,00,
76313773,0000044C,false,Rx,1,8,42,60,00,00,64,00,00,00,
76314009,0000045C,false,Rx,1,8,10,8C,15,0E,00,00,05,8C,
76410893,0000042C,false,Rx,1,8,42,60,00,00,64,00,00,00,
76411137,0000043C,false,Rx,1,8,42,60,00,00,64,00,00,00,
76411381,0000044C,false,Rx,1,8,42,60,00,00,64,00,00,00,
76413715,0000045C,false,Rx,1,8,14,8C,15,0E,00,00,2D,8C,
76510899,0000042C,false,Rx,1,8,42,60,00,00,64,00,00,00,
76511143,0000043C,false,Rx,1,8,42,60,00,00,64,00,00,00,
76511386,0000044C,false,Rx,1,8,42,60,00,00,64,00,00,00,
76513595,0000045C,false,Rx,1,8,10,8C,15,0E,00,00,06,8C,
76610876,0000042C,false,Rx,1,8,42,60,00,00,64,00,00,00,
76611120,0000043C,false,Rx,1,8,42,60,00,00,64,00,00,00,
76611363,0000044C,false,Rx,1,8,42,60,00,00,64,00,00,00,
76613696,0000045C,false,Rx,1,8,13,8C,15,0E,00,00,14,8C,
76710889,0000042C,false,Rx,1,8,42,60,00,00,64,00,00,00,
76711132,0000043C,false,Rx,1,8,42,60,00,00,64,00,00,00,
76711369,0000044C,false,Rx,1,8,42,60,00,00,64,00,00,00,
76713716,0000045C,false,Rx,1,8,11,8C,15,0E,00,00,14,8C,
76810900,0000042C,false,Rx,1,8,42,60,00,00,64,00,00,00,
76811137,0000043C,false,Rx,1,8,42,60,00,00,64,00,00,00,
76811382,0000044C,false,Rx,1,8,42,60,00,00,64,00,00,00,
76813978,0000045C,false,Rx,1,8,13,8C,15,0E,00,00,13,8C,
76910884,0000042C,false,Rx,1,8,42,60,00,00,64,00,00,00,
76911129,0000043C,false,Rx,1,8,42,60,00,00,64,00,00,00,
76911372,0000044C,false,Rx,1,8,42,60,00,00,64,00,00,00,
76913712,0000045C,false,Rx,1,8,15,8C,15,0E,00,00,2D,8C,
77010886,0000042C,false,Rx,1,8,42,60,00,00,64,00,00,00,
77011121,0000043C,false,Rx,1,8,42,60,00,00,64,00,00,00,
77011372,0000044C,false,Rx,1,8,42,60,00,00,64,00,00,00,
77013712,0000045C,false,Rx,1,8,0F,8C,15,0E,00,00,13,8C,
77110885,0000042C,false,Rx,1,8,42,60,00,00,64,00,00,00,
77111128,0000043C,false,Rx,1,8,42,60,00,00,64,00,00,00,
77111371,0000044C,false,Rx,1,8,42,60,00,00,64,00,00,00,
77113706,0000045C,false,Rx,1,8,12,8C,15,0E,00,00,13,8C,
77210887,0000042C,false,Rx,1,8,42,60,00,00,64,00,00,00,
77211130,0000043C,false,Rx,1,8,42,60,00,00,64,00,00,00,
77211375,0000044C,false,Rx,1,8,42,60,00,00,64,00,00,00,
77213709,0000045C,false,Rx,1,8,16,8C,15,0E,00,00,14,8C,
77310860,0000042C,false,Rx,1,8,42,60,00,00,64,00,00,00,
77311097,0000043C,false,Rx,1,8,42,60,00,00,64,00,00,00,
77311341,0000044C,false,Rx,1,8,42,60,00,00,64,00,00,00,
77313684,0000045C,false,Rx,1,8,0E,8C,15,0E,00,00,14,8C,
77410855,0000042C,false,Rx,1,8,42,60,00,00,64,00,00,00,
77411100,0000043C,false,Rx,1,8,42,60,00,00,64,00,00,00,
77411343,0000044C,false,Rx,1,8,42,60,00,00,64,00,00,00,
77413675,0000045C,false,Rx,1,8,12,8C,15,0E,00,00,21,8C,
77510978,0000042C,false,Rx,1,8,42,60,00,00,64,00,00,00,
77511222,0000043C,false,Rx,1,8,42,60,00,00,64,00,00,00,
77511465,0000044C,false,Rx,1,8,42,60,00,00,64,00,00,00,
77513804,0000045C,false,Rx,1,8,10,8C,15,0E,00,00,06,8C,
77611049,0000042C,false,Rx,1,8,42,60,00,00,64,00,00,00,
77611293,0000043C,false,Rx,1,8,42,60,00,00,64,00,00,00,
77611537,0000044C,false,Rx,1,8,42,60,00,00,64,00,00,00,
77613875,0000045C,false,Rx,1,8,15,8C,15,0E,00,00,15,8C,
77710849,0000042C,false,Rx,1,8,42,60,00,00,64,00,00,00,
77711093,0000043C,false,Rx,1,8,42,60,00,00,64,00,00,00,
77711337,0000044C,false,Rx,1,8,42,60,00,00,64,00,00,00,
77713677,0000045C,false,Rx,1,8,11,8C,15,0E,00,00,13,8C,
77810852,0000042C,false,Rx,1,8,42,60,00,00,64,00,00,00,
77811089,0000043C,false,Rx,1,8,42,60,00,00,64,00,00,00,
77811334,0000044C,false,Rx,1,8,42,60,00,00,64,00,00,00,
77813930,0000045C,false,Rx,1,8,11,8C,15,0E,00,00,1E,8C,
77910881,0000042C,false,Rx,1,8,42,60,00,00,64,00,00,00,
77911125,0000043C,false,Rx,1,8,42,60,00,00,64,00,00,00,
77911368,0000044C,false,Rx,1,8,42,60,00,00,64,00,00,00,
77913706,0000045C,false,Rx,1,8,12,8C,15,0E,00,00,1E,8C,
78010848,0000042C,false,Rx,1,8,42,60,00,00,64,00,00,00,
78011091,0000043C,false,Rx,1,8,42,60,00,00,64,00,00,00,
78011334,0000044C,false,Rx,1,8,42,60,00,00,64,00,00,00,
78013669,0000045C,false,Rx,1,8,0F,8C,15,0E,00,00,13,8C,
78110844,0000042C,false,Rx,1,8,42,60,00,00,64,00,00,00,
78111088,0000043C,false,Rx,1,8,42,60,00,00,64,00,00,00,
78111332,0000044C,false,Rx,1,8,42,60,00,00,64,00,00,00,
78113670,0000045C,false,Rx,1,8,0E,8C,15,0E,00,00,14,8C,
78210839,0000042C,false,Rx,1,8,42,60,00,00,64,00,00,00,
78211083,0000043C,false,Rx,1,8,42,60,00,00,64,00,00,00,
78211327,0000044C,false,Rx,1,8,42,60,00,00,64,00,00,00,
78213664,0000045C,false,Rx,1,8,10,8C,15,0E,00,00,13,8C,
78310839,0000042C,false,Rx,1,8,42,60,00,00,64,00,00,00,
78311084,0000043C,false,Rx,1,8,42,60,00,00,64,00,00,00,
78311327,0000044C,false,Rx,1,8,42,60,00,00,64,00,00,00,
78313674,0000045C,false,Rx,1,8,0F,8C,15,0E,00,00,1E,8C,
78411018,0000042C,false,Rx,1,8,42,60,00,00,64,00,00,00,
78411261,0000043C,false,Rx,1,8,42,60,00,00,64,00,00,00,
78411504,0000044C,false,Rx,1,8,42,60,00,00,64,00,00,00,
78413842,0000045C,false,Rx,1,8,12,8C,15,0E,00,00,13,8C,
78510836,0000042C,false,Rx,1,8,42,60,00,00,64,00,00,00,
78511079,0000043C,false,Rx,1,8,42,60,00,00,64,00,00,00,
78511323,0000044C,false,Rx,1,8,42,60,00,00,64,00,00,00,
78513884,0000045C,false,Rx,1,8,11,8C,15,0E,00,00,1E,8C,
78610836,0000042C,false,Rx,1,8,42,60,00,00,64,00,00,00,
78611079,0000043C,false,Rx,1,8,42,60,00,00,64,00,00,00,
78611324,0000044C,false,Rx,1,8,42,60,00,00,64,00,00,00,
78613882,0000045C,false,Rx,1,8,10,8C,15,0E,00,00,1E,8C,
78710831,0000042C,false,Rx,1,8,42,60,00,00,64,00,00,00,
78711074,0000043C,false,Rx,1,8,42,60,00,00,64,00,00,00,
78711319,0000044C,false,Rx,1,8,42,60,00,00,64,00,00,00,
78713878,0000045C,false,Rx,1,8,14,8C,15,0E,00,00,11,8C,
78810929,0000042C,false,Rx,1,8,42,60,00,00,64,00,00,00,
78811174,0000043C,false,Rx,1,8,42,60,00,00,64,00,00,00,
78811417,0000044C,false,Rx,1,8,42,60,00,00,64,00,00,00,
78814229,0000045C,false,Rx,1,8,12,8C,15,0E,00,00,F8,8B,
78910948,0000042C,false,Rx,1,8,42,60,00,00,64,00,00,00,
78911191,0000043C,false,Rx,1,8,42,60,00,00,64,00,00,00,
78911435,0000044C,false,Rx,1,8,42,60,00,00,64,00,00,00,
78913774,0000045C,false,Rx,1,8,0F,8C,15,0E,00,00,06,8C,
79010953,0000042C,false,Rx,1,8,42,60,00,00,64,00,00,00,
79011197,0000043C,false,Rx,1,8,42,60,00,00,64,00,00,00,
79011441,0000044C,false,Rx,1,8,42,60,00,00,64,00,00,00,
79013774,0000045C,false,Rx,1,8,14,8C,15,0E,00,00,13,8C,
79110989,0000042C,false,Rx,1,8,42,60,00,00,64,00,00,00,
79111233,0000043C,false,Rx,1,8,42,60,00,00,64,00,00,00,
79111477,0000044C,false,Rx,1,8,42,60,00,00,64,00,00,00,
79113823,0000045C,false,Rx,1,8,11,8C,15,0E,00,00,13,8C,
79210999,0000042C,false,Rx,1,8,42,60,00,00,64,00,00,00,
79211243,0000043C,false,Rx,1,8,42,60,00,00,64,00,00,00,
79211487,0000044C,false,Rx,1,8,42,60,00,00,64,00,00,00,
79213827,0000045C,false,Rx,1,8,10,8C,15,0E,00,00,14,8C,
79311000,0000042C,false,Rx,1,8,42,60,00,00,64,00,00,00,
79311479,0000043C,false,Rx,1,8,42,60,00,00,64,00,00,00,
79313826,0000044C,false,Rx,1,8,42,60,00,00,64,00,00,00,
79314064,0000045C,false,Rx,1,8,0F,8C,15,0E,00,00,13,8C,
79411099,0000042C,false,Rx,1,8,42,60,00,00,64,00,00,00,
79411342,0000043C,false,Rx,1,8,42,60,00,00,64,00,00,00,
79413694,0000044C,false,Rx,1,8,42,60,00,00,64,00,00,00,
79413931,0000045C,false,Rx,1,8,0C,8C,15,0E,00,00,06,8C,
79510819,0000042C,false,Rx,1,8,42,60,00,00,64,00,00,00,
79511062,0000043C,false,Rx,1,8,42,60,00,00,64,00,00,00,
79511306,0000044C,false,Rx,1,8,42,60,00,00,64,00,00,00,
79513647,0000045C,false,Rx,1,8,0D,8C,15,0E,00,00,13,8C,
79610819,0000042C,false,Rx,1,8,42,60,00,00,64,00,00,00,
79611063,0000043C,false,Rx,1,8,42,60,00,00,64,00,00,00,
79611308,0000044C,false,Rx,1,8,42,60,00,00,64,00,00,00,
79613639,0000045C,false,Rx,1,8,0F,8C,15,0E,00,00,14,8C,
79711249,0000042C,false,Rx,1,8,42,60,00,00,64,00,00,00,
79713839,0000043C,false,Rx,1,8,42,60,00,00,64,00,00,00,
79714082,0000044C,false,Rx,1,8,42,60,00,00,64,00,00,00,
79714320,0000045C,false,Rx,1,8,15,8C,15,0E,00,00,20,8C,
79811044,0000042C,false,Rx,1,8,42,60,00,00,64,00,00,00,
79813882,0000043C,false,Rx,1,8,42,60,00,00,64,00,00,00,
79814127,0000044C,false,Rx,1,8,42,60,00,00,64,00,00,00,
79814364,0000045C,false,Rx,1,8,0F,8C,15,0E,00,00,08,8C,
79911014,0000042C,false,Rx,1,8,42,60,00,00,64,00,00,00,
79911493,0000043C,false,Rx,1,8,42,60,00,00,64,00,00,00,
79913841,0000044C,false,Rx,1,8,42,60,00,00,64,00,00,00,
79914077,0000045C,false,Rx,1,8,12,8C,15,0E,00,00,21,8C,
80011015,0000042C,false,Rx,1,8,42,60,00,00,64,00,00,00,
80011496,0000043C,false,Rx,1,8,42,60,00,00,64,00,00,00,
80013842,0000044C,false,Rx,1,8,42,60,00,00,64,00,00,00,
80014078,0000045C,false,Rx,1,8,12,8C,15,0E,00,00,0A,8C,
80110995,0000042C,false,Rx,1,8,42,60,00,00,64,00,00,00,
80111483,0000043C,false,Rx,1,8,42,60,00,00,64,00,00,00,
80113823,0000044C,false,Rx,1,8,42,60,00,00,64,00,00,00,
80114059,0000045C,false,Rx,1,8,11,8C,15,0E,00,00,08,8C,
80211010,0000042C,false,Rx,1,8,42,60,00,00,64,00,00,00,
80211490,0000043C,false,Rx,1,8,42,60,00,00,64,00,00,00,
80214088,0000044C,false,Rx,1,8,42,60,00,00,64,00,00,00,
80214324,0000045C,false,Rx,1,8,10,8C,15,0E,00,00,16,8C,
80311215,0000042C,false,Rx,1,8,42,60,00,00,64,00,00,00,
80313800,0000043C,false,Rx,1,8,42,60,00,00,64,00,00,00,
80314045,0000044C,false,Rx,1,8,42,60,00,00,64,00,00,00,
80314280,0000045C,false,Rx,1,8,10,8C,15,0E,00,00,21,8C,
80410804,0000042C,false,Rx,1,8,42,60,00,00,64,00,00,00,
80411048,0000043C,false,Rx,1,8,42,60,00,00,64,00,00,00,
80411291,0000044C,false,Rx,1,8,42,60,00,00,64,00,00,00,
80413624,0000045C,false,Rx,1,8,0E,8C,15,0E,00,00,0B,8C,
80510804,0000042C,false,Rx,1,8,42,60,00,00,64,00,00,00,
80511047,0000043C,false,Rx,1,8,42,60,00,00,64,00,00,00,
80511293,0000044C,false,Rx,1,8,42,60,00,00,64,00,00,00,
80513632,0000045C,false,Rx,1,8,0D,8C,15,0E,00,00,14,8C,
80610944,0000042C,false,Rx,1,8,42,60,00,00,64,00,00,00,
80611432,0000043C,false,Rx,1,8,42,60,00,00,64,00,00,00,
80613771,0000044C,false,Rx,1,8,42,60,00,00,64,00,00,00,
80614251,0000045C,false,Rx,1,8,0E,8C,15,0E,00,00,23,8C,
80711202,0000042C,false,Rx,1,8,42,60,00,00,64,00,00,00,
80713786,0000043C,false,Rx,1,8,42,60,00,00,64,00,00,00,
80714030,0000044C,false,Rx,1,8,42,60,00,00,64,00,00,00,
80714273,0000045C,false,Rx,1,8,0E,8C,15,0E,00,00,08,8C,
80810979,0000042C,false,Rx,1,8,42,60,00,00,64,00,00,00,
80813820,0000043C,false,Rx,1,8,42,60,00,00,64,00,00,00,
80814057,0000044C,false,Rx,1,8,42,60,00,00,64,00,00,00,
80814300,0000045C,false,Rx,1,8,0E,8C,15,0E,00,00,06,8C,
80910971,0000042C,false,Rx,1,8,42,60,00,00,64,00,00,00,
80911452,0000043C,false,Rx,1,8,42,60,00,00,64,00,00,00,
80913798,0000044C,false,Rx,1,8,42,60,00,00,64,00,00,00,
80914034,0000045C,false,Rx,1,8,12,8C,15,0E,00,00,16,8C,
81010992,0000042C,false,Rx,1,8,42,60,00,00,64,00,00,00,
81011481,0000043C,false,Rx,1,8,42,60,00,00,64,00,00,00,
81013820,0000044C,false,Rx,1,8,42,60,00,00,64,00,00,00,
81014056,0000045C,false,Rx,1,8,11,8C,15,0E,00,00,06,8C,
81110998,0000042C,false,Rx,1,8,42,60,00,00,64,00,00,00,
81111486,0000043C,false,Rx,1,8,42,60,00,00,64,00,00,00,
81113831,0000044C,false,Rx,1,8,42,60,00,00,64,00,00,00,
81114067,0000045C,false,Rx,1,8,12,8C,15,0E,00,00,16,8C,
81211205,0000042C,false,Rx,1,8,42,60,00,00,64,00,00,00,
81211449,0000043C,false,Rx,1,8,42,60,00,00,64,00,00,00,
81214037,0000044C,false,Rx,1,8,42,60,00,00,64,00,00,00,
81214275,0000045C,false,Rx,1,8,13,8C,15,0E,00,00,21,8C,
81311217,0000042C,false,Rx,1,8,42,60,00,00,64,00,00,00,
81313807,0000043C,false,Rx,1,8,42,60,00,00,64,00,00,00,
81314051,0000044C,false,Rx,1,8,42,60,00,00,64,00,00,00,
81314280,0000045C,false,Rx,1,8,10,8C,15,0E,00,00,0A,8C,
81411235,0000042C,false,Rx,1,8,42,60,00,00,64,00,00,00,
81411480,0000043C,false,Rx,1,8,42,60,00,00,64,00,00,00,
81413818,0000044C,false,Rx,1,8,42,60,00,00,64,00,00,00,
81414306,0000045C,false,Rx,1,8,14,8C,15,0E,00,00,0A,8C,
81511229,0000042C,false,Rx,1,8,42,60,00,00,64,00,00,00,
81511474,0000043C,false,Rx,1,8,42,60,00,00,64,00,00,00,
81513820,0000044C,false,Rx,1,8,42,60,00,00,64,00,00,00,
81514055,0000045C,false,Rx,1,8,14,8C,15,0E,00,00,0A,8C,
81611293,0000042C,false,Rx,1,8,42,60,00,00,64,00,00,00,
81611536,0000043C,false,Rx,1,8,42,60,00,00,64,00,00,00,
81613875,0000044C,false,Rx,1,8,42,60,00,00,64,00,00,00,
81614349,0000045C,false,Rx,1,8,13,8C,15,0E,00,00,16,8C,
81713653,0000042C,false,Rx,1,8,42,60,00,00,64,00,00,00,
81713898,0000043C,false,Rx,1,8,42,60,00,00,64,00,00,00,
81714142,0000044C,false,Rx,1,8,42,60,00,00,64,00,00,00,
81714379,0000045C,false,Rx,1,8,14,8C,15,0E,00,00,0A,8C,
81811308,0000042C,false,Rx,1,8,42,60,00,00,64,00,00,00,
81813907,0000043C,false,Rx,1,8,42,60,00,00,64,00,00,00,
81814150,0000044C,false,Rx,1,8,42,60,00,00,64,00,00,00,
81814387,0000045C,false,Rx,1,8,13,8C,15,0E,00,00,18,8C,
81911273,0000042C,false,Rx,1,8,42,60,00,00,64,00,00,00,
81911518,0000043C,false,Rx,1,8,42,60,00,00,64,00,00,00,
81913866,0000044C,false,Rx,1,8,42,60,00,00,64,00,00,00,
81914102,0000045C,false,Rx,1,8,14,8C,15,0E,00,00,21,8C,
82011276,0000042C,false,Rx,1,8,42,60,00,00,64,00,00,00,
82011519,0000043C,false,Rx,1,8,42,60,00,00,64,00,00,00,
82013859,0000044C,false,Rx,1,8,42,60,00,00,64,00,00,00,
82014095,0000045C,false,Rx,1,8,15,8C,15,0E,00,00,14,8C,
82110808,0000042C,false,Rx,1,8,42,60,00,00,64,00,00,00,
82113650,0000043C,false,Rx,1,8,42,60,00,00,64,00,00,00,
82113895,0000044C,false,Rx,1,8,42,60,00,00,64,00,00,00,
82114131,0000045C,false,Rx,1,8,13,8C,15,0E,00,00,11,8C,
82210812,0000042C,false,Rx,1,8,42,60,00,00,64,00,00,00,
82213904,0000043C,false,Rx,1,8,42,60,00,00,64,00,00,00,
82214149,0000044C,false,Rx,1,8,42,60,00,00,64,00,00,00,
82214385,0000045C,false,Rx,1,8,12,8C,15,0E,00,00,06,8C,
82310787,0000042C,false,Rx,1,8,42,60,00,00,64,00,00,00,
82311031,0000043C,false,Rx,1,8,42,60,00,00,64,00,00,00,
82313864,0000044C,false,Rx,1,8,42,60,00,00,64,00,00,00,
82314101,0000045C,false,Rx,1,8,12,8C,15,0E,00,00,16,8C,
82410774,0000042C,false,Rx,1,8,42,60,00,00,64,00,00,00,
82411018,0000043C,false,Rx,1,8,42,60,00,00,64,00,00,00,
82414097,0000044C,false,Rx,1,8,42,60,00,00,64,00,00,00,
82414333,0000045C,false,Rx,1,8,14,8C,15,0E,00,00,21,8C,
82510803,0000042C,false,Rx,1,8,42,60,00,00,64,00,00,00,
82511047,0000043C,false,Rx,1,8,42,60,00,00,64,00,00,00,
82513889,0000044C,false,Rx,1,8,42,60,00,00,64,00,00,00,
82514125,0000045C,false,Rx,1,8,14,8C,15,0E,00,00,08,8C,
82610769,0000042C,false,Rx,1,8,42,60,00,00,64,00,00,00,
82611012,0000043C,false,Rx,1,8,42,60,00,00,64,00,00,00,
82611254,0000044C,false,Rx,1,8,42,60,00,00,64,00,00,00,
82614086,0000045C,false,Rx,1,8,10,8C,15,0E,00,00,FC,8B,
82710769,0000042C,false,Rx,1,8,42,60,00,00,64,00,00,00,
82711013,0000043C,false,Rx,1,8,42,60,00,00,64,00,00,00,
82711257,0000044C,false,Rx,1,8,42,60,00,00,64,00,00,00,
82714319,0000045C,false,Rx,1,8,10,8C,15,0E,00,00,FF,8B,
82810767,0000042C,false,Rx,1,8,42,60,00,00,64,00,00,00,
82811010,0000043C,false,Rx,1,8,42,60,00,00,64,00,00,00,
82811251,0000044C,false,Rx,1,8,42,60,00,00,64,00,00,00,
82814336,0000045C,false,Rx,1,8,1A,8C,15,0E,00,00,23,8C,
82910768,0000042C,false,Rx,1,8,42,60,00,00,64,00,00,00,
82911011,0000043C,false,Rx,1,8,42,60,00,00,64,00,00,00,
82911254,0000044C,false,Rx,1,8,42,60,00,00,64,00,00,00,
82914080,0000045C,false,Rx,1,8,15,8C,15,0E,00,00,14,8C,
83010761,0000042C,false,Rx,1,8,42,60,00,00,64,00,00,00,
83011004,0000043C,false,Rx,1,8,42,60,00,00,64,00,00,00,
83011249,0000044C,false,Rx,1,8,42,60,00,00,64,00,00,00,
83014081,0000045C,false,Rx,1,8,13,8C,15,0E,00,00,06,8C,
83110767,0000042C,false,Rx,1,8,42,60,00,00,64,00,00,00,
83111004,0000043C,false,Rx,1,8,42,60,00,00,64,00,00,00,
83111247,0000044C,false,Rx,1,8,42,60,00,00,64,00,00,00,
83114084,0000045C,false,Rx,1,8,18,8C,15,0E,00,00,1F,8C,
83210762,0000042C,false,Rx,1,8,42,60,00,00,64,00,00,00,
83211007,0000043C,false,Rx,1,8,42,60,00,00,64,00,00,00,
83211250,0000044C,false,Rx,1,8,42,60,00,00,64,00,00,00,
83214330,0000045C,false,Rx,1,8,16,8C,15,0E,00,00,14,8C,
83310767,0000042C,false,Rx,1,8,42,60,00,00,64,00,00,00,
83311002,0000043C,false,Rx,1,8,42,60,00,00,64,00,00,00,
83311253,0000044C,false,Rx,1,8,42,60,00,00,64,00,00,00,
83314073,0000045C,false,Rx,1,8,14,8C,15,0E,00,00,21,8C,
83410758,0000042C,false,Rx,1,8,42,60,00,00,64,00,00,00,
83411001,0000043C,false,Rx,1,8,42,60,00,00,64,00,00,00,
83411244,0000044C,false,Rx,1,8,42,60,00,00,64,00,00,00,
83414327,0000045C,false,Rx,1,8,18,8C,15,0E,00,00,08,8C,
83510753,0000042C,false,Rx,1,8,42,60,00,00,64,00,00,00,
83510997,0000043C,false,Rx,1,8,42,60,00,00,64,00,00,00,
83511241,0000044C,false,Rx,1,8,42,60,00,00,64,00,00,00,
83514065,0000045C,false,Rx,1,8,14,8C,15,0E,00,00,21,8C,
83610758,0000042C,false,Rx,1,8,42,60,00,00,64,00,00,00,
83610995,0000043C,false,Rx,1,8,42,60,00,00,64,00,00,00,
83611246,0000044C,false,Rx,1,8,42,60,00,00,64,00,00,00,
83614074,0000045C,false,Rx,1,8,19,8C,15,0E,00,00,1F,8C,
83710755,0000042C,false,Rx,1,8,42,60,00,00,64,00,00,00,
83710999,0000043C,false,Rx,1,8,42,60,00,00,64,00,00,00,
83711243,0000044C,false,Rx,1,8,42,60,00,00,64,00,00,00,
83714318,0000045C,false,Rx,1,8,13,8C,15,0E,00,00,1F,8C,
83810749,0000042C,false,Rx,1,8,42,60,00,00,64,00,00,00,
83810992,0000043C,false,Rx,1,8,42,60,00,00,64,00,00,00,
83811236,0000044C,false,Rx,1,8,42,60,00,00,64,00,00,00,
83814325,0000045C,false,Rx,1,8,13,8C,15,0E,00,00,13,8C,
83910762,0000042C,false,Rx,1,8,42,60,00,00,64,00,00,00,
83910998,0000043C,false,Rx,1,8,42,60,00,00,64,00,00,00,
83911249,0000044C,false,Rx,1,8,42,60,00,00,64,00,00,00,
83914075,0000045C,false,Rx,1,8,17,8C,15,0E,00,00,21,8C,
84010753,0000042C,false,Rx,1,8,42,60,00,00,64,00,00,00,
84010996,0000043C,false,Rx,1,8,42,60,00,00,64,00,00,00,
84011241,0000044C,false,Rx,1,8,42,60,00,00,64,00,00,00,
84014067,0000045C,false,Rx,1,8,18,8C,15,0E,00,00,1F,8C,
84110746,0000042C,false,Rx,1,8,42,60,00,00,64,00,00,00,
84110991,0000043C,false,Rx,1,8,42,60,00,00,64,00,00,00,
84111232,0000044C,false,Rx,1,8,42,60,00,00,64,00,00,00,
84114068,0000045C,false,Rx,1,8,16,8C,15,0E,00,00,08,8C,
84210744,0000042C,false,Rx,1,8,42,60,00,00,64,00,00,00,
84210988,0000043C,false,Rx,1,8,42,60,00,00,64,00,00,00,
84211232,0000044C,false,Rx,1,8,42,60,00,00,64,00,00,00,
84214312,0000045C,false,Rx,1,8,19,8C,15,0E,00,00,21,8C,
84310748,0000042C,false,Rx,1,8,42,60,00,00,64,00,00,00,
84310991,0000043C,false,Rx,1,8,42,60,00,00,64,00,00,00,
84311235,0000044C,false,Rx,1,8,42,60,00,00,64,00,00,00,
84314073,0000045C,false,Rx,1,8,16,8C,15,0E,00,00,14,8C,
84410748,0000042C,false,Rx,1,8,42,60,00,00,64,00,00,00,
84410991,0000043C,false,Rx,1,8,42,60,00,00,64,00,00,00,
84411236,0000044C,false,Rx,1,8,42,60,00,00,64,00,00,00,
84414311,0000045C,false,Rx,1,8,16,8C,15,0E,00,00,08,8C,
84510743,0000042C,false,Rx,1,8,42,60,00,00,64,00,00,00,
84510986,0000043C,false,Rx,1,8,42,60,00,00,64,00,00,00,
84511223,0000044C,false,Rx,1,8,42,60,00,00,64,00,00,00,
84514060,0000045C,false,Rx,1,8,17,8C,15,0E,00,00,08,8C,
84610743,0000042C,false,Rx,1,8,42,60,00,00,64,00,00,00,
84610980,0000043C,false,Rx,1,8,42,60,00,00,64,00,00,00,
84611223,0000044C,false,Rx,1,8,42,60,00,00,64,00,00,00,
84614299,0000045C,false,Rx,1,8,16,8C,15,0E,00,00,08,8C,
84710740,0000042C,false,Rx,1,8,42,60,00,00,64,00,00,00,
84710978,0000043C,false,Rx,1,8,42,60,00,00,64,00,00,00,
84711228,0000044C,false,Rx,1,8,42,60,00,00,64,00,00,00,
84713562,0000045C,false,Rx,1,8,19,8C,15,0E,00,00,16,8C,
84810733,0000042C,false,Rx,1,8,42,60,00,00,64,00,00,00,
84810976,0000043C,false,Rx,1,8,42,60,00,00,64,00,00,00,
84811220,0000044C,false,Rx,1,8,42,60,00,00,64,00,00,00,
84814301,0000045C,false,Rx,1,8,14,8C,15,0E,00,00,14,8C,
84910733,0000042C,false,Rx,1,8,42,60,00,00,64,00,00,00,
84910976,0000043C,false,Rx,1,8,42,60,00,00,64,00,00,00,
84911221,0000044C,false,Rx,1,8,42,60,00,00,64,00,00,00,
84913554,0000045C,false,Rx,1,8,19,8C,15,0E,00,00,08,8C,
85010736,0000042C,false,Rx,1,8,42,60,00,00,64,00,00,00,
85010972,0000043C,false,Rx,1,8,42,60,00,00,64,00,00,00,
85011222,0000044C,false,Rx,1,8,42,60,00,00,64,00,00,00,
85013552,0000045C,false,Rx,1,8,18,8C,15,0E,00,00,21,8C,
85110736,0000042C,false,Rx,1,8,42,60,00,00,64,00,00,00,
85110973,0000043C,false,Rx,1,8,42,60,00,00,64,00,00,00,
85111217,0000044C,false,Rx,1,8,42,60,00,00,64,00,00,00,
85113554,0000045C,false,Rx,1,8,17,8C,15,0E,00,00,14,8C,
85210728,0000042C,false,Rx,1,8,42,60,00,00,64,00,00,00,
