Time Stamp,ID,Extended,Dir,Bus,LEN,D1,D2,D3,D4,D5,D6,D7,D8
74111148,0000042C,false,Rx,1,8,42,60,00,00,64,00,00,00,
74113972,0000045C,false,Rx,1,8,0E,8C,15,0E,00,00,14,8C,
74131672,00000368,false,Rx,1,8,03,49,29,11,00,0C,40,FF,
74211149,0000042C,false,Rx,1,8,42,60,00,00,64,00,00,00,
74213976,0000045C,false,Rx,1,8,10,8C,15,0E,00,00,08,8C,
74231597,00000368,false,Rx,1,8,03,49,29,11,00,0C,40,FF,
74311373,0000042C,false,Rx,1,8,42,60,00,00,64,00,00,00,
74314200,0000045C,false,Rx,1,8,11,8C,15,0E,00,00,11,8C,
74331505,00000368,false,Rx,1,8,03,49,29,11,00,0C,40,FF,
74411147,0000042C,false,Rx,1,8,42,60,00,00,64,00,00,00,
74413968,0000045C,false,Rx,1,8,11,8C,15,0E,00,00,11,8C,
74431588,00000368,false,Rx,1,8,03,49,29,11,00,0C,40,FF,
74511163,0000042C,false,Rx,1,8,42,60,00,00,64,00,00,00,
74513987,0000045C,false,Rx,1,8,14,8C,15,0E,00,00,1F,8C,
74531599,00000368,false,Rx,1,8,03,49,29,11,00,0C,40,FF,
74611220,0000042C,false,Rx,1,8,42,60,00,00,64,00,00,00,
74614282,0000045C,false,Rx,1,8,0F,8C,15,0E,00,00,11,8C,
74631622,00000368,false,Rx,1,8,03,49,29,11,00,0C,40,FF,
74711171,0000042C,false,Rx,1,8,42,60,00,00,64,00,00,00,
74713998,0000045C,false,Rx,1,8,11,8C,15,0E,00,00,11,8C,
74731602,00000368,false,Rx,1,8,03,49,29,11,00,0C,40,FF,
74811164,0000042C,false,Rx,1,8,42,60,00,00,64,00,00,00,
74814243,0000045C,false,Rx,1,8,0F,8C,15,0E,00,00,11,8C,
74831717,00000368,false,Rx,1,8,03,49,29,11,00,0C,40,FF,
74910951,0000042C,false,Rx,1,8,42,60,00,00,64,00,00,00,
74913781,0000045C,false,Rx,1,8,13,8C,15,0E,00,00,14,8C,
74931601,00000368,false,Rx,1,8,03,49,29,11,00,0C,40,FF,
75010924,0000042C,false,Rx,1,8,42,60,00,00,64,00,00,00,
75013746,0000045C,false,Rx,1,8,11,8C,15,0E,00,00,06,8C,
75031604,00000368,false,Rx,1,8,03,49,29,11,00,0C,40,FF,
75110931,0000042C,false,Rx,1,8,42,60,00,00,64,00,00,00,
75113758,0000045C,false,Rx,1,8,12,8C,15,0E,00,00,11,8C,
75131678,00000368,false,Rx,1,8,03,49,29,11,00,0C,40,FF,
75210953,0000042C,false,Rx,1,8,42,60,00,00,64,00,00,00,
75213780,0000045C,false,Rx,1,8,10,8C,15,0E,00,00,13,8C,
75231593,00000368,false,Rx,1,8,03,49,29,11,00,0C,40,FF,
75311338,0000042C,false,Rx,1,8,42,60,00,00,64,00,00,00,
75314030,0000045C,false,Rx,1,8,0E,8C,15,0E,00,00,FA,8B,
75331606,00000368,false,Rx,1,8,03,49,29,11,00,0C,40,FF,
75410927,0000042C,false,Rx,1,8,42,60,00,00,64,00,00,00,
75413753,0000045C,false,Rx,1,8,14,8C,15,0E,00,00,14,8C,
75431604,00000368,false,Rx,1,8,03,49,29,11,00,0C,40,FF,
75510948,0000042C,false,Rx,1,8,42,60,00,00,64,00,00,00,
75513767,0000045C,false,Rx,1,8,13,8C,15,0E,00,00,21,8C,
75531604,00000368,false,Rx,1,8,03,49,29,11,00,0C,40,FF,
75610938,0000042C,false,Rx,1,8,42,60,00,00,64,00,00,00,
75613763,0000045C,false,Rx,1,8,10,8C,15,0E,00,00,13,8C,
75631612,00000368,false,Rx,1,8,03,49,29,11,00,0C,40,FF,
75710943,0000042C,false,Rx,1,8,42,60,00,00,64,00,00,00,
75713763,0000045C,false,Rx,1,8,0E,8C,15,0E,00,00,13,8C,
75731620,00000368,false,Rx,1,8,03,49,29,11,00,0C,40,FF,
75810878,0000042C,false,Rx,1,8,42,60,00,00,64,00,00,00,
75813956,0000045C,false,Rx,1,8,11,8C,15,0E,00,00,16,8C,
75831702,00000368,false,Rx,1,8,03,49,29,11,00,0C,40,FF,
75910878,0000042C,false,Rx,1,8,42,60,00,00,64,00,00,00,
75913709,0000045C,false,Rx,1,8,0F,8C,15,0E,00,00,0A,8C,
75931612,00000368,false,Rx,1,8,03,49,29,11,00,0C,40,FF,
76010880,0000042C,false,Rx,1,8,42,60,00,00,64,00,00,00,
76013712,0000045C,false,Rx,1,8,10,8C,15,0E,00,00,14,8C,
76031621,00000368,false,Rx,1,8,03,49,29,11,00,0C,40,FF,
76110896,0000042C,false,Rx,1,8,42,60,00,00,64,00,00,00,
76113723,0000045C,false,Rx,1,8,11,8C,15,0E,00,00,14,8C,
76131683,00000368,false,Rx,1,8,03,49,29,11,00,0C,40,FF,
76210895,0000042C,false,Rx,1,8,42,60,00,00,64,00,00,00,
76213717,0000045C,false,Rx,1,8,13,8C,15,0E,00,00,16,8C,
76231628,00000368,false,Rx,1,8,03,49,29,11,00,0C,40,FF,
76311189,0000042C,false,Rx,1,8,42,60,00,00,64,00,00,00,
76314009,0000045C,false,Rx,1,8,10,8C,15,0E,00,00,05,8C,
76331627,00000368,false,Rx,1,8,03,49,29,11,00,0C,40,FF,
76410893,0000042C,false,Rx,1,8,42,60,00,00,64,00,00,00,
76413715,0000045C,false,Rx,1,8,14,8C,15,0E,00,00,2D,8C,
76431607,00000368,false,Rx,1,8,03,49,29,11,00,0C,40,FF,
76510899,0000042C,false,Rx,1,8,42,60,00,00,64,00,00,00,
76513595,0000045C,false,Rx,1,8,10,8C,15,0E,00,00,06,8C,
76531606,00000368,false,Rx,1,8,03,49,29,11,00,0C,40,FF,
76610876,0000042C,false,Rx,1,8,42,60,00,00,64,00,00,00,
76613696,0000045C,false,Rx,1,8,13,8C,15,0E,00,00,14,8C,
76631628,00000368,false,Rx,1,8,03,49,29,11,00,0C,40,FF,
76710889,0000042C,false,Rx,1,8,42,60,00,00,64,00,00,00,
76713716,0000045C,false,Rx,1,8,11,8C,15,0E,00,00,14,8C,
76731615,00000368,false,Rx,1,8,03,49,29,11,00,0C,40,FF,
76810900,0000042C,false,Rx,1,8,42,60,00,00,64,00,00,00,
76813978,0000045C,false,Rx,1,8,13,8C,15,0E,00,00,13,8C,
76831694,00000368,false,Rx,1,8,03,49,29,11,00,0C,40,FF,
76910884,0000042C,false,Rx,1,8,42,60,00,00,64,00,00,00,
76913712,0000045C,false,Rx,1,8,15,8C,15,0E,00,00,2D,8C,
76931625,00000368,false,Rx,1,8,03,49,29,11,00,0C,40,FF,
77010886,0000042C,false,Rx,1,8,42,60,00,00,64,00,00,00,
77013712,0000045C,false,Rx,1,8,0F,8C,15,0E,00,00,13,8C,
77031619,00000368,false,Rx,1,8,03,49,29,11,00,0C,40,FF,
77110885,0000042C,false,Rx,1,8,42,60,00,00,64,00,00,00,
77113706,0000045C,false,Rx,1,8,12,8C,15,0E,00,00,13,8C,
77131687,00000368,false,Rx,1,8,03,49,29,11,00,0C,40,FF,
77210887,0000042C,false,Rx,1,8,42,60,00,00,64,00,00,00,
77213709,0000045C,false,Rx,1,8,16,8C,15,0E,00,00,14,8C,
77231659,00000368,false,Rx,1,8,03,49,29,11,00,0C,40,FF,
77310860,0000042C,false,Rx,1,8,42,60,00,00,64,00,00,00,
77313684,0000045C,false,Rx,1,8,0E,8C,15,0E,00,00,14,8C,
77331624,00000368,false,Rx,1,8,03,49,29,11,00,0C,40,FF,
77410855,0000042C,false,Rx,1,8,42,60,00,00,64,00,00,00,
77413675,0000045C,false,Rx,1,8,12,8C,15,0E,00,00,21,8C,
77431611,00000368,false,Rx,1,8,03,49,29,11,00,0C,40,FF,
77510978,0000042C,false,Rx,1,8,42,60,00,00,64,00,00,00,
77513804,0000045C,false,Rx,1,8,10,8C,15,0E,00,00,06,8C,
77531624,00000368,false,Rx,1,8,03,49,29,11,00,0C,40,FF,
77611049,0000042C,false,Rx,1,8,42,60,00,00,64,00,00,00,
77613875,0000045C,false,Rx,1,8,15,8C,15,0E,00,00,15,8C,
77631621,00000368,false,Rx,1,8,03,49,29,11,00,0C,40,FF,
77710849,0000042C,false,Rx,1,8,42,60,00,00,64,00,00,00,
77713677,0000045C,false,Rx,1,8,11,8C,15,0E,00,00,13,8C,
77731629,00000368,false,Rx,1,8,03,49,29,11,00,0C,40,FF,
77810852,0000042C,false,Rx,1,8,42,60,00,00,64,00,00,00,
77813930,0000045C,false,Rx,1,8,11,8C,15,0E,00,00,1E,8C,
77831893,00000368,false,Rx,1,8,03,49,29,11,00,0C,40,FF,
77910881,0000042C,false,Rx,1,8,42,60,00,00,64,00,00,00,
77913706,0000045C,false,Rx,1,8,12,8C,15,0E,00,00,1E,8C,
77931694,00000368,false,Rx,1,8,03,49,29,11,00,0C,40,FF,
78010848,0000042C,false,Rx,1,8,42,60,00,00,64,00,00,00,
78013669,0000045C,false,Rx,1,8,0F,8C,15,0E,00,00,13,8C,
78031629,00000368,false,Rx,1,8,03,49,29,11,00,0C,40,FF,
78110844,0000042C,false,Rx,1,8,42,60,00,00,64,00,00,00,
78113670,0000045C,false,Rx,1,8,0E,8C,15,0E,00,00,14,8C,
78131712,00000368,false,Rx,1,8,03,49,29,11,00,0C,40,FF,
78210839,0000042C,false,Rx,1,8,42,60,00,00,64,00,00,00,
78213664,0000045C,false,Rx,1,8,10,8C,15,0E,00,00,13,8C,
78231630,00000368,false,Rx,1,8,03,49,29,11,00,0C,40,FF,
78310839,0000042C,false,Rx,1,8,42,60,00,00,64,00,00,00,
78313674,0000045C,false,Rx,1,8,0F,8C,15,0E,00,00,1E,8C,
78331723,00000368,false,Rx,1,8,03,49,29,11,00,0C,40,FF,
78411018,0000042C,false,Rx,1,8,42,60,00,00,64,00,00,00,
78413842,0000045C,false,Rx,1,8,12,8C,15,0E,00,00,13,8C,
78431720,00000368,false,Rx,1,8,03,49,29,11,00,0C,40,FF,
78510836,0000042C,false,Rx,1,8,42,60,00,00,64,00,00,00,
78513884,0000045C,false,Rx,1,8,11,8C,15,0E,00,00,1E,8C,
78531789,00000368,false,Rx,1,8,03,49,29,11,00,0C,40,FF,
78610836,0000042C,false,Rx,1,8,42,60,00,00,64,00,00,00,
78613882,0000045C,false,Rx,1,8,10,8C,15,0E,00,00,1E,8C,
78631636,00000368,false,Rx,1,8,03,49,29,11,00,0C,40,FF,
78710831,0000042C,false,Rx,1,8,42,60,00,00,64,00,00,00,
78713878,0000045C,false,Rx,1,8,14,8C,15,0E,00,00,11,8C,
78731860,00000368,false,Rx,1,8,03,49,29,11,00,0C,40,FF,
78810929,0000042C,false,Rx,1,8,42,60,00,00,64,00,00,00,
78814229,0000045C,false,Rx,1,8,12,8C,15,0E,00,00,F8,8B,
78831654,00000368,false,Rx,1,8,03,49,29,11,00,0C,40,FF,
78910948,0000042C,false,Rx,1,8,42,60,00,00,64,00,00,00,
78913774,0000045C,false,Rx,1,8,0F,8C,15,0E,00,00,06,8C,
78931902,00000368,false,Rx,1,8,03,49,29,11,00,0C,40,FF,
79010953,0000042C,false,Rx,1,8,42,60,00,00,64,00,00,00,
79013774,0000045C,false,Rx,1,8,14,8C,15,0E,00,00,13,8C,
79031204,00000368,false,Rx,1,8,03,49,29,11,00,0C,40,FF,
79110989,0000042C,false,Rx,1,8,42,60,00,00,64,00,00,00,
79113823,0000045C,false,Rx,1,8,11,8C,15,0E,00,00,13,8C,
79132248,00000368,false,Rx,1,8,03,49,29,11,00,0C,40,FF,
79210999,0000042C,false,Rx,1,8,42,60,00,00,64,00,00,00,
79213827,0000045C,false,Rx,1,8,10,8C,15,0E,00,00,14,8C,
79231632,00000368,false,Rx,1,8,03,49,29,11,00,0C,40,FF,
79311000,0000042C,false,Rx,1,8,42,60,00,00,64,00,00,00,
79314064,0000045C,false,Rx,1,8,0F,8C,15,0E,00,00,13,8C,
79331056,00000368,false,Rx,1,8,03,49,29,11,00,0C,40,FF,
79411099,0000042C,false,Rx,1,8,42,60,00,00,64,00,00,00,
79413931,0000045C,false,Rx,1,8,0C,8C,15,0E,00,00,06,8C,
79431632,00000368,false,Rx,1,8,03,49,29,11,00,0C,40,FF,
79510819,0000042C,false,Rx,1,8,42,60,00,00,64,00,00,00,
79513647,0000045C,false,Rx,1,8,0D,8C,15,0E,00,00,13,8C,
79531126,00000368,false,Rx,1,8,03,49,29,11,00,0C,40,FF,
79610819,0000042C,false,Rx,1,8,42,60,00,00,64,00,00,00,
79613639,0000045C,false,Rx,1,8,0F,8C,15,0E,00,00,14,8C,
79631417,00000368,false,Rx,1,8,03,49,29,11,00,0C,40,FF,
79711249,0000042C,false,Rx,1,8,42,60,00,00,64,00,00,00,
79714320,0000045C,false,Rx,1,8,15,8C,15,0E,00,00,20,8C,
79731203,00000368,false,Rx,1,8,03,49,29,11,00,0C,40,FF,
79811044,0000042C,false,Rx,1,8,42,60,00,00,64,00,00,00,
79814364,0000045C,false,Rx,1,8,0F,8C,15,0E,00,00,08,8C,
79831702,00000368,false,Rx,1,8,03,49,29,11,00,0C,40,FF,
79911014,0000042C,false,Rx,1,8,42,60,00,00,64,00,00,00,
79914077,0000045C,false,Rx,1,8,12,8C,15,0E,00,00,21,8C,
79931265,00000368,false,Rx,1,8,03,49,29,11,00,0C,40,FF,
80011015,0000042C,false,Rx,1,8,42,60,00,00,64,00,00,00,
80014078,0000045C,false,Rx,1,8,12,8C,15,0E,00,00,0A,8C,
80031648,00000368,false,Rx,1,8,03,49,29,11,00,0C,40,FF,
80110995,0000042C,false,Rx,1,8,42,60,00,00,64,00,00,00,
80114059,0000045C,false,Rx,1,8,11,8C,15,0E,00,00,08,8C,
80131377,00000368,false,Rx,1,8,03,49,29,11,00,0C,40,FF,
80211010,0000042C,false,Rx,1,8,42,60,00,00,64,00,00,00,
80214324,0000045C,false,Rx,1,8,10,8C,15,0E,00,00,16,8C,
80231617,00000368,false,Rx,1,8,03,49,29,11,00,0C,40,FF,
80311215,0000042C,false,Rx,1,8,42,60,00,00,64,00,00,00,
80314280,0000045C,false,Rx,1,8,10,8C,15,0E,00,00,21,8C,
80331373,00000368,false,Rx,1,8,03,49,29,11,00,0C,40,FF,
80410804,0000042C,false,Rx,1,8,42,60,00,00,64,00,00,00,
80413624,0000045C,false,Rx,1,8,0E,8C,15,0E,00,00,0B,8C,
80431638,00000368,false,Rx,1,8,03,49,29,11,00,0C,40,FF,
80510804,0000042C,false,Rx,1,8,42,60,00,00,64,00,00,00,
80513632,0000045C,false,Rx,1,8,0D,8C,15,0E,00,00,14,8C,
80531436,00000368,false,Rx,1,8,03,49,29,11,00,0C,40,FF,
80610944,0000042C,false,Rx,1,8,42,60,00,00,64,00,00,00,
80614251,0000045C,false,Rx,1,8,0E,8C,15,0E,00,00,23,8C,
80631653,00000368,false,Rx,1,8,03,49,29,11,00,0C,40,FF,
80711202,0000042C,false,Rx,1,8,42,60,00,00,64,00,00,00,
80714273,0000045C,false,Rx,1,8,0E,8C,15,0E,00,00,08,8C,
80731507,00000368,false,Rx,1,8,03,49,29,11,00,0C,40,FF,
80810979,0000042C,false,Rx,1,8,42,60,00,00,64,00,00,00,
80814300,0000045C,false,Rx,1,8,0E,8C,15,0E,00,00,06,8C,
80831691,00000368,false,Rx,1,8,03,49,29,11,00,0C,40,FF,
80910971,0000042C,false,Rx,1,8,42,60,00,00,64,00,00,00,
80914034,0000045C,false,Rx,1,8,12,8C,15,0E,00,00,16,8C,
80931589,00000368,false,Rx,1,8,03,49,29,11,00,0C,40,FF,
81010992,0000042C,false,Rx,1,8,42,60,00,00,64,00,00,00,
81014056,0000045C,false,Rx,1,8,11,8C,15,0E,00,00,06,8C,
81031856,00000368,false,Rx,1,8,03,49,29,11,00,0C,40,FF,
81110998,0000042C,false,Rx,1,8,42,60,00,00,64,00,00,00,
81114067,0000045C,false,Rx,1,8,12,8C,15,0E,00,00,16,8C,
81131705,00000368,false,Rx,1,8,03,49,29,11,00,0C,40,FF,
81211205,0000042C,false,Rx,1,8,42,60,00,00,64,00,00,00,
81214275,0000045C,false,Rx,1,8,13,8C,15,0E,00,00,21,8C,
81231646,00000368,false,Rx,1,8,03,49,29,11,00,0C,40,FF,
81311217,0000042C,false,Rx,1,8,42,60,00,00,64,00,00,00,
81314280,0000045C,false,Rx,1,8,10,8C,15,0E,00,00,0A,8C,
81331682,00000368,false,Rx,1,8,03,49,29,11,00,0C,40,FF,
81411235,0000042C,false,Rx,1,8,42,60,00,00,64,00,00,00,
81414306,0000045C,false,Rx,1,8,14,8C,15,0E,00,00,0A,8C,
81431658,00000368,false,Rx,1,8,03,49,29,11,00,0C,40,FF,
81511229,0000042C,false,Rx,1,8,42,60,00,00,64,00,00,00,
81514055,0000045C,false,Rx,1,8,14,8C,15,0E,00,00,0A,8C,
81531648,00000368,false,Rx,1,8,03,49,29,11,00,0C,40,FF,
81611293,0000042C,false,Rx,1,8,42,60,00,00,64,00,00,00,
81614349,0000045C,false,Rx,1,8,13,8C,15,0E,00,00,16,8C,
81631668,00000368,false,Rx,1,8,03,49,29,11,00,0C,40,FF,
81713653,0000042C,false,Rx,1,8,42,60,00,00,64,00,00,00,
81714379,0000045C,false,Rx,1,8,14,8C,15,0E,00,00,0A,8C,
81731691,00000368,false,Rx,1,8,03,49,29,11,00,0C,40,FF,
81811308,0000042C,false,Rx,1,8,42,60,00,00,64,00,00,00,
81814387,0000045C,false,Rx,1,8,13,8C,15,0E,00,00,18,8C,
81831682,00000368,false,Rx,1,8,03,49,29,11,00,0C,40,FF,
81911273,0000042C,false,Rx,1,8,42,60,00,00,64,00,00,00,
81914102,0000045C,false,Rx,1,8,14,8C,15,0E,00,00,21,8C,
81931664,00000368,false,Rx,1,8,03,49,29,11,00,0C,40,FF,
82011276,0000042C,false,Rx,1,8,42,60,00,00,64,00,00,00,
82014095,0000045C,false,Rx,1,8,15,8C,15,0E,00,00,14,8C,
82031683,00000368,false,Rx,1,8,03,49,29,11,00,0C,40,FF,
82110808,0000042C,false,Rx,1,8,42,60,00,00,64,00,00,00,
82114131,0000045C,false,Rx,1,8,13,8C,15,0E,00,00,11,8C,
82131732,00000368,false,Rx,1,8,03,49,29,11,00,0C,40,FF,
82210812,0000042C,false,Rx,1,8,42,60,00,00,64,00,00,00,
82214385,0000045C,false,Rx,1,8,12,8C,15,0E,00,00,06,8C,
82231659,00000368,false,Rx,1,8,03,49,29,11,00,0C,40,FF,
82310787,0000042C,false,Rx,1,8,42,60,00,00,64,00,00,00,
82314101,0000045C,false,Rx,1,8,12,8C,15,0E,00,00,16,8C,
82331685,00000368,false,Rx,1,8,03,49,29,11,00,0C,40,FF,
82410774,0000042C,false,Rx,1,8,42,60,00,00,64,00,00,00,
82414333,0000045C,false,Rx,1,8,14,8C,15,0E,00,00,21,8C,
82431661,00000368,false,Rx,1,8,03,49,29,11,00,0C,40,FF,
82510803,0000042C,false,Rx,1,8,42,60,00,00,64,00,00,00,
82514125,0000045C,false,Rx,1,8,14,8C,15,0E,00,00,08,8C,
82531661,00000368,false,Rx,1,8,03,49,29,11,00,0C,40,FF,
82610769,0000042C,false,Rx,1,8,42,60,00,00,64,00,00,00,
82614086,0000045C,false,Rx,1,8,10,8C,15,0E,00,00,FC,8B,
82631674,00000368,false,Rx,1,8,03,49,29,11,00,0C,40,FF,
82710769,0000042C,false,Rx,1,8,42,60,00,00,64,00,00,00,
82714319,0000045C,false,Rx,1,8,10,8C,15,0E,00,00,FF,8B,
82731667,00000368,false,Rx,1,8,03,49,29,11,00,0C,40,FF,
82810767,0000042C,false,Rx,1,8,42,60,00,00,64,00,00,00,
82814336,0000045C,false,Rx,1,8,1A,8C,15,0E,00,00,23,8C,
82831661,00000368,false,Rx,1,8,03,49,29,11,00,0C,40,FF,
82910768,0000042C,false,Rx,1,8,42,60,00,00,64,00,00,00,
82914080,0000045C,false,Rx,1,8,15,8C,15,0E,00,00,14,8C,
82931676,00000368,false,Rx,1,8,03,49,29,11,00,0C,40,FF,
83010761,0000042C,false,Rx,1,8,42,60,00,00,64,00,00,00,
83014081,0000045C,false,Rx,1,8,13,8C,15,0E,00,00,06,8C,
83031673,00000368,false,Rx,1,8,03,49,29,11,00,0C,40,FF,
83110767,0000042C,false,Rx,1,8,42,60,00,00,64,00,00,00,
83114084,0000045C,false,Rx,1,8,18,8C,15,0E,00,00,1F,8C,
83131741,00000368,false,Rx,1,8,03,49,29,11,00,0C,40,FF,
83210762,0000042C,false,Rx,1,8,42,60,00,00,64,00,00,00,
83214330,0000045C,false,Rx,1,8,16,8C,15,0E,00,00,14,8C,
83231671,00000368,false,Rx,1,8,03,49,29,11,00,0C,40,FF,
83310767,0000042C,false,Rx,1,8,42,60,00,00,64,00,00,00,
83314073,0000045C,false,Rx,1,8,14,8C,15,0E,00,00,21,8C,
83331694,00000368,false,Rx,1,8,03,49,29,11,00,0C,40,FF,
83410758,0000042C,false,Rx,1,8,42,60,00,00,64,00,00,00,
83414327,0000045C,false,Rx,1,8,18,8C,15,0E,00,00,08,8C,
83431677,00000368,false,Rx,1,8,03,49,29,11,00,0C,40,FF,
83510753,0000042C,false,Rx,1,8,42,60,00,00,64,00,00,00,
83514065,0000045C,false,Rx,1,8,14,8C,15,0E,00,00,21,8C,
83531677,00000368,false,Rx,1,8,03,49,29,11,00,0C,40,FF,
83610758,0000042C,false,Rx,1,8,42,60,00,00,64,00,00,00,
83614074,0000045C,false,Rx,1,8,19,8C,15,0E,00,00,1F,8C,
83631674,00000368,false,Rx,1,8,03,49,29,11,00,0C,40,FF,
83710755,0000042C,false,Rx,1,8,42,60,00,00,64,00,00,00,
83714318,0000045C,false,Rx,1,8,13,8C,15,0E,00,00,1F,8C,
83731676,00000368,false,Rx,1,8,03,49,29,11,00,0C,40,FF,
83810749,0000042C,false,Rx,1,8,42,60,00,00,64,00,00,00,
83814325,0000045C,false,Rx,1,8,13,8C,15,0E,00,00,13,8C,
83831641,00000368,false,Rx,1,8,03,49,29,11,00,0C,40,FF,
83910762,0000042C,false,Rx,1,8,42,60,00,00,64,00,00,00,
83914075,0000045C,false,Rx,1,8,17,8C,15,0E,00,00,21,8C,
83931678,00000368,false,Rx,1,8,03,49,29,11,00,0C,40,FF,
84010753,0000042C,false,Rx,1,8,42,60,00,00,64,00,00,00,
84014067,0000045C,false,Rx,1,8,18,8C,15,0E,00,00,1F,8C,
84031676,00000368,false,Rx,1,8,03,49,29,11,00,0C,40,FF,
84110746,0000042C,false,Rx,1,8,42,60,00,00,64,00,00,00,
84114068,0000045C,false,Rx,1,8,16,8C,15,0E,00,00,08,8C,
84131759,00000368,false,Rx,1,8,03,49,29,11,00,0C,40,FF,
84210744,0000042C,false,Rx,1,8,42,60,00,00,64,00,00,00,
84214312,0000045C,false,Rx,1,8,19,8C,15,0E,00,00,21,8C,
84231670,00000368,false,Rx,1,8,03,49,29,11,00,0C,40,FF,
84310748,0000042C,false,Rx,1,8,42,60,00,00,64,00,00,00,
84314073,0000045C,false,Rx,1,8,16,8C,15,0E,00,00,14,8C,
84331681,00000368,false,Rx,1,8,03,49,29,11,00,0C,40,FF,
84410748,0000042C,false,Rx,1,8,42,60,00,00,64,00,00,00,
84414311,0000045C,false,Rx,1,8,16,8C,15,0E,00,00,08,8C,
84431703,00000368,false,Rx,1,8,03,49,29,11,00,0C,40,FF,
84510743,0000042C,false,Rx,1,8,42,60,00,00,64,00,00,00,
84514060,0000045C,false,Rx,1,8,17,8C,15,0E,00,00,08,8C,
84531673,00000368,false,Rx,1,8,03,49,29,11,00,0C,40,FF,
84610743,0000042C,false,Rx,1,8,42,60,00,00,64,00,00,00,
84614299,0000045C,false,Rx,1,8,16,8C,15,0E,00,00,08,8C,
84631686,00000368,false,Rx,1,8,03,49,29,11,00,0C,40,FF,
84710740,0000042C,false,Rx,1,8,42,60,00,00,64,00,00,00,
84713562,0000045C,false,Rx,1,8,19,8C,15,0E,00,00,16,8C,
84731698,00000368,false,Rx,1,8,03,49,29,11,00,0C,40,FF,
84810733,0000042C,false,Rx,1,8,42,60,00,00,64,00,00,00,
84814301,0000045C,false,Rx,1,8,14,8C,15,0E,00,00,14,8C,
84831631,00000368,false,Rx,1,8,03,49,29,11,00,0C,40,FF,
84910733,0000042C,false,Rx,1,8,42,60,00,00,64,00,00,00,
84913554,0000045C,false,Rx,1,8,19,8C,15,0E,00,00,08,8C,
84931683,00000368,false,Rx,1,8,03,49,29,11,00,0C,40,FF,
85010736,0000042C,false,Rx,1,8,42,60,00,00,64,00,00,00,
85013552,0000045C,false,Rx,1,8,18,8C,15,0E,00,00,21,8C,
85031702,00000368,false,Rx,1,8,03,49,29,11,00,0C,40,FF,
85110736,0000042C,false,Rx,1,8,42,60,00,00,64,00,00,00,
85113554,0000045C,false,Rx,1,8,17,8C,15,0E,00,00,14,8C,
85131752,00000368,false,Rx,1,8,03,49,29,11,00,0C,40,FF,
85210728,0000042C,false,Rx,1,8,42,60,00,00,64,00,00,00,
85213802,0000045C,false,Rx,1,8,19,8C,15,0E,00,00,23,8C,
85231680,00000368,false,Rx,1,8,03,49,29,11,00,0C,40,FF,
85310736,0000042C,false,Rx,1,8,42,60,00,00,64,00,00,00,
85313558,0000045C,false,Rx,1,8,18,8C,15,0E,00,00,2D,8C,
85331701,00000368,false,Rx,1,8,03,49,29,11,00,0C,40,FF,
85410727,0000042C,false,Rx,1,8,42,60,00,00,64,00,00,00,
85413794,0000045C,false,Rx,1,8,14,8C,15,0E,00,00,1F,8C,
85431683,00000368,false,Rx,1,8,03,49,29,11,00,0C,40,FF,
85510723,0000042C,false,Rx,1,8,42,60,00,00,64,00,00,00,
85513552,0000045C,false,Rx,1,8,17,8C,15,0E,00,00,14,8C,
85531681,00000368,false,Rx,1,8,03,49,29,11,00,0C,40,FF,
85610725,0000042C,false,Rx,1,8,42,60,00,00,64,00,00,00,
85613546,0000045C,false,Rx,1,8,15,8C,15,0E,00,00,18,8C,
85631705,00000368,false,Rx,1,8,03,49,29,11,00,0C,40,FF,
85710725,0000042C,false,Rx,1,8,42,60,00,00,64,00,00,00,
85713547,0000045C,false,Rx,1,8,14,8C,15,0E,00,00,16,8C,
85731691,00000368,false,Rx,1,8,03,49,29,11,00,0C,40,FF,
85810724,0000042C,false,Rx,1,8,42,60,00,00,64,00,00,00,
85813798,0000045C,false,Rx,1,8,15,8C,15,0E,00,00,0A,8C,
85831617,00000368,false,Rx,1,8,03,49,29,11,00,0C,40,FF,
85910717,0000042C,false,Rx,1,8,42,60,00,00,64,00,00,00,
85913540,0000045C,false,Rx,1,8,15,8C,15,0E,00,00,21,8C,
85931704,00000368,false,Rx,1,8,03,49,29,11,00,0C,40,FF,
86010721,0000042C,false,Rx,1,8,42,60,00,00,64,00,00,00,
86013542,0000045C,false,Rx,1,8,13,8C,15,0E,00,00,14,8C,
86031710,00000368,false,Rx,1,8,03,49,29,11,00,0C,40,FF,
86110717,0000042C,false,Rx,1,8,42,60,00,00,64,00,00,00,
86113540,0000045C,false,Rx,1,8,14,8C,15,0E,00,00,08,8C,
86131767,00000368,false,Rx,1,8,03,49,29,11,00,0C,40,FF,
86210717,0000042C,false,Rx,1,8,42,60,00,00,64,00,00,00,
86213791,0000045C,false,Rx,1,8,16,8C,15,0E,00,00,08,8C,
86231695,00000368,false,Rx,1,8,03,49,29,11,00,0C,40,FF,
86310720,0000042C,false,Rx,1,8,42,60,00,00,64,00,00,00,
86313540,0000045C,false,Rx,1,8,11,8C,15,0E,00,00,13,8C,
86331704,00000368,false,Rx,1,8,03,49,29,11,00,0C,40,FF,
86410713,0000042C,false,Rx,1,8,42,60,00,00,64,00,00,00,
86413780,0000045C,false,Rx,1,8,14,8C,15,0E,00,00,1E,8C,
86431691,00000368,false,Rx,1,8,03,49,29,11,00,0C,40,FF,
86510712,0000042C,false,Rx,1,8,42,60,00,00,64,00,00,00,
86513533,0000045C,false,Rx,1,8,13,8C,15,0E,00,00,13,8C,
86531695,00000368,false,Rx,1,8,03,49,29,11,00,0C,40,FF,
86610706,0000042C,false,Rx,1,8,42,60,00,00,64,00,00,00,
86613531,0000045C,false,Rx,1,8,12,8C,15,0E,00,00,06,8C,
86631718,00000368,false,Rx,1,8,03,49,29,11,00,0C,40,FF,
86710709,0000042C,false,Rx,1,8,42,60,00,00,64,00,00,00,
86713531,0000045C,false,Rx,1,8,11,8C,15,0E,00,00,14,8C,
86731703,00000368,false,Rx,1,8,03,49,29,11,00,0C,40,FF,
86810708,0000042C,false,Rx,1,8,42,60,00,00,64,00,00,00,
86813776,0000045C,false,Rx,1,8,15,8C,15,0E,00,00,13,8C,
86831596,00000368,false,Rx,1,8,03,49,29,11,00,0C,40,FF,
86910702,0000042C,false,Rx,1,8,42,60,00,00,64,00,00,00,
86913530,0000045C,false,Rx,1,8,13,8C,15,0E,00,00,13,8C,
86931702,00000368,false,Rx,1,8,03,49,29,11,00,0C,40,FF,
87010704,0000042C,false,Rx,1,8,42,60,00,00,64,00,00,00,
87013522,0000045C,false,Rx,1,8,16,8C,15,0E,00,00,0A,8C,
87031705,00000368,false,Rx,1,8,03,49,29,11,00,0C,40,FF,
87110698,0000042C,false,Rx,1,8,42,60,00,00,64,00,00,00,
87113521,0000045C,false,Rx,1,8,16,8C,15,0E,00,00,23,8C,
87131967,00000368,false,Rx,1,8,03,49,29,11,00,0C,40,FF,
87210697,0000042C,false,Rx,1,8,42,60,00,00,64,00,00,00,
87213771,0000045C,false,Rx,1,8,14,8C,15,0E,00,00,14,8C,
87232044,00000368,false,Rx,1,8,03,49,29,11,00,0C,40,FF,
87310700,0000042C,false,Rx,1,8,42,60,00,00,64,00,00,00,
87313534,0000045C,false,Rx,1,8,15,8C,15,0E,00,00,16,8C,
87331704,00000368,false,Rx,1,8,03,49,29,11,00,0C,40,FF,
87410697,0000042C,false,Rx,1,8,42,60,00,00,64,00,00,00,
87413767,0000045C,false,Rx,1,8,15,8C,15,0E,00,00,21,8C,
87431710,00000368,false,Rx,1,8,03,49,29,11,00,0C,40,FF,
87510696,0000042C,false,Rx,1,8,42,60,00,00,64,00,00,00,
87513516,0000045C,false,Rx,1,8,15,8C,15,0E,00,00,06,8C,
87531702,00000368,false,Rx,1,8,03,49,29,11,00,0C,40,FF,
87610693,0000042C,false,Rx,1,8,42,60,00,00,64,00,00,00,
87613518,0000045C,false,Rx,1,8,11,8C,15,0E,00,00,11,8C,
87631707,00000368,false,Rx,1,8,03,49,29,11,00,0C,40,FF,
87710692,0000042C,false,Rx,1,8,42,60,00,00,64,00,00,00,
87713508,0000045C,false,Rx,1,8,15,8C,15,0E,00,00,13,8C,
87731944,00000368,false,Rx,1,8,03,49,29,11,00,0C,40,FF,
87810686,0000042C,false,Rx,1,8,42,60,00,00,64,00,00,00,
87813765,0000045C,false,Rx,1,8,14,8C,15,0E,00,00,13,8C,
87831576,00000368,false,Rx,1,8,03,49,29,11,00,0C,40,FF,
87910685,0000042C,false,Rx,1,8,42,60,00,00,64,00,00,00,
87913512,0000045C,false,Rx,1,8,12,8C,15,0E,00,00,06,8C,
87931712,00000368,false,Rx,1,8,03,49,29,11,00,0C,40,FF,
88010685,0000042C,false,Rx,1,8,42,60,00,00,64,00,00,00,
88013505,0000045C,false,Rx,1,8,18,8C,15,0E,00,00,21,8C,
88031933,00000368,false,Rx,1,8,03,49,29,11,00,0C,40,FF,
88110679,0000042C,false,Rx,1,8,42,60,00,00,64,00,00,00,
88113508,0000045C,false,Rx,1,8,12,8C,15,0E,00,00,06,8C,
88131934,00000368,false,Rx,1,8,03,49,29,11,00,0C,40,FF,
88210680,0000042C,false,Rx,1,8,42,60,00,00,64,00,00,00,
88213758,0000045C,false,Rx,1,8,10,8C,15,0E,00,00,11,8C,
88231925,00000368,false,Rx,1,8,03,49,29,11,00,0C,40,FF,
88310686,0000042C,false,Rx,1,8,42,60,00,00,64,00,00,00,
88313507,0000045C,false,Rx,1,8,11,8C,15,0E,00,00,1E,8C,
88331930,00000368,false,Rx,1,8,03,49,29,11,00,0C,40,FF,
88410682,0000042C,false,Rx,1,8,42,60,00,00,64,00,00,00,
88413752,0000045C,false,Rx,1,8,19,8C,15,0E,00,00,1F,8C,
88432161,00000368,false,Rx,1,8,03,49,29,11,00,0C,40,FF,
88510674,0000042C,false,Rx,1,8,42,60,00,00,64,00,00,00,
88513371,0000045C,false,Rx,1,8,14,8C,15,0E,00,00,11,8C,
88531921,00000368,false,Rx,1,8,03,49,29,11,00,0C,40,FF,
88610671,0000042C,false,Rx,1,8,42,60,00,00,64,00,00,00,
88613492,0000045C,false,Rx,1,8,11,8C,15,0E,00,00,11,8C,
88631918,00000368,false,Rx,1,8,03,49,29,11,00,0C,40,FF,
88710670,0000042C,false,Rx,1,8,42,60,00,00,64,00,00,00,
88713497,0000045C,false,Rx,1,8,13,8C,15,0E,00,00,11,8C,
88731914,00000368,false,Rx,1,8,03,49,29,11,00,0C,40,FF,
88810672,0000042C,false,Rx,1,8,42,60,00,00,64,00,00,00,
88813750,0000045C,false,Rx,1,8,14,8C,15,0E,00,00,13,8C,
88831563,00000368,false,Rx,1,8,03,49,29,11,00,0C,40,FF,
88910671,0000042C,false,Rx,1,8,42,60,00,00,64,00,00,00,
88913495,0000045C,false,Rx,1,8,16,8C,15,0E,00,00,11,8C,
88931907,00000368,false,Rx,1,8,03,49,29,11,00,0C,40,FF,
89010909,0000042C,false,Rx,1,8,42,60,00,00,64,00,00,00,
89013733,0000045C,false,Rx,1,8,12,8C,15,0E,00,00,0E,8C,
89031907,00000368,false,Rx,1,8,03,49,29,11,00,0C,40,FF,
89110903,0000042C,false,Rx,1,8,42,60,00,00,64,00,00,00,
89113729,0000045C,false,Rx,1,8,11,8C,15,0E,00,00,10,8C,
89131899,00000368,false,Rx,1,8,03,49,29,11,00,0C,40,FF,
89210903,0000042C,false,Rx,1,8,42,60,00,00,64,00,00,00,
89213980,0000045C,false,Rx,1,8,12,8C,15,0E,00,00,10,8C,
89231898,00000368,false,Rx,1,8,03,49,29,11,00,0C,40,FF,
89310665,0000042C,false,Rx,1,8,42,60,00,00,64,00,00,00,
89313492,0000045C,false,Rx,1,8,15,8C,15,0E,00,00,19,8C,
89331890,00000368,false,Rx,1,8,03,49,29,11,00,0C,40,FF,
89410661,0000042C,false,Rx,1,8,42,60,00,00,64,00,00,00,
89413741,0000045C,false,Rx,1,8,11,8C,15,0E,00,00,0D,8C,
89431889,00000368,false,Rx,1,8,03,49,29,11,00,0C,40,FF,
89510659,0000042C,false,Rx,1,8,42,60,00,00,64,00,00,00,
89513358,0000045C,false,Rx,1,8,11,8C,15,0E,00,00,0E,8C,
89531885,00000368,false,Rx,1,8,03,49,29,11,00,0C,40,FF,
89610660,0000042C,false,Rx,1,8,42,60,00,00,64,00,00,00,
89613479,0000045C,false,Rx,1,8,14,8C,15,0E,00,00,1C,8C,
89631888,00000368,false,Rx,1,8,03,49,29,11,00,0C,40,FF,
89710653,0000042C,false,Rx,1,8,42,60,00,00,64,00,00,00,
89713479,0000045C,false,Rx,1,8,0F,8C,15,0E,00,00,1B,8C,
89731877,00000368,false,Rx,1,8,03,49,29,11,00,0C,40,FF,
89810652,0000042C,false,Rx,1,8,42,60,00,00,64,00,00,00,
89813738,0000045C,false,Rx,1,8,13,8C,15,0E,00,00,1E,8C,
89831549,00000368,false,Rx,1,8,03,49,29,11,00,0C,40,FF,
89910650,0000042C,false,Rx,1,8,42,60,00,00,64,00,00,00,
89913476,0000045C,false,Rx,1,8,10,8C,15,0E,00,00,05,8C,
89931874,00000368,false,Rx,1,8,03,49,29,11,00,0C,40,FF,
90010652,0000042C,false,Rx,1,8,42,60,00,00,64,00,00,00,
90013472,0000045C,false,Rx,1,8,12,8C,15,0E,00,00,06,8C,
90031869,00000368,false,Rx,1,8,03,49,29,11,00,0C,40,FF,
90110647,0000042C,false,Rx,1,8,42,60,00,00,64,00,00,00,
90113473,0000045C,false,Rx,1,8,12,8C,15,0E,00,00,13,8C,
90131863,00000368,false,Rx,1,8,03,49,29,11,00,0C,40,FF,
90210645,0000042C,false,Rx,1,8,42,60,00,00,64,00,00,00,
90213722,0000045C,false,Rx,1,8,12,8C,15,0E,00,00,13,8C,
90231864,00000368,false,Rx,1,8,03,49,29,11,00,0C,40,FF,
90310652,0000042C,false,Rx,1,8,42,60,00,00,64,00,00,00,
90313479,0000045C,false,Rx,1,8,11,8C,15,0E,00,00,1E,8C,
90331861,00000368,false,Rx,1,8,03,49,29,11,00,0C,40,FF,
90410646,0000042C,false,Rx,1,8,42,60,00,00,64,00,00,00,
90413710,0000045C,false,Rx,1,8,0E,8C,15,0E,00,00,F7,8B,
90431858,00000368,false,Rx,1,8,03,49,29,11,00,0C,40,FF,
90510647,0000042C,false,Rx,1,8,42,60,00,00,64,00,00,00,
90513345,0000045C,false,Rx,1,8,15,8C,15,0E,00,00,1F,8C,
90531852,00000368,false,Rx,1,8,03,49,29,11,00,0C,40,FF,
90610647,0000042C,false,Rx,1,8,42,60,00,00,64,00,00,00,
90613463,0000045C,false,Rx,1,8,10,8C,15,0E,00,00,11,8C,
90631847,00000368,false,Rx,1,8,03,49,29,11,00,0C,40,FF,
90710643,0000042C,false,Rx,1,8,42,60,00,00,64,00,00,00,
90713458,0000045C,false,Rx,1,8,0F,8C,15,0E,00,00,05,8C,
90731844,00000368,false,Rx,1,8,03,49,29,11,00,0C,40,FF,
90810636,0000042C,false,Rx,1,8,42,60,00,00,64,00,00,00,
90813718,0000045C,false,Rx,1,8,13,8C,15,0E,00,00,13,8C,
90831529,00000368,false,Rx,1,8,03,49,29,11,00,0C,40,FF,
90910643,0000042C,false,Rx,1,8,42,60,00,00,64,00,00,00,
90913467,0000045C,false,Rx,1,8,12,8C,15,0E,00,00,1F,8C,
90931838,00000368,false,Rx,1,8,03,49,29,11,00,0C,40,FF,
91010640,0000042C,false,Rx,1,8,42,60,00,00,64,00,00,00,
91013464,0000045C,false,Rx,1,8,10,8C,15,0E,00,00,1F,8C,
91031832,00000368,false,Rx,1,8,03,49,29,11,00,0C,40,FF,
91110638,0000042C,false,Rx,1,8,42,60,00,00,64,00,00,00,
91113462,0000045C,false,Rx,1,8,0F,8C,15,0E,00,00,05,8C,
91131827,00000368,false,Rx,1,8,03,49,29,11,00,0C,40,FF,
91210886,0000042C,false,Rx,1,8,42,60,00,00,64,00,00,00,
91213702,0000045C,false,Rx,1,8,12,8C,15,0E,00,00,11,8C,
91231826,00000368,false,Rx,1,8,03,49,29,11,00,0C,40,FF,
91310713,0000042C,false,Rx,1,8,42,60,00,00,64,00,00,00,
91313537,0000045C,false,Rx,1,8,0F,8C,15,0E,00,00,13,8C,
91331825,00000368,false,Rx,1,8,03,49,29,11,00,0C,40,FF,
91410847,0000042C,false,Rx,1,8,42,60,00,00,64,00,00,00,
91413924,0000045C,false,Rx,1,8,0F,8C,15,0E,00,00,11,8C,
91431820,00000368,false,Rx,1,8,03,49,29,11,00,0C,40,FF,
91510628,0000042C,false,Rx,1,8,42,60,00,00,64,00,00,00,
91513677,0000045C,false,Rx,1,8,12,8C,15,0E,00,00,13,8C,
91531813,00000368,false,Rx,1,8,03,49,29,11,00,0C,40,FF,
91610629,0000042C,false,Rx,1,8,42,60,00,00,64,00,00,00,
91613679,0000045C,false,Rx,1,8,10,8C,15,0E,00,00,13,8C,
91631817,00000368,false,Rx,1,8,03,49,29,11,00,0C,40,FF,
91710622,0000042C,false,Rx,1,8,42,60,00,00,64,00,00,00,
91713666,0000045C,false,Rx,1,8,13,8C,15,0E,00,00,03,8C,
91731813,00000368,false,Rx,1,8,03,49,29,11,00,0C,40,FF,
91810624,0000042C,false,Rx,1,8,42,60,00,00,64,00,00,00,
91813920,0000045C,false,Rx,1,8,0C,8C,15,0E,00,00,10,8C,
91831524,00000368,false,Rx,1,8,03,49,29,11,00,0C,40,FF,
91910621,0000042C,false,Rx,1,8,42,60,00,00,64,00,00,00,
91913450,0000045C,false,Rx,1,8,12,8C,15,0E,00,00,1E,8C,
91931805,00000368,false,Rx,1,8,03,49,29,11,00,0C,40,FF,
92010622,0000042C,false,Rx,1,8,42,60,00,00,64,00,00,00,
92013443,0000045C,false,Rx,1,8,0F,8C,15,0E,00,00,11,8C,
92031798,00000368,false,Rx,1,8,03,49,29,11,00,0C,40,FF,
92110615,0000042C,false,Rx,1,8,42,60,00,00,64,00,00,00,
92113444,0000045C,false,Rx,1,8,0E,8C,15,0E,00,00,11,8C,
92131841,00000368,false,Rx,1,8,03,49,29,11,00,0C,40,FF,
92210739,0000042C,false,Rx,1,8,42,60,00,00,64,00,00,00,
92213561,0000045C,false,Rx,1,8,0D,8C,15,0E,00,00,03,8C,
92231795,00000368,false,Rx,1,8,03,49,29,11,00,0C,40,FF,
92310621,0000042C,false,Rx,1,8,42,60,00,00,64,00,00,00,
92313441,0000045C,false,Rx,1,8,0D,8C,15,0E,00,00,05,8C,
92331790,00000368,false,Rx,1,8,03,49,29,11,00,0C,40,FF,
92410613,0000042C,false,Rx,1,8,42,60,00,00,64,00,00,00,
92413685,0000045C,false,Rx,1,8,12,8C,15,0E,00,00,1F,8C,
92431784,00000368,false,Rx,1,8,03,49,29,11,00,0C,40,FF,
92510615,0000042C,false,Rx,1,8,42,60,00,00,64,00,00,00,
92513434,0000045C,false,Rx,1,8,13,8C,15,0E,00,00,1F,8C,
92531781,00000368,false,Rx,1,8,03,49,29,11,00,0C,40,FF,
92610610,0000042C,false,Rx,1,8,42,60,00,00,64,00,00,00,
92613435,0000045C,false,Rx,1,8,15,8C,15,0E,00,00,13,8C,
92631779,00000368,false,Rx,1,8,03,49,29,11,00,0C,40,FF,
92710608,0000042C,false,Rx,1,8,42,60,00,00,64,00,00,00,
92713435,0000045C,false,Rx,1,8,12,8C,15,0E,00,00,14,8C,
92731773,00000368,false,Rx,1,8,03,49,29,11,00,0C,40,FF,
92810604,0000042C,false,Rx,1,8,42,60,00,00,64,00,00,00,
92813682,0000045C,false,Rx,1,8,10,8C,15,0E,00,00,08,8C,
92831502,00000368,false,Rx,1,8,03,49,29,11,00,0C,40,FF,
92910607,0000042C,false,Rx,1,8,42,60,00,00,64,00,00,00,
92913433,0000045C,false,Rx,1,8,10,8C,15,0E,00,00,06,8C,
92931772,00000368,false,Rx,1,8,03,49,29,11,00,0C,40,FF,
93010600,0000042C,false,Rx,1,8,42,60,00,00,64,00,00,00,
93013425,0000045C,false,Rx,1,8,14,8C,15,0E,00,00,13,8C,
93031761,00000368,false,Rx,1,8,03,49,29,11,00,0C,40,FF,
93110602,0000042C,false,Rx,1,8,42,60,00,00,64,00,00,00,
93113427,0000045C,false,Rx,1,8,14,8C,15,0E,00,00,11,8C,
93131852,00000368,false,Rx,1,8,03,49,29,11,00,0C,40,FF,
93210600,0000042C,false,Rx,1,8,42,60,00,00,64,00,00,00,
93213426,0000045C,false,Rx,1,8,13,8C,15,0E,00,00,11,8C,
93231756,00000368,false,Rx,1,8,03,49,29,11,00,0C,40,FF,
93310605,0000042C,false,Rx,1,8,42,60,00,00,64,00,00,00,
93313424,0000045C,false,Rx,1,8,0D,8C,15,0E,00,00,1E,8C,
93331755,00000368,false,Rx,1,8,03,49,29,11,00,0C,40,FF,
93410844,0000042C,false,Rx,1,8,42,60,00,00,64,00,00,00,
93413667,0000045C,false,Rx,1,8,0E,8C,15,0E,00,00,11,8C,
93431786,00000368,false,Rx,1,8,03,49,29,11,00,0C,40,FF,
93510595,0000042C,false,Rx,1,8,42,60,00,00,64,00,00,00,
93513290,0000045C,false,Rx,1,8,0F,8C,15,0E,00,00,13,8C,
93531751,00000368,false,Rx,1,8,03,49,29,11,00,0C,40,FF,
93610590,0000042C,false,Rx,1,8,42,60,00,00,64,00,00,00,
93613413,0000045C,false,Rx,1,8,0E,8C,15,0E,00,00,11,8C,
93631784,00000368,false,Rx,1,8,03,49,29,11,00,0C,40,FF,
93710592,0000042C,false,Rx,1,8,42,60,00,00,64,00,00,00,
93713416,0000045C,false,Rx,1,8,0E,8C,15,0E,00,00,14,8C,
93731793,00000368,false,Rx,1,8,03,49,29,11,00,0C,40,FF,
93810589,0000042C,false,Rx,1,8,42,60,00,00,64,00,00,00,
93813680,0000045C,false,Rx,1,8,12,8C,15,0E,00,00,08,8C,
93831481,00000368,false,Rx,1,8,03,49,29,11,00,0C,40,FF,
93910589,0000042C,false,Rx,1,8,42,60,00,00,64,00,00,00,
93913420,0000045C,false,Rx,1,8,0F,8C,15,0E,00,00,06,8C,
93931783,00000368,false,Rx,1,8,03,49,29,11,00,0C,40,FF,
94010589,0000042C,false,Rx,1,8,42,60,00,00,64,00,00,00,
94013405,0000045C,false,Rx,1,8,10,8C,15,0E,00,00,11,8C,
94031793,00000368,false,Rx,1,8,03,49,29,11,00,0C,40,FF,
94110589,0000042C,false,Rx,1,8,42,60,00,00,64,00,00,00,
94113412,0000045C,false,Rx,1,8,0D,8C,15,0E,00,00,08,8C,
94131861,00000368,false,Rx,1,8,03,49,29,11,00,0C,40,FF,
94210587,0000042C,false,Rx,1,8,42,60,00,00,64,00,00,00,
94213405,0000045C,false,Rx,1,8,0E,8C,15,0E,00,00,FD,8B,
94231780,00000368,false,Rx,1,8,03,49,29,11,00,0C,40,FF,
94310589,0000042C,false,Rx,1,8,42,60,00,00,64,00,00,00,
94313412,0000045C,false,Rx,1,8,11,8C,15,0E,00,00,14,8C,
94331796,00000368,false,Rx,1,8,03,49,29,11,00,0C,40,FF,
94410617,0000042C,false,Rx,1,8,42,60,00,00,64,00,00,00,
94413441,0000045C,false,Rx,1,8,10,8C,15,0E,00,00,06,8C,
94431781,00000368,false,Rx,1,8,03,49,29,11,00,0C,40,FF,
94510576,0000042C,false,Rx,1,8,42,60,00,00,64,00,00,00,
94513271,0000045C,false,Rx,1,8,14,8C,15,0E,00,00,16,8C,
94531934,00000368,false,Rx,1,8,03,49,29,11,00,0C,40,FF,
94610578,0000042C,false,Rx,1,8,42,60,00,00,64,00,00,00,
94613400,0000045C,false,Rx,1,8,10,8C,15,0E,00,00,16,8C,
94631779,00000368,false,Rx,1,8,03,49,29,11,00,0C,40,FF,
94710574,0000042C,false,Rx,1,8,42,60,00,00,64,00,00,00,
94713397,0000045C,false,Rx,1,8,10,8C,15,0E,00,00,11,8C,
94731774,00000368,false,Rx,1,8,03,49,29,11,00,0C,40,FF,
94810575,0000042C,false,Rx,1,8,42,60,00,00,64,00,00,00,
94813654,0000045C,false,Rx,1,8,11,8C,15,0E,00,00,06,8C,
94831468,00000368,false,Rx,1,8,03,49,29,11,00,0C,40,FF,
94910575,0000042C,false,Rx,1,8,42,60,00,00,64,00,00,00,
94913397,0000045C,false,Rx,1,8,0F,8C,15,0E,00,00,05,8C,
94931769,00000368,false,Rx,1,8,03,49,29,11,00,0C,40,FF,
95010572,0000042C,false,Rx,1,8,42,60,00,00,64,00,00,00,
95013395,0000045C,false,Rx,1,8,0F,8C,15,0E,00,00,1F,8C,
95031761,00000368,false,Rx,1,8,03,49,29,11,00,0C,40,FF,
95110567,0000042C,false,Rx,1,8,42,60,00,00,64,00,00,00,
95113391,0000045C,false,Rx,1,8,16,8C,15,0E,00,00,21,8C,
95131949,00000368,false,Rx,1,8,03,49,29,11,00,0C,40,FF,
95210567,0000042C,false,Rx,1,8,42,60,00,00,64,00,00,00,
95213391,0000045C,false,Rx,1,8,12,8C,15,0E,00,00,13,8C,
95231754,00000368,false,Rx,1,8,03,49,29,11,00,0C,40,FF,
95310573,0000042C,false,Rx,1,8,42,60,00,00,64,00,00,00,
95313400,0000045C,false,Rx,1,8,0D,8C,15,0E,00,00,05,8C,
95331758,00000368,false,Rx,1,8,03,49,29,11,00,0C,40,FF,
95410566,0000042C,false,Rx,1,8,42,60,00,00,64,00,00,00,
95413389,0000045C,false,Rx,1,8,0F,8C,15,0E,00,00,1F,8C,
95431756,00000368,false,Rx,1,8,03,49,29,11,00,0C,40,FF,
95510562,0000042C,false,Rx,1,8,42,60,00,00,64,00,00,00,
95513387,0000045C,false,Rx,1,8,11,8C,15,0E,00,00,11,8C,
95531302,00000368,false,Rx,1,8,03,49,29,11,00,0C,40,FF,
95610560,0000042C,false,Rx,1,8,42,60,00,00,64,00,00,00,
95613377,0000045C,false,Rx,1,8,10,8C,15,0E,00,00,21,8C,
95631740,00000368,false,Rx,1,8,03,49,29,11,00,0C,40,FF,
95710557,0000042C,false,Rx,1,8,42,60,00,00,64,00,00,00,
95713381,0000045C,false,Rx,1,8,13,8C,15,0E,00,00,06,8C,
95731739,00000368,false,Rx,1,8,03,49,29,11,00,0C,40,FF,
95810553,0000042C,false,Rx,1,8,42,60,00,00,64,00,00,00,
95813631,0000045C,false,Rx,1,8,0E,8C,15,0E,00,00,06,8C,
95831666,00000368,false,Rx,1,8,03,49,29,11,00,0C,40,FF,
95910558,0000042C,false,Rx,1,8,42,60,00,00,64,00,00,00,
95913378,0000045C,false,Rx,1,8,11,8C,15,0E,00,00,08,8C,
95931402,00000368,false,Rx,1,8,03,49,29,11,00,0C,40,FF,
96010556,0000042C,false,Rx,1,8,42,60,00,00,64,00,00,00,
96013376,0000045C,false,Rx,1,8,11,8C,15,0E,00,00,16,8C,
96031728,00000368,false,Rx,1,8,03,49,29,11,00,0C,40,FF,
96110551,0000042C,false,Rx,1,8,42,60,00,00,64,00,00,00,
96113380,0000045C,false,Rx,1,8,14,8C,15,0E,00,00,16,8C,
96131786,00000368,false,Rx,1,8,03,49,29,11,00,0C,40,FF,
96210548,0000042C,false,Rx,1,8,42,60,00,00,64,00,00,00,
96213376,0000045C,false,Rx,1,8,13,8C,15,0E,00,00,14,8C,
96231720,00000368,false,Rx,1,8,03,49,29,11,00,0C,40,FF,
96310552,0000042C,false,Rx,1,8,42,60,00,00,68,00,00,00,
96313372,0000045C,false,Rx,1,8,0F,8C,15,0E,00,00,13,8C,
96331647,00000368,false,Rx,1,8,03,49,29,11,00,0C,40,FF,
96410552,0000042C,false,Rx,1,8,42,60,00,00,69,00,00,00,
96413373,0000045C,false,Rx,1,8,10,8C,15,0E,00,00,06,8C,
96431716,00000368,false,Rx,1,8,03,49,29,11,00,0C,40,FF,
96510544,0000042C,false,Rx,1,8,42,60,00,00,6D,00,00,00,
96513364,0000045C,false,Rx,1,8,12,8C,15,0E,00,00,14,8C,
96531707,00000368,false,Rx,1,8,03,49,29,11,00,0C,40,FF,
96610553,0000042C,false,Rx,1,8,42,60,00,00,6D,00,00,00,
96613395,0000045C,false,Rx,1,8,13,8C,15,0E,00,00,1F,8C,
96631710,00000368,false,Rx,1,8,03,49,29,11,00,0C,40,FF,
96710556,0000042C,false,Rx,1,8,42,C4,00,00,6D,00,00,00,
96713397,0000045C,false,Rx,1,8,11,8C,15,0E,00,00,16,8C,
96731660,00000368,false,Rx,1,8,03,49,29,11,00,0C,40,FF,
96810551,0000042C,false,Rx,1,8,42,C4,00,00,6D,00,00,00,
96813616,0000045C,false,Rx,1,8,11,8C,15,0E,00,00,08,8C,
96831629,00000368,false,Rx,1,8,03,49,29,11,00,0C,40,FF,
96910551,0000042C,false,Rx,1,8,42,C4,00,00,6D,00,00,00,
96913390,0000045C,false,Rx,1,8,11,8C,15,0E,00,00,08,8C,
96931694,00000368,false,Rx,1,8,03,49,29,11,00,0C,40,FF,
97010552,0000042C,false,Rx,1,8,42,C4,00,00,6D,00,00,00,
97013385,0000045C,false,Rx,1,8,11,8C,15,0E,00,00,11,8C,
97031693,00000368,false,Rx,1,8,03,49,29,11,00,0C,40,FF,
97110544,0000042C,false,Rx,1,8,42,C4,00,00,6D,00,00,00,
97113385,0000045C,false,Rx,1,8,0D,8C,15,0E,00,00,08,8C,
97131766,00000368,false,Rx,1,8,03,49,29,11,00,0C,40,FF,
97210006,0000042C,false,Rx,1,8,42,C4,00,00,6D,00,00,00,
97210974,0000042C,false,Rx,1,8,42,C4,00,00,6D,00,00,00,
97213777,0000045C,false,Rx,1,8,15,8C,15,2E,00,00,14,8C,
97231691,00000368,false,Rx,1,8,03,49,29,11,00,0C,40,FF,
97310540,0000042C,false,Rx,1,8,42,C4,00,00,6C,00,00,00,
97313380,0000045C,false,Rx,1,8,15,8C,15,2E,00,00,13,8C,
97331686,00000368,false,Rx,1,8,03,49,29,11,00,0C,40,FF,
97410072,0000042C,false,Rx,1,8,42,C4,00,00,6C,00,00,00,
97413340,0000045C,false,Rx,1,8,F8,8F,14,2E,00,00,05,8C,
97431682,00000368,false,Rx,1,8,03,49,29,11,00,0C,40,FF,
97509841,0000042C,false,Rx,1,8,42,C4,00,00,FC,00,00,00,
97513199,0000045C,false,Rx,1,8,F6,8F,14,2E,00,00,16,8C,
97531671,00000368,false,Rx,1,8,03,49,29,11,00,0C,40,FF,
97609876,0000042C,false,Rx,1,8,42,C4,00,00,FC,00,00,00,
97613332,0000045C,false,Rx,1,8,FC,8F,14,2E,00,00,16,8C,
97631672,00000368,false,Rx,1,8,03,49,29,11,00,0C,40,FF,
97709878,0000042C,false,Rx,1,8,42,C4,00,00,FC,00,00,00,
97713328,0000045C,false,Rx,1,8,FA,8F,14,2E,00,00,14,8C,
97731670,00000368,false,Rx,1,8,03,49,29,11,00,0C,40,FF,
97809862,0000042C,false,Rx,1,8,42,C4,00,00,FC,00,00,00,
97813447,0000045C,false,Rx,1,8,FB,8F,14,2E,00,00,2D,8C,
97831354,00000368,false,Rx,1,8,03,49,29,11,00,0C,40,FF,
97909527,0000042C,false,Rx,1,8,42,C4,00,00,FC,00,00,00,
97913332,0000045C,false,Rx,1,8,00,90,14,2E,00,00,1F,8C,
97931664,00000368,false,Rx,1,8,03,49,29,11,00,0C,40,FF,
98009521,0000042C,false,Rx,1,8,42,C4,00,00,FC,00,00,00,
98013337,0000045C,false,Rx,1,8,00,90,14,2E,00,00,1E,8C,
98031255,00000368,false,Rx,1,8,03,49,29,11,00,0C,40,FF,
98109880,0000042C,false,Rx,1,8,42,C4,00,00,FC,00,00,00,
98113327,0000045C,false,Rx,1,8,FB,8F,14,2E,00,00,10,8C,
98131716,00000368,false,Rx,1,8,03,49,29,11,00,0C,40,FF,
98209915,0000042C,false,Rx,1,8,42,C4,00,00,FC,00,00,00,
98213316,0000045C,false,Rx,1,8,FC,8F,14,2E,00,00,1E,8C,
98231334,00000368,false,Rx,1,8,03,49,29,11,00,0C,40,FF,
98309669,0000042C,false,Rx,1,8,42,C4,00,00,FC,00,00,00,
98313314,0000045C,false,Rx,1,8,F9,8F,14,2E,00,00,05,8C,
98331648,00000368,false,Rx,1,8,03,49,29,11,00,0C,40,FF,
98409742,0000042C,false,Rx,1,8,42,C4,00,00,FC,00,00,00,
98413318,0000045C,false,Rx,1,8,FC,8F,14,2E,00,00,06,8C,
98431579,00000368,false,Rx,1,8,03,49,29,11,00,0C,40,FF,
98509317,0000042C,false,Rx,1,8,42,C4,00,00,FC,00,00,00,
98513319,0000045C,false,Rx,1,8,F6,8F,14,2E,00,00,14,8C,
98531642,00000368,false,Rx,1,8,03,49,29,11,00,0C,40,FF,
98609329,0000042C,false,Rx,1,8,42,C4,00,00,FC,00,00,00,
98613313,0000045C,false,Rx,1,8,FB,8F,14,2E,00,00,FA,8B,
98631570,00000368,false,Rx,1,8,03,49,29,11,00,0C,40,FF,
98709302,0000042C,false,Rx,1,8,42,C4,00,00,FC,00,00,00,
98713301,0000045C,false,Rx,1,8,FD,8F,14,2E,00,00,14,8C,
98731633,00000368,false,Rx,1,8,03,49,29,11,00,0C,40,FF,
98808980,0000042C,false,Rx,1,8,42,C4,00,00,FC,00,00,00,
98813408,0000045C,false,Rx,1,8,FE,8F,14,2E,00,00,16,8C,
98831564,00000368,false,Rx,1,8,03,49,29,11,00,0C,40,FF,
98908743,0000042C,false,Rx,1,8,42,C4,00,00,FC,00,00,00,
98913281,0000045C,false,Rx,1,8,FD,8F,14,2E,00,00,21,8C,
98931624,00000368,false,Rx,1,8,03,49,29,11,00,0C,40,FF,
99009287,0000042C,false,Rx,1,8,42,C4,00,00,FC,00,00,00,
99013287,0000045C,false,Rx,1,8,FD,8F,14,2E,00,00,16,8C,
99031588,00000368,false,Rx,1,8,03,49,29,11,00,0C,40,FF,
99109296,0000042C,false,Rx,1,8,42,C4,00,00,FC,00,00,00,
99113287,0000045C,false,Rx,1,8,FE,8F,14,2E,00,00,21,8C,
99131680,00000368,false,Rx,1,8,03,49,29,11,00,0C,40,FF,
99209705,0000042C,false,Rx,1,8,42,C4,00,00,FC,00,00,00,
99213289,0000045C,false,Rx,1,8,04,90,14,2E,00,00,16,8C,
99231630,00000368,false,Rx,1,8,03,49,29,11,00,0C,40,FF,
99309299,0000042C,false,Rx,1,8,42,C4,00,00,FC,00,00,00,
99313284,0000045C,false,Rx,1,8,FB,8F,14,2E,00,00,23,8C,
99331616,00000368,false,Rx,1,8,03,49,29,11,00,0C,40,FF,
99409708,0000042C,false,Rx,1,8,42,C4,00,00,FC,00,00,00,
99413282,0000045C,false,Rx,1,8,FF,8F,14,2E,00,00,08,8C,
99431611,00000368,false,Rx,1,8,03,49,29,11,00,0C,40,FF,
99509282,0000042C,false,Rx,1,8,42,C4,00,00,FC,00,00,00,
99513320,0000045C,false,Rx,1,8,FC,8F,14,2E,00,00,08,8C,
99531608,00000368,false,Rx,1,8,03,49,29,11,00,0C,40,FF,
99609279,0000042C,false,Rx,1,8,42,C4,00,00,FC,00,00,00,
99613280,0000045C,false,Rx,1,8,FD,8F,14,2E,00,00,13,8C,
99631604,00000368,false,Rx,1,8,03,49,29,11,00,0C,40,FF,
99709275,0000042C,false,Rx,1,8,42,C4,00,00,FC,00,00,00,
99713274,0000045C,false,Rx,1,8,FB,8F,14,2E,00,00,08,8C,
99731597,00000368,false,Rx,1,8,03,49,29,11,00,0C,40,FF,
99809271,0000042C,false,Rx,1,8,42,C4,00,00,FC,00,00,00,
99813403,0000045C,false,Rx,1,8,FC,8F,14,2E,00,00,14,8C,
99831551,00000368,false,Rx,1,8,03,49,29,11,00,0C,40,FF,
99909283,0000042C,false,Rx,1,8,42,C4,00,00,FC,00,00,00,
99913281,0000045C,false,Rx,1,8,FB,8F,14,2E,00,00,14,8C,
99931589,00000368,false,Rx,1,8,03,49,29,11,00,0C,40,FF,
100009277,0000042C,false,Rx,1,8,42,C4,00,00,FC,00,00,00,
100013277,0000045C,false,Rx,1,8,FC,8F,14,2E,00,00,20,8C,
100031597,00000368,false,Rx,1,8,03,49,29,11,00,0C,40,FF,
100109266,0000042C,false,Rx,1,8,42,C4,00,00,FC,00,00,00,
100113266,0000045C,false,Rx,1,8,FE,8F,14,2E,00,00,21,8C,
100131641,00000368,false,Rx,1,8,03,49,29,11,00,0C,40,FF,
100209484,0000042C,false,Rx,1,8,42,C4,00,00,FC,00,00,00,
100213578,0000042C,false,Rx,1,8,42,C4,00,00,FC,00,00,00,
100214288,0000045C,false,Rx,1,8,01,90,14,2E,00,00,13,8C,
100231581,00000368,false,Rx,1,8,03,49,29,11,00,0C,40,FF,
100313805,0000042C,false,Rx,1,8,42,C4,00,00,FC,00,00,00,
100314529,0000045C,false,Rx,1,8,01,90,14,2E,00,00,0A,8C,
100331583,00000368,false,Rx,1,8,03,49,29,11,00,0C,40,FF,
100413553,0000042C,false,Rx,1,8,42,C4,00,00,FC,00,00,00,
100414279,0000045C,false,Rx,1,8,FF,8F,14,2E,00,00,16,8C,
100431580,00000368,false,Rx,1,8,03,49,29,11,00,0C,40,FF,
100513555,0000042C,false,Rx,1,8,42,C4,00,00,FC,00,00,00,
100514281,0000045C,false,Rx,1,8,FF,8F,14,2E,00,00,13,8C,
100531575,00000368,false,Rx,1,8,03,49,29,11,00,0C,40,FF,
100613551,0000042C,false,Rx,1,8,42,C4,00,00,FC,00,00,00,
100614512,0000045C,false,Rx,1,8,FC,8F,14,2E,00,00,14,8C,
100631571,00000368,false,Rx,1,8,03,49,29,11,00,0C,40,FF,
100710478,0000042C,false,Rx,1,8,42,C4,00,00,FC,00,00,00,
100713761,0000042C,false,Rx,1,8,42,C4,00,00,FC,00,00,00,
100714492,0000045C,false,Rx,1,8,00,90,14,2E,00,00,08,8C,
100731567,00000368,false,Rx,1,8,03,49,29,11,00,0C,40,FF,
100813800,0000042C,false,Rx,1,8,42,C4,00,00,FC,00,00,00,
100814532,0000045C,false,Rx,1,8,00,90,14,2E,00,00,06,8C,
100831545,00000368,false,Rx,1,8,03,49,29,11,00,0C,40,FF,
100914024,0000042C,false,Rx,1,8,42,C4,00,00,FE,00,00,00,
100914985,0000045C,false,Rx,1,8,FD,8F,14,2E,00,00,23,8C,
100931557,00000368,false,Rx,1,8,03,49,29,11,00,0C,40,FF,
101013538,0000042C,false,Rx,1,8,42,C4,00,00,FE,00,00,00,
101014263,0000045C,false,Rx,1,8,FF,8F,14,2E,00,00,08,8C,
101031488,00000368,false,Rx,1,8,03,49,29,11,00,0C,40,FF,
101113533,0000042C,false,Rx,1,8,42,C4,00,00,FE,00,00,00,
101114257,0000045C,false,Rx,1,8,FD,8F,14,2E,00,00,14,8C,
101131542,00000368,false,Rx,1,8,03,49,29,11,00,0C,40,FF,
101213540,0000042C,false,Rx,1,8,42,C4,00,00,FE,00,00,00,
101214256,0000045C,false,Rx,1,8,FD,8F,14,2E,00,00,21,8C,
101231650,00000368,false,Rx,1,8,03,49,29,11,00,0C,40,FF,
101313779,0000042C,false,Rx,1,8,42,C4,00,00,FE,00,00,00,
101314503,0000045C,false,Rx,1,8,FF,8F,14,2E,00,00,13,8C,
101331755,00000368,false,Rx,1,8,03,49,29,11,00,0C,40,FF,
101413525,0000042C,false,Rx,1,8,42,C4,00,00,FE,00,00,00,
101414245,0000045C,false,Rx,1,8,FF,8F,14,2E,00,00,08,8C,
101432028,00000368,false,Rx,1,8,03,49,29,11,00,0C,40,FF,
101513536,0000042C,false,Rx,1,8,42,C4,00,00,FE,00,00,00,
101514255,0000045C,false,Rx,1,8,FD,8F,14,2E,00,00,21,8C,
101532131,00000368,false,Rx,1,8,03,49,29,11,00,0C,40,FF,
101613531,0000042C,false,Rx,1,8,42,C4,00,00,FE,00,00,00,
101614500,0000045C,false,Rx,1,8,01,90,14,2E,00,00,2D,8C,
101632131,00000368,false,Rx,1,8,03,49,29,11,00,0C,40,FF,
101713527,0000042C,false,Rx,1,8,42,C4,00,00,FE,00,00,00,
101714251,0000045C,false,Rx,1,8,FD,8F,14,2E,00,00,06,8C,
101732364,00000368,false,Rx,1,8,03,49,29,11,00,0C,40,FF,
101813783,0000042C,false,Rx,1,8,42,C4,00,00,FE,00,00,00,
101814507,0000045C,false,Rx,1,8,FE,8F,14,2E,00,00,21,8C,
101831524,00000368,false,Rx,1,8,03,49,29,11,00,0C,40,FF,
101913528,0000042C,false,Rx,1,8,42,C4,00,00,FE,00,00,00,
101914262,0000045C,false,Rx,1,8,00,90,14,2E,00,00,13,8C,
101931524,00000368,false,Rx,1,8,03,49,29,11,00,0C,40,FF,
102013523,0000042C,false,Rx,1,8,42,C4,00,00,FE,00,00,00,
102014242,0000045C,false,Rx,1,8,F9,8F,14,2E,00,00,16,8C,
102031518,00000368,false,Rx,1,8,03,49,29,11,00,0C,40,FF,
102113529,0000042C,false,Rx,1,8,42,C4,00,00,FE,00,00,00,
102114248,0000045C,false,Rx,1,8,FE,8F,14,2E,00,00,21,8C,
102131579,00000368,false,Rx,1,8,03,49,29,11,00,0C,40,FF,
102213524,0000042C,false,Rx,1,8,42,C4,00,00,FE,00,00,00,
102214249,0000045C,false,Rx,1,8,00,90,14,2E,00,00,21,8C,
102231511,00000368,false,Rx,1,8,03,49,29,11,00,0C,40,FF,
102313766,0000042C,false,Rx,1,8,42,C4,00,00,FE,00,00,00,
102314498,0000045C,false,Rx,1,8,FB,8F,14,2E,00,00,08,8C,
102331513,00000368,false,Rx,1,8,03,49,29,11,00,0C,40,FF,
102413510,0000042C,false,Rx,1,8,42,C4,00,00,FE,00,00,00,
102414236,0000045C,false,Rx,1,8,FA,8F,14,2E,00,00,FC,8B,
102431506,00000368,false,Rx,1,8,03,49,29,11,00,0C,40,FF,
102513521,0000042C,false,Rx,1,8,42,C4,00,00,FE,00,00,00,
102514245,0000045C,false,Rx,1,8,FA,8F,14,2E,00,00,14,8C,
102531505,00000368,false,Rx,1,8,03,49,29,11,00,0C,40,FF,
102613515,0000042C,false,Rx,1,8,42,C4,00,00,FE,00,00,00,
102614477,0000045C,false,Rx,1,8,FE,8F,14,2E,00,00,14,8C,
102631502,00000368,false,Rx,1,8,03,49,29,11,00,0C,40,FF,
102713511,0000042C,false,Rx,1,8,42,C4,00,00,FE,00,00,00,
102714236,0000045C,false,Rx,1,8,FD,8F,14,2E,00,00,14,8C,
102731497,00000368,false,Rx,1,8,03,49,29,11,00,0C,40,FF,
102813769,0000042C,false,Rx,1,8,42,C4,00,00,FE,00,00,00,
102814493,0000045C,false,Rx,1,8,FB,8F,14,2E,00,00,08,8C,
102831509,00000368,false,Rx,1,8,03,49,29,11,00,0C,40,FF,
102913514,0000042C,false,Rx,1,8,42,C4,00,00,FE,00,00,00,
102914231,0000045C,false,Rx,1,8,FA,8F,14,2E,00,00,21,8C,
102931489,00000368,false,Rx,1,8,03,49,29,11,00,0C,40,FF,
103013504,0000042C,false,Rx,1,8,42,C4,00,00,FE,00,00,00,
103014229,0000045C,false,Rx,1,8,FE,8F,14,2E,00,00,08,8C,
103031486,00000368,false,Rx,1,8,03,49,29,11,00,0C,40,FF,
103113516,0000042C,false,Rx,1,8,42,C4,00,00,FE,00,00,00,
103114234,0000045C,false,Rx,1,8,FF,8F,14,2E,00,00,11,8C,
103131539,00000368,false,Rx,1,8,03,49,29,11,00,0C,40,FF,
103213504,0000042C,false,Rx,1,8,42,C4,00,00,FE,00,00,00,
103214229,0000045C,false,Rx,1,8,F9,8F,14,2E,00,00,08,8C,
103231475,00000368,false,Rx,1,8,03,49,29,11,00,0C,40,FF,
103313753,0000042C,false,Rx,1,8,42,C4,00,00,FE,00,00,00,
103314485,0000045C,false,Rx,1,8,F9,8F,14,2E,00,00,14,8C,
103331473,00000368,false,Rx,1,8,03,49,29,11,00,0C,40,FF,
103413503,0000042C,false,Rx,1,8,42,C4,00,00,FE,00,00,00,
103414228,0000045C,false,Rx,1,8,FA,8F,14,2E,00,00,16,8C,
103431471,00000368,false,Rx,1,8,03,49,29,11,00,0C,40,FF,
103513505,0000042C,false,Rx,1,8,42,C4,00,00,FE,00,00,00,
103514230,0000045C,false,Rx,1,8,FA,8F,14,2E,00,00,14,8C,
103531473,00000368,false,Rx,1,8,03,49,29,11,00,0C,40,FF,
103613501,0000042C,false,Rx,1,8,42,C4,00,00,FE,00,00,00,
103614463,0000045C,false,Rx,1,8,FD,8F,14,2E,00,00,21,8C,
103631468,00000368,false,Rx,1,8,03,49,29,11,00,0C,40,FF,
103713498,0000042C,false,Rx,1,8,42,C4,00,00,FE,00,00,00,
103714216,0000045C,false,Rx,1,8,FB,8F,14,2E,00,00,18,8C,
103731464,00000368,false,Rx,1,8,03,49,29,11,00,0C,40,FF,
103813752,0000042C,false,Rx,1,8,42,C4,00,00,FE,00,00,00,
103814468,0000045C,false,Rx,1,8,FF,8F,14,2E,00,00,08,8C,
103831486,00000368,false,Rx,1,8,03,49,29,11,00,0C,40,FF,
103913493,0000042C,false,Rx,1,8,42,C4,00,00,FE,00,00,00,
103914210,0000045C,false,Rx,1,8,FF,8F,14,2E,00,00,13,8C,
103931452,00000368,false,Rx,1,8,03,49,29,11,00,0C,40,FF,
104013488,0000042C,false,Rx,1,8,42,C4,00,00,FE,00,00,00,
104014214,0000045C,false,Rx,1,8,F9,8F,14,2E,00,00,1E,8C,
104031455,00000368,false,Rx,1,8,03,49,29,11,00,0C,40,FF,
104113504,0000042C,false,Rx,1,8,42,C4,00,00,FE,00,00,00,
104114227,0000045C,false,Rx,1,8,FB,8F,14,2E,00,00,13,8C,
104131508,00000368,false,Rx,1,8,03,49,29,11,00,0C,40,FF,
104213490,0000042C,false,Rx,1,8,42,C4,00,00,FE,00,00,00,
104214215,0000045C,false,Rx,1,8,00,90,14,2E,00,00,2A,8C,
104231445,00000368,false,Rx,1,8,03,49,29,11,00,0C,40,FF,
104313730,0000042C,false,Rx,1,8,42,C4,00,00,FE,00,00,00,
104314454,0000045C,false,Rx,1,8,FD,8F,14,2E,00,00,1C,8C,
104331462,00000368,false,Rx,1,8,03,49,29,11,00,0C,40,FF,
104413480,0000042C,false,Rx,1,8,42,C4,00,00,FE,00,00,00,
104414205,0000045C,false,Rx,1,8,FB,8F,14,2E,00,00,13,8C,
104431438,00000368,false,Rx,1,8,03,49,29,11,00,0C,40,FF,
104513490,0000042C,false,Rx,1,8,42,C4,00,00,FE,00,00,00,
104514215,0000045C,false,Rx,1,8,FB,8F,14,2E,00,00,08,8C,
104531433,00000368,false,Rx,1,8,03,49,29,11,00,0C,40,FF,
104613480,0000042C,false,Rx,1,8,42,C4,00,00,FE,00,00,00,
104614441,0000045C,false,Rx,1,8,FC,8F,14,2E,00,00,14,8C,
104631431,00000368,false,Rx,1,8,03,49,29,11,00,0C,40,FF,
104713485,0000042C,false,Rx,1,8,42,C4,00,00,FE,00,00,00,
104714210,0000045C,false,Rx,1,8,FB,8F,14,2E,00,00,05,8C,
104731426,00000368,false,Rx,1,8,03,49,29,11,00,0C,40,FF,
104813732,0000042C,false,Rx,1,8,42,C4,00,00,FE,00,00,00,
104814456,0000045C,false,Rx,1,8,FC,8F,14,2E,00,00,14,8C,
104831468,00000368,false,Rx,1,8,03,49,29,11,00,0C,40,FF,
104913479,0000042C,false,Rx,1,8,42,C4,00,00,FE,00,00,00,
104914204,0000045C,false,Rx,1,8,FA,8F,14,2E,00,00,1E,8C,
104931422,00000368,false,Rx,1,8,03,49,29,11,00,0C,40,FF,
105013695,0000042C,false,Rx,1,8,42,C4,00,00,FE,00,00,00,
105014419,0000045C,false,Rx,1,8,FA,8F,14,2E,00,00,11,8C,
105031417,00000368,false,Rx,1,8,03,49,29,11,00,0C,40,FF,
105113699,0000042C,false,Rx,1,8,42,C4,00,00,FE,00,00,00,
105114416,0000045C,false,Rx,1,8,FC,8F,14,2E,00,00,13,8C,
105131472,00000368,false,Rx,1,8,03,49,29,11,00,0C,40,FF,
105213693,0000042C,false,Rx,1,8,42,C4,00,00,FE,00,00,00,
105214418,0000045C,false,Rx,1,8,F8,8F,14,2E,00,00,08,8C,
105231410,00000368,false,Rx,1,8,03,49,29,11,00,0C,40,FF,
105313942,0000042C,false,Rx,1,8,42,C4,00,00,FE,00,00,00,
105314666,0000045C,false,Rx,1,8,F7,8F,14,2E,00,00,05,8C,
105331409,00000368,false,Rx,1,8,03,49,29,11,00,0C,40,FF,
105413467,0000042C,false,Rx,1,8,42,C4,00,00,FE,00,00,00,
105414413,0000045C,false,Rx,1,8,F9,8F,14,2E,00,00,11,8C,
105431400,00000368,false,Rx,1,8,03,49,29,11,00,0C,40,FF,
105513461,0000042C,false,Rx,1,8,42,C4,00,00,FE,00,00,00,
105514186,0000045C,false,Rx,1,8,FB,8F,14,2E,00,00,1F,8C,
105531406,00000368,false,Rx,1,8,03,49,29,11,00,0C,40,FF,
105613461,0000042C,false,Rx,1,8,42,C4,00,00,FE,00,00,00,
105614429,0000045C,false,Rx,1,8,FB,8F,14,2E,00,00,13,8C,
105631391,00000368,false,Rx,1,8,03,49,29,11,00,0C,40,FF,
105713457,0000042C,false,Rx,1,8,42,C4,00,00,FE,00,00,00,
105714174,0000045C,false,Rx,1,8,FD,8F,14,2E,00,00,21,8C,
105731391,00000368,false,Rx,1,8,03,49,29,11,00,0C,40,FF,
105813722,0000042C,false,Rx,1,8,42,C4,00,00,FE,00,00,00,
105814446,0000045C,false,Rx,1,8,F8,8F,14,2E,00,00,06,8C,
105831454,00000368,false,Rx,1,8,03,49,29,11,00,0C,40,FF,
105913459,0000042C,false,Rx,1,8,42,C4,00,00,FE,00,00,00,
105914184,0000045C,false,Rx,1,8,F8,8F,14,2E,00,00,0A,8C,
105931384,00000368,false,Rx,1,8,03,49,29,11,00,0C,40,FF,
106013459,0000042C,false,Rx,1,8,42,C4,00,00,FE,00,00,00,
106014184,0000045C,false,Rx,1,8,F8,8F,14,2E,00,00,FB,8B,
106031384,00000368,false,Rx,1,8,03,49,29,11,00,0C,40,FF,
106113467,0000042C,false,Rx,1,8,42,C4,00,00,FE,00,00,00,
106114192,0000045C,false,Rx,1,8,FC,8F,14,2E,00,00,14,8C,
106131440,00000368,false,Rx,1,8,03,49,29,11,00,0C,40,FF,
106213456,0000042C,false,Rx,1,8,42,C4,00,00,FE,00,00,00,
106214181,0000045C,false,Rx,1,8,FC,8F,14,2E,00,00,1E,8C,
106231605,00000368,false,Rx,1,8,03,49,29,11,00,0C,40,FF,
106313706,0000042C,false,Rx,1,8,42,C4,00,00,FE,00,00,00,
106314423,0000045C,false,Rx,1,8,F7,8F,14,2E,00,00,06,8C,
106331366,00000368,false,Rx,1,8,03,49,29,11,00,0C,40,FF,
106413446,0000042C,false,Rx,1,8,42,C4,00,00,FE,00,00,00,
106414171,0000045C,false,Rx,1,8,F8,8F,14,2E,00,00,16,8C,
106431366,00000368,false,Rx,1,8,03,49,29,11,00,0C,40,FF,
106513453,0000042C,false,Rx,1,8,42,C4,00,00,FE,00,00,00,
106514170,0000045C,false,Rx,1,8,F5,8F,14,2E,00,00,14,8C,
106531363,00000368,false,Rx,1,8,03,49,29,11,00,0C,40,FF,
106613456,0000042C,false,Rx,1,8,42,C4,00,00,FE,00,00,00,
106614418,0000045C,false,Rx,1,8,FA,8F,14,2E,00,00,14,8C,
106631359,00000368,false,Rx,1,8,03,49,29,11,00,0C,40,FF,
106713450,0000042C,false,Rx,1,8,42,C4,00,00,FE,00,00,00,
106714168,0000045C,false,Rx,1,8,F7,8F,14,2E,00,00,21,8C,
106731362,00000368,false,Rx,1,8,03,49,29,11,00,0C,40,FF,
106813700,0000042C,false,Rx,1,8,42,C4,00,00,FE,00,00,00,
106814416,0000045C,false,Rx,1,8,F8,8F,14,2E,00,00,0A,8C,
106831437,00000368,false,Rx,1,8,03,49,29,11,00,0C,40,FF,
106913449,0000042C,false,Rx,1,8,42,C4,00,00,FE,00,00,00,
106914167,0000045C,false,Rx,1,8,F9,8F,14,2E,00,00,0A,8C,
106931351,00000368,false,Rx,1,8,03,49,29,11,00,0C,40,FF,
107013438,0000042C,false,Rx,1,8,42,C4,00,00,FE,00,00,00,
107014164,0000045C,false,Rx,1,8,F7,8F,14,2E,00,00,13,8C,
107031346,00000368,false,Rx,1,8,03,49,29,11,00,0C,40,FF,
107113443,0000042C,false,Rx,1,8,42,C4,00,00,FE,00,00,00,
107114160,0000045C,false,Rx,1,8,F7,8F,14,2E,00,00,FC,8B,
107131556,00000368,false,Rx,1,8,03,49,29,11,00,0C,40,FF,
107213441,0000042C,false,Rx,1,8,42,C4,00,00,FE,00,00,00,
107214159,0000045C,false,Rx,1,8,F8,8F,14,2E,00,00,06,8C,
107231354,00000368,false,Rx,1,8,03,49,29,11,00,0C,40,FF,
107313691,0000042C,false,Rx,1,8,42,C4,00,00,FE,00,00,00,
107314415,0000045C,false,Rx,1,8,F8,8F,14,2E,00,00,06,8C,
107331683,00000368,false,Rx,1,8,03,49,29,11,00,0C,40,FF,
107413447,0000042C,false,Rx,1,8,42,C4,00,00,FE,00,00,00,
107414171,0000045C,false,Rx,1,8,F8,8F,14,2E,00,00,08,8C,
107432043,00000368,false,Rx,1,8,03,49,29,11,00,0C,40,FF,
107513435,0000042C,false,Rx,1,8,42,C4,00,00,FE,00,00,00,
107514151,0000045C,false,Rx,1,8,F6,8F,14,2E,00,00,21,8C,
107531659,00000368,false,Rx,1,8,03,49,29,11,00,0C,40,FF,
107613433,0000042C,false,Rx,1,8,42,C4,00,00,FE,00,00,00,
107614402,0000045C,false,Rx,1,8,F8,8F,14,2E,00,00,14,8C,
107631324,00000368,false,Rx,1,8,03,49,29,11,00,0C,40,FF,
107713433,0000042C,false,Rx,1,8,42,C4,00,00,FE,00,00,00,
107714159,0000045C,false,Rx,1,8,FA,8F,14,2E,00,00,16,8C,
107731323,00000368,false,Rx,1,8,03,49,29,11,00,0C,40,FF,
107813683,0000042C,false,Rx,1,8,42,C4,00,00,FE,00,00,00,
107814416,0000045C,false,Rx,1,8,FA,8F,14,2E,00,00,16,8C,
107831585,00000368,false,Rx,1,8,03,49,29,11,00,0C,40,FF,
107913430,0000042C,false,Rx,1,8,42,C4,00,00,FE,00,00,00,
107914155,0000045C,false,Rx,1,8,FB,8F,14,2E,00,00,05,8C,
107931316,00000368,false,Rx,1,8,03,49,29,11,00,0C,40,FF,
108013428,0000042C,false,Rx,1,8,42,C4,00,00,FE,00,00,00,
108014151,0000045C,false,Rx,1,8,F5,8F,14,2E,00,00,16,8C,
108031315,00000368,false,Rx,1,8,03,49,29,11,00,0C,40,FF,
108113424,0000042C,false,Rx,1,8,42,C4,00,00,FE,00,00,00,
108114149,0000045C,false,Rx,1,8,F9,8F,14,2E,00,00,06,8C,
108131494,00000368,false,Rx,1,8,03,49,29,11,00,0C,40,FF,
108213415,0000042C,false,Rx,1,8,42,C4,00,00,FE,00,00,00,
108214140,0000045C,false,Rx,1,8,FA,8F,14,2E,00,00,11,8C,
108231307,00000368,false,Rx,1,8,03,49,29,11,00,0C,40,FF,
108313655,0000042C,false,Rx,1,8,42,C4,00,00,FE,00,00,00,
108314380,0000045C,false,Rx,1,8,F9,8F,14,2E,00,00,08,8C,
108331535,00000368,false,Rx,1,8,03,49,29,11,00,0C,40,FF,
108413423,0000042C,false,Rx,1,8,42,C4,00,00,FE,00,00,00,
108414141,0000045C,false,Rx,1,8,F8,8F,14,2E,00,00,21,8C,
108431310,00000368,false,Rx,1,8,03,49,29,11,00,0C,40,FF,
108513409,0000042C,false,Rx,1,8,42,C4,5F,00,FE,00,00,00,
108514142,0000045C,false,Rx,1,8,FB,8F,14,2E,00,00,08,8C,
108531297,00000368,false,Rx,1,8,03,49,29,11,00,0C,40,FF,
108613409,0000042C,false,Rx,1,8,42,C4,24,01,FE,00,00,00,
108614370,0000045C,false,Rx,1,8,F9,8F,14,2E,00,00,14,8C,
108631298,00000368,false,Rx,1,8,03,49,29,11,00,0C,40,FF,
108713402,0000042C,false,Rx,1,8,42,C4,75,02,FE,00,00,00,
108714128,0000045C,false,Rx,1,8,FD,8F,14,2E,00,00,23,8C,
108731299,00000368,false,Rx,1,8,03,49,29,11,00,0C,40,FF,
108813665,0000042C,false,Rx,1,8,42,C4,07,03,FE,00,00,00,
108814389,0000045C,false,Rx,1,8,FD,8F,14,2E,00,00,0A,8C,
108832006,00000368,false,Rx,1,8,03,49,29,11,00,0C,40,FF,
108913401,0000042C,false,Rx,1,8,42,C4,2C,04,FE,00,00,00,
108914126,0000045C,false,Rx,1,8,FC,8F,14,2E,00,00,0B,8C,
108931456,00000368,false,Rx,1,8,03,49,29,11,00,0C,40,FF,
109013399,0000042C,false,Rx,1,8,42,C4,7D,05,FE,00,00,00,
109014124,0000045C,false,Rx,1,8,FE,8F,14,2E,00,00,23,8C,
109032140,00000368,false,Rx,1,8,03,49,29,11,00,0C,40,FF,
109113397,0000042C,false,Rx,1,8,42,C4,00,07,FE,00,00,00,
109114129,0000045C,false,Rx,1,8,00,90,14,2E,00,00,23,8C,
109132112,00000368,false,Rx,1,8,03,49,29,11,00,0C,40,FF,
109213393,0000042C,false,Rx,1,8,42,C4,B7,08,FE,00,00,00,
109214119,0000045C,false,Rx,1,8,00,90,14,2E,00,00,08,8C,
109232007,00000368,false,Rx,1,8,03,49,29,11,00,0C,40,FF,
109313386,0000042C,false,Rx,1,8,42,C4,CD,0A,FE,00,00,00,
109314110,0000045C,false,Rx,1,8,FF,8F,14,2E,00,00,16,8C,
109332000,00000368,false,Rx,1,8,03,49,29,11,00,0C,40,FF,
109413386,0000042C,false,Rx,1,8,42,C4,B0,0C,FE,00,00,00,
109414113,0000045C,false,Rx,1,8,FD,8F,14,2E,00,00,06,8C,
109431983,00000368,false,Rx,1,8,03,49,29,11,00,0C,40,FF,
109513387,0000042C,false,Rx,1,8,42,C4,C6,0E,FE,00,00,00,
109514112,0000045C,false,Rx,1,8,FD,8F,14,2E,00,00,16,8C,
109531985,00000368,false,Rx,1,8,03,49,29,11,00,0C,40,FF,
109613391,0000042C,false,Rx,1,8,42,C4,EE,10,FE,00,00,00,
109614359,0000045C,false,Rx,1,8,00,90,14,2E,00,00,23,8C,
109632054,00000368,false,Rx,1,8,03,49,29,11,00,0C,40,FF,
109713394,0000042C,false,Rx,1,8,42,C4,BF,12,FE,00,00,00,
109714127,0000045C,false,Rx,1,8,06,90,14,2E,00,00,21,8C,
109732014,00000368,false,Rx,1,8,03,49,29,11,00,0C,40,FF,
109813647,0000042C,false,Rx,1,8,42,C4,A8,14,FE,00,00,00,
109814372,0000045C,false,Rx,1,8,01,90,14,2E,00,00,3B,8C,
109831571,00000368,false,Rx,1,8,03,49,29,11,00,0C,40,FF,
109913385,0000042C,false,Rx,1,8,42,C4,8B,16,FE,00,00,00,
109914110,0000045C,false,Rx,1,8,09,90,14,2E,00,00,2D,8C,
109932964,00000368,false,Rx,1,8,03,49,29,11,00,0C,40,FF,
110013387,0000042C,false,Rx,1,8,42,C4,6E,18,FE,00,00,00,
110014111,0000045C,false,Rx,1,8,09,90,14,2E,00,00,2C,8C,
110032955,00000368,false,Rx,1,8,03,49,29,11,00,0C,40,FF,
110113393,0000042C,false,Rx,1,8,42,C4,6E,1A,FE,00,00,00,
110114126,0000045C,false,Rx,1,8,0C,90,14,2E,00,00,1F,8C,
110132446,00000368,false,Rx,1,8,03,49,29,11,00,0C,40,FF,
110213380,0000042C,false,Rx,1,8,42,C4,5A,1C,FE,00,00,00,
110214105,0000045C,false,Rx,1,8,0B,90,14,2E,00,00,21,8C,
110231435,00000368,false,Rx,1,8,03,49,29,11,00,0C,40,FF,
110313378,0000042C,false,Rx,1,8,42,C4,EB,1D,FE,00,00,00,
110314103,0000045C,false,Rx,1,8,10,90,14,2E,00,00,2C,8C,
110332385,00000368,false,Rx,1,8,03,49,29,11,00,0C,40,FF,
110413376,0000042C,false,Rx,1,8,42,C4,F7,1F,FE,00,00,00,
110414100,0000045C,false,Rx,1,8,13,90,14,2E,00,00,2D,8C,
110432008,00000368,false,Rx,1,8,03,49,29,11,00,0C,40,FF,
110513376,0000042C,false,Rx,1,8,42,C4,A9,21,FE,00,00,00,
110514101,0000045C,false,Rx,1,8,12,90,14,2E,00,00,2F,8C,
110532831,00000368,false,Rx,1,8,03,49,29,11,00,0C,40,FF,
110613376,0000042C,false,Rx,1,8,42,C4,C1,23,FE,00,00,00,
110614344,0000045C,false,Rx,1,8,17,90,14,2E,00,00,31,8C,
110632305,00000368,false,Rx,1,8,03,49,29,11,00,0C,40,FF,
110713378,0000042C,false,Rx,1,8,42,C4,7A,25,FE,00,00,00,
110714103,0000045C,false,Rx,1,8,15,90,14,2E,00,00,3B,8C,
110732254,00000368,false,Rx,1,8,03,49,29,11,00,0C,40,FF,
110813632,0000042C,false,Rx,1,8,42,C4,5F,27,FE,00,00,00,
110814357,0000045C,false,Rx,1,8,19,90,14,2E,00,00,2D,8C,
110832736,00000368,false,Rx,1,8,03,49,29,11,00,0C,40,FF,
110913380,0000042C,false,Rx,1,8,42,C4,4A,29,FE,00,00,00,
110914104,0000045C,false,Rx,1,8,1C,90,14,2E,00,00,2F,8C,
110932222,00000368,false,Rx,1,8,03,49,29,11,00,0C,40,FF,
111013376,0000042C,false,Rx,1,8,42,C4,2F,2B,FE,00,00,00,
111014101,0000045C,false,Rx,1,8,20,90,14,2E,00,00,3A,8C,
111032653,00000368,false,Rx,1,8,03,49,29,11,00,0C,40,FF,
111113378,0000042C,false,Rx,1,8,42,C4,15,2D,FE,00,00,00,
111114103,0000045C,false,Rx,1,8,20,90,14,2E,00,00,3A,8C,
111132646,00000368,false,Rx,1,8,03,49,29,11,00,0C,40,FF,
111213367,0000042C,false,Rx,1,8,42,C4,FA,2E,FE,00,00,00,
111214092,0000045C,false,Rx,1,8,22,90,14,2E,00,00,38,8C,
111232110,00000368,false,Rx,1,8,03,49,29,11,00,0C,40,FF,
111313366,0000042C,false,Rx,1,8,42,C4,E5,30,FE,00,00,00,
111314092,0000045C,false,Rx,1,8,24,90,14,2E,00,00,38,8C,
111332112,00000368,false,Rx,1,8,03,49,29,11,00,0C,40,FF,
111413365,0000042C,false,Rx,1,8,42,C4,CA,32,FE,00,00,00,
111414090,0000045C,false,Rx,1,8,21,90,14,2E,00,00,3A,8C,
111432704,00000368,false,Rx,1,8,03,49,29,11,00,0C,40,FF,
111513388,0000042C,false,Rx,1,8,42,C4,E9,34,FE,00,00,00,
111514091,0000045C,false,Rx,1,8,26,90,14,2E,00,00,38,8C,
111532522,00000368,false,Rx,1,8,03,49,29,11,00,0C,40,FF,
111613381,0000042C,false,Rx,1,8,42,C4,9B,36,FE,00,00,00,
111614327,0000045C,false,Rx,1,8,28,90,14,2E,00,00,46,8C,
111632512,00000368,false,Rx,1,8,03,49,29,11,00,0C,40,FF,
111713357,0000042C,false,Rx,1,8,42,C4,BE,38,FE,00,00,00,
111714082,0000045C,false,Rx,1,8,2C,90,14,2E,00,00,38,8C,
111732464,00000368,false,Rx,1,8,03,49,29,11,00,0C,40,FF,
111813612,0000042C,false,Rx,1,8,42,C4,A5,3A,FE,00,00,00,
111814337,0000045C,false,Rx,1,8,2B,90,14,2E,00,00,3B,8C,
111832497,00000368,false,Rx,1,8,03,49,29,11,00,0C,40,FF,
111913356,0000042C,false,Rx,1,8,42,C4,93,3C,FE,00,00,00,
111914081,0000045C,false,Rx,1,8,2F,90,14,2E,00,00,46,8C,
111932426,00000368,false,Rx,1,8,03,49,29,11,00,0C,40,FF,
112013357,0000042C,false,Rx,1,8,42,C4,7A,3E,FE,00,00,00,
112014082,0000045C,false,Rx,1,8,31,90,14,2E,00,00,53,8C,
112031895,00000368,false,Rx,1,8,03,49,29,11,00,0C,40,FF,
112113352,0000042C,false,Rx,1,8,42,C4,61,40,FE,00,00,00,
112114071,0000045C,false,Rx,1,8,35,90,14,2E,00,00,53,8C,
112132378,00000368,false,Rx,1,8,03,49,29,11,00,0C,40,FF,
112213356,0000042C,false,Rx,1,8,42,C4,7B,42,FE,00,00,00,
112214331,0000045C,false,Rx,1,8,35,90,14,2E,00,00,51,8C,
112232323,00000368,false,Rx,1,8,03,49,29,11,00,0C,40,FF,
112313352,0000042C,false,Rx,1,8,42,C4,63,44,FE,00,00,00,
112314077,0000045C,false,Rx,1,8,36,90,15,2E,00,00,46,8C,
112331806,00000368,false,Rx,1,8,03,49,29,11,00,0C,40,FF,
112413350,0000042C,false,Rx,1,8,42,C4,50,46,FE,00,00,00,
112414075,0000045C,false,Rx,1,8,38,90,15,2E,00,00,50,8C,
112432500,00000368,false,Rx,1,8,03,49,29,11,00,0C,40,FF,
112513351,0000042C,false,Rx,1,8,42,C4,6B,48,FE,00,00,00,
112514076,0000045C,false,Rx,1,8,38,90,15,2E,00,00,51,8C,
112532250,00000368,false,Rx,1,8,03,49,29,11,00,0C,40,FF,
112613350,0000042C,false,Rx,1,8,42,C4,1F,4A,FE,00,00,00,
112614311,0000045C,false,Rx,1,8,3C,90,15,2E,00,00,54,8C,
112632236,00000368,false,Rx,1,8,03,49,29,11,00,0C,40,FF,
112713337,0000042C,false,Rx,1,8,42,C4,39,4C,FE,00,00,00,
112714062,0000045C,false,Rx,1,8,40,90,15,2E,00,00,6D,8C,
112732216,00000368,false,Rx,1,8,03,49,29,11,00,0C,40,FF,
112813595,0000042C,false,Rx,1,8,42,C4,76,4E,FE,00,00,00,
112814313,0000045C,false,Rx,1,8,42,90,15,2E,00,00,61,8C,
112832466,00000368,false,Rx,1,8,03,49,29,11,00,0C,40,FF,
112913343,0000042C,false,Rx,1,8,42,C4,3B,50,FE,00,00,00,
112914060,0000045C,false,Rx,1,8,44,90,15,2E,00,00,53,8C,
112932203,00000368,false,Rx,1,8,03,49,29,11,00,0C,40,FF,
113013333,0000042C,false,Rx,1,8,42,C4,83,52,FE,00,00,00,
113014058,0000045C,false,Rx,1,8,45,90,15,2E,00,00,54,8C,
113032206,00000368,false,Rx,1,8,03,49,29,11,00,0C,40,FF,
113113333,0000042C,false,Rx,1,8,42,C4,9F,54,FE,00,00,00,
113114058,0000045C,false,Rx,1,8,44,90,15,2E,00,00,6D,8C,
113132206,00000368,false,Rx,1,8,03,49,29,11,00,0C,40,FF,
113213337,0000042C,false,Rx,1,8,42,C4,89,56,FE,00,00,00,
113214307,0000045C,false,Rx,1,8,4A,90,15,2E,00,00,6C,8C,
113232192,00000368,false,Rx,1,8,03,49,29,11,00,0C,40,FF,
113313340,0000042C,false,Rx,1,8,42,C4,E3,57,FE,00,00,00,
113314065,0000045C,false,Rx,1,8,52,90,15,2E,00,00,61,8C,
113332200,00000368,false,Rx,1,8,03,49,29,11,00,0C,40,FF,
113413346,0000042C,false,Rx,1,8,42,C4,E3,57,FE,00,00,00,
113414078,0000045C,false,Rx,1,8,51,90,15,2E,00,00,5F,8C,
113432447,00000368,false,Rx,1,8,03,49,29,11,00,0C,40,FF,
113513340,0000042C,false,Rx,1,8,42,C4,E3,57,FE,00,00,00,
113514065,0000045C,false,Rx,1,8,51,90,15,2E,00,00,6D,8C,
113532187,00000368,false,Rx,1,8,03,49,29,11,00,0C,40,FF,
113613331,0000042C,false,Rx,1,8,42,C4,E3,57,FE,00,00,00,
113614292,0000045C,false,Rx,1,8,53,90,15,2E,00,00,5F,8C,
113632182,00000368,false,Rx,1,8,03,49,29,11,00,0C,40,FF,
113713331,0000042C,false,Rx,1,8,42,C4,E3,57,FE,00,00,00,
113714056,0000045C,false,Rx,1,8,4F,90,15,2E,00,00,61,8C,
113732180,00000368,false,Rx,1,8,03,49,29,11,00,0C,40,FF,
113813587,0000042C,false,Rx,1,8,42,C4,E3,57,FE,00,00,00,
113814305,0000045C,false,Rx,1,8,54,90,15,2E,00,00,6A,8C,
113832436,00000368,false,Rx,1,8,03,49,29,11,00,0C,40,FF,
113913326,0000042C,false,Rx,1,8,42,C4,E3,57,FE,00,00,00,
113914051,0000045C,false,Rx,1,8,50,90,15,2E,00,00,78,8C,
113932169,00000368,false,Rx,1,8,03,49,29,11,00,0C,40,FF,
114013335,0000042C,false,Rx,1,8,42,C4,E3,57,FE,00,00,00,
114014053,0000045C,false,Rx,1,8,54,90,15,2E,00,00,5F,8C,
114032179,00000368,false,Rx,1,8,03,49,29,11,00,0C,40,FF,
114113323,0000042C,false,Rx,1,8,42,C4,E3,57,FE,00,00,00,
114114040,0000045C,false,Rx,1,8,50,90,15,2E,00,00,53,8C,
114132165,00000368,false,Rx,1,8,03,49,29,11,00,0C,40,FF,
114213565,0000042C,false,Rx,1,8,42,C4,E3,57,FE,00,00,00,
114214291,0000045C,false,Rx,1,8,52,90,15,2E,00,00,6A,8C,
114232167,00000368,false,Rx,1,8,03,49,29,11,00,0C,40,FF,
114313325,0000042C,false,Rx,1,8,42,C4,E3,57,FE,00,00,00,
114314049,0000045C,false,Rx,1,8,54,90,15,2E,00,00,69,8C,
114332147,00000368,false,Rx,1,8,03,49,29,11,00,0C,40,FF,
114413322,0000042C,false,Rx,1,8,42,C4,E3,57,FE,00,00,00,
114414291,0000045C,false,Rx,1,8,50,90,15,2E,00,00,5E,8C,
114432280,00000368,false,Rx,1,8,03,49,29,11,00,0C,40,FF,
114513323,0000042C,false,Rx,1,8,42,C4,E3,57,FE,00,00,00,
114514040,0000045C,false,Rx,1,8,51,90,15,2E,00,00,62,8C,
114532106,00000368,false,Rx,1,8,03,49,29,11,00,0C,40,FF,
114613323,0000042C,false,Rx,1,8,42,C4,E3,57,FE,00,00,00,
114614284,0000045C,false,Rx,1,8,51,90,15,2E,00,00,62,8C,
114632053,00000368,false,Rx,1,8,03,49,29,11,00,0C,40,FF,
114713304,0000042C,false,Rx,1,8,42,C4,E3,57,FE,00,00,00,
114714029,0000045C,false,Rx,1,8,51,90,15,2E,00,00,61,8C,
114732035,00000368,false,Rx,1,8,03,49,29,11,00,0C,40,FF,
114813567,0000042C,false,Rx,1,8,42,C4,E3,57,FE,00,00,00,
114814284,0000045C,false,Rx,1,8,55,90,15,2E,00,00,78,8C,
114832253,00000368,false,Rx,1,8,03,49,29,11,00,0C,40,FF,
114913304,0000042C,false,Rx,1,8,42,C4,E3,57,FE,00,00,00,
114914023,0000045C,false,Rx,1,8,55,90,15,2E,00,00,77,8C,
114931990,00000368,false,Rx,1,8,03,49,29,11,00,0C,40,FF,
115013295,0000042C,false,Rx,1,8,42,C4,E3,57,FE,00,00,00,
115014020,0000045C,false,Rx,1,8,54,90,15,2E,00,00,78,8C,
115031963,00000368,false,Rx,1,8,03,49,29,11,00,0C,40,FF,
115113292,0000042C,false,Rx,1,8,42,C4,E3,57,FE,00,00,00,
115114009,0000045C,false,Rx,1,8,54,90,15,2E,00,00,77,8C,
115131908,00000368,false,Rx,1,8,03,49,29,11,00,0C,40,FF,
115213539,0000042C,false,Rx,1,8,42,C4,E3,57,FE,00,00,00,
115214256,0000045C,false,Rx,1,8,5A,90,15,2E,00,00,6C,8C,
115231911,00000368,false,Rx,1,8,03,49,29,11,00,0C,40,FF,
115313287,0000042C,false,Rx,1,8,42,C4,E3,57,FE,00,00,00,
115314004,0000045C,false,Rx,1,8,56,90,15,2E,00,00,6C,8C,
115331884,00000368,false,Rx,1,8,03,49,29,11,00,0C,40,FF,
115413284,0000042C,false,Rx,1,8,42,C4,E3,57,FE,00,00,00,
115414261,0000045C,false,Rx,1,8,53,90,15,2E,00,00,5F,8C,
115431991,00000368,false,Rx,1,8,03,49,29,11,00,0C,40,FF,
115513278,0000042C,false,Rx,1,8,42,C4,E3,57,FE,00,00,00,
115514003,0000045C,false,Rx,1,8,57,90,15,2E,00,00,6D,8C,
115531816,00000368,false,Rx,1,8,03,49,29,11,00,0C,40,FF,
115613282,0000042C,false,Rx,1,8,42,C4,E3,57,FE,00,00,00,
115614243,0000045C,false,Rx,1,8,57,90,15,2E,00,00,5F,8C,
115631770,00000368,false,Rx,1,8,03,49,29,11,00,0C,40,FF,
115713281,0000042C,false,Rx,1,8,42,C4,E3,57,FE,00,00,00,
115714006,0000045C,false,Rx,1,8,58,90,15,2E,00,00,6C,8C,
115731773,00000368,false,Rx,1,8,03,49,29,11,00,0C,40,FF,
115813530,0000042C,false,Rx,1,8,42,C4,E3,57,FE,00,00,00,
115814247,0000045C,false,Rx,1,8,57,90,15,2E,00,00,6D,8C,
115831949,00000368,false,Rx,1,8,03,49,29,11,00,0C,40,FF,
115913267,0000042C,false,Rx,1,8,42,C4,E3,57,FE,00,00,00,
115913992,0000045C,false,Rx,1,8,58,90,15,2E,00,00,6A,8C,
115931684,00000368,false,Rx,1,8,03,49,29,11,00,0C,40,FF,
116013257,0000042C,false,Rx,1,8,42,C4,E3,57,FE,00,00,00,
116013983,0000045C,false,Rx,1,8,55,90,15,2E,00,00,6D,8C,
116031686,00000368,false,Rx,1,8,03,49,29,11,00,0C,40,FF,
116113250,0000042C,false,Rx,1,8,42,C4,E3,57,FE,00,00,00,
116113975,0000045C,false,Rx,1,8,54,90,15,2E,00,00,61,8C,
116131631,00000368,false,Rx,1,8,03,49,29,11,00,0C,40,FF,
116213501,0000042C,false,Rx,1,8,42,C4,E3,57,FE,00,00,00,
116214218,0000045C,false,Rx,1,8,58,90,15,2E,00,00,7B,8C,
116231626,00000368,false,Rx,1,8,03,49,29,11,00,0C,40,FF,
116313251,0000042C,false,Rx,1,8,42,C4,E3,57,FE,00,00,00,
116313976,0000045C,false,Rx,1,8,5B,90,15,2E,00,00,61,8C,
116331607,00000368,false,Rx,1,8,03,49,29,11,00,0C,40,FF,
116413248,0000042C,false,Rx,1,8,42,C4,E3,57,FE,00,00,00,
116414223,0000045C,false,Rx,1,8,5A,90,15,2E,00,00,6D,8C,
116431712,00000368,false,Rx,1,8,03,49,29,11,00,0C,40,FF,
116513246,0000042C,false,Rx,1,8,42,C4,E3,57,FE,00,00,00,
116513971,0000045C,false,Rx,1,8,5B,90,15,2E,00,00,5F,8C,
116531797,00000368,false,Rx,1,8,03,49,29,11,00,0C,40,FF,
116613240,0000042C,false,Rx,1,8,42,C4,E3,57,FE,00,00,00,
116614208,0000045C,false,Rx,1,8,59,90,15,2E,00,00,6F,8C,
116631742,00000368,false,Rx,1,8,03,49,29,11,00,0C,40,FF,
116713239,0000042C,false,Rx,1,8,42,C4,E3,57,FE,00,00,00,
116713956,0000045C,false,Rx,1,8,5D,90,15,2E,00,00,6F,8C,
116731557,00000368,false,Rx,1,8,03,49,29,11,00,0C,40,FF,
116813490,0000042C,false,Rx,1,8,42,C4,E3,57,FE,00,00,00,
116814215,0000045C,false,Rx,1,8,5C,90,15,2E,00,00,86,8C,
116831715,00000368,false,Rx,1,8,03,49,29,11,00,0C,40,FF,
116913235,0000042C,false,Rx,1,8,42,C4,E3,57,FE,00,00,00,
116913960,0000045C,false,Rx,1,8,58,90,15,2E,00,00,6C,8C,
116931657,00000368,false,Rx,1,8,03,49,29,11,00,0C,40,FF,
117013221,0000042C,false,Rx,1,8,42,C4,E3,57,FE,00,00,00,
117013945,0000045C,false,Rx,1,8,58,90,15,2E,00,00,7D,8C,
117031653,00000368,false,Rx,1,8,03,49,29,11,00,0C,40,FF,
117113225,0000042C,false,Rx,1,8,42,C4,E3,57,FE,00,00,00,
117113942,0000045C,false,Rx,1,8,5A,90,15,2E,00,00,7A,8C,
117131601,00000368,false,Rx,1,8,03,49,29,11,00,0C,40,FF,
117213471,0000042C,false,Rx,1,8,42,C4,E3,57,FE,00,00,00,
117214196,0000045C,false,Rx,1,8,5E,90,15,2E,00,00,6D,8C,
117231588,00000368,false,Rx,1,8,03,49,29,11,00,0C,40,FF,
117313222,0000042C,false,Rx,1,8,42,C4,E3,57,FE,00,00,00,
117313946,0000045C,false,Rx,1,8,5D,90,15,2E,00,00,61,8C,
117331966,00000368,false,Rx,1,8,03,49,29,11,00,0C,40,FF,
117413464,0000042C,false,Rx,1,8,42,C4,E3,57,FE,00,00,00,
117414189,0000045C,false,Rx,1,8,5E,90,15,2E,00,00,6D,8C,
117431499,00000368,false,Rx,1,8,03,49,29,11,00,0C,40,FF,
117513211,0000042C,false,Rx,1,8,42,C4,E3,57,FE,00,00,00,
117513936,0000045C,false,Rx,1,8,5D,90,15,2E,00,00,7A,8C,
117531757,00000368,false,Rx,1,8,03,49,29,11,00,0C,40,FF,
117613209,0000042C,false,Rx,1,8,42,C4,E3,57,FE,00,00,00,
117614171,0000045C,false,Rx,1,8,5B,90,15,2E,00,00,6C,8C,
117631969,00000368,false,Rx,1,8,03,49,29,11,00,0C,40,FF,
117713205,0000042C,false,Rx,1,8,42,C4,E3,57,FE,00,00,00,
117713930,0000045C,false,Rx,1,8,58,90,15,2E,00,00,61,8C,
117731976,00000368,false,Rx,1,8,03,49,29,11,00,0C,40,FF,
117813448,0000042C,false,Rx,1,8,42,C4,E3,57,FE,00,00,00,
117814172,0000045C,false,Rx,1,8,55,90,15,2E,00,00,6D,8C,
117831677,00000368,false,Rx,1,8,03,49,29,11,00,0C,40,FF,
117913202,0000042C,false,Rx,1,8,42,C4,E3,57,FE,00,00,00,
117913919,0000045C,false,Rx,1,8,58,90,15,2E,00,00,6D,8C,
117931977,00000368,false,Rx,1,8,03,49,29,11,00,0C,40,FF,
118013417,0000042C,false,Rx,1,8,42,C4,E3,57,FE,00,00,00,
118014143,0000045C,false,Rx,1,8,5A,90,15,2E,00,00,6F,8C,
118031973,00000368,false,Rx,1,8,03,49,29,11,00,0C,40,FF,
118113409,0000042C,false,Rx,1,8,42,C4,E3,57,FE,00,00,00,
118114133,0000045C,false,Rx,1,8,5B,90,15,2E,00,00,6C,8C,
118132035,00000368,false,Rx,1,8,03,49,29,11,00,0C,40,FF,
118213654,0000042C,false,Rx,1,8,42,C4,E3,57,FE,00,00,00,
118214373,0000045C,false,Rx,1,8,59,90,15,2E,00,00,78,8C,
118232135,00000368,false,Rx,1,8,03,49,29,11,00,0C,40,FF,
118313405,0000042C,false,Rx,1,8,42,C4,E3,57,FE,00,00,00,
118314130,0000045C,false,Rx,1,8,5C,90,15,2E,00,00,6D,8C,
118332001,00000368,false,Rx,1,8,03,49,29,11,00,0C,40,FF,
118413438,0000042C,false,Rx,1,8,42,C4,E3,57,FE,00,00,00,
118414376,0000045C,false,Rx,1,8,5A,90,15,2E,00,00,6A,8C,
118431645,00000368,false,Rx,1,8,03,49,29,11,00,0C,40,FF,
118513182,0000042C,false,Rx,1,8,42,C4,E3,57,FE,00,00,00,
118513900,0000045C,false,Rx,1,8,59,90,15,2E,00,00,6A,8C,
118531955,00000368,false,Rx,1,8,03,49,29,11,00,0C,40,FF,
118613173,0000042C,false,Rx,1,8,42,C4,E3,57,FE,00,00,00,
118614143,0000045C,false,Rx,1,8,5D,90,15,2E,00,00,78,8C,
118631975,00000368,false,Rx,1,8,03,49,29,11,00,0C,40,FF,
118713172,0000042C,false,Rx,1,8,42,C4,E3,57,FE,00,00,00,
118713889,0000045C,false,Rx,1,8,5A,90,15,2E,00,00,78,8C,
118731965,00000368,false,Rx,1,8,03,49,29,11,00,0C,40,FF,
118813424,0000042C,false,Rx,1,8,42,C4,E3,57,FE,00,00,00,
118814141,0000045C,false,Rx,1,8,5D,90,15,2E,00,00,6C,8C,
118831466,00000368,false,Rx,1,8,03,49,29,11,00,0C,40,FF,
118913168,0000042C,false,Rx,1,8,42,C4,E3,57,FE,00,00,00,
118913886,0000045C,false,Rx,1,8,5C,90,15,2E,00,00,86,8C,
118931976,00000368,false,Rx,1,8,03,49,29,11,00,0C,40,FF,
119013313,0000042C,false,Rx,1,8,42,C4,E3,57,FE,00,00,00,
119014030,0000045C,false,Rx,1,8,57,90,15,2E,00,00,6D,8C,
119031971,00000368,false,Rx,1,8,03,49,29,11,00,0C,40,FF,
119113304,0000042C,false,Rx,1,8,42,C4,E3,57,FE,00,00,00,
119114029,0000045C,false,Rx,1,8,58,90,15,2E,00,00,85,8C,
119132041,00000368,false,Rx,1,8,03,49,29,11,00,0C,40,FF,
119213402,0000042C,false,Rx,1,8,42,C4,E3,57,FE,00,00,00,
119214121,0000045C,false,Rx,1,8,57,90,15,2E,00,00,6D,8C,
119231980,00000368,false,Rx,1,8,03,49,29,11,00,0C,40,FF,
119313152,0000042C,false,Rx,1,8,42,C4,E3,57,FE,00,00,00,
119313876,0000045C,false,Rx,1,8,5B,90,15,2E,00,00,6F,8C,
119331971,00000368,false,Rx,1,8,03,49,29,11,00,0C,40,FF,
119413404,0000042C,false,Rx,1,8,42,C4,E3,57,FE,00,00,00,
119414130,0000045C,false,Rx,1,8,58,90,15,2E,00,00,6F,8C,
119431981,00000368,false,Rx,1,8,03,49,29,11,00,0C,40,FF,
119513159,0000042C,false,Rx,1,8,42,C4,E3,57,FE,00,00,00,
119513875,0000045C,false,Rx,1,8,58,90,15,2E,00,00,78,8C,
119531976,00000368,false,Rx,1,8,03,49,29,11,00,0C,40,FF,
119613149,0000042C,false,Rx,1,8,42,C4,E3,57,FE,00,00,00,
119614106,0000045C,false,Rx,1,8,58,90,15,2E,00,00,7A,8C,
119631975,00000368,false,Rx,1,8,03,49,29,11,00,0C,40,FF,
119713144,0000042C,false,Rx,1,8,42,C4,E3,57,FE,00,00,00,
119713862,0000045C,false,Rx,1,8,5B,90,15,2E,00,00,78,8C,
119731972,00000368,false,Rx,1,8,03,49,29,11,00,0C,40,FF,
119813408,0000042C,false,Rx,1,8,42,C4,E3,57,FE,00,00,00,
119814111,0000045C,false,Rx,1,8,5C,90,15,2E,00,00,7B,8C,
119832062,00000368,false,Rx,1,8,03,49,29,11,00,0C,40,FF,
119913132,0000042C,false,Rx,1,8,42,C4,E3,57,FE,00,00,00,
119913859,0000045C,false,Rx,1,8,5C,90,15,2E,00,00,6C,8C,
119931974,00000368,false,Rx,1,8,03,49,29,11,00,0C,40,FF,
120013131,0000042C,false,Rx,1,8,42,C4,E3,57,FE,00,00,00,
120013849,0000045C,false,Rx,1,8,5C,90,15,2E,00,00,78,8C,
120031979,00000368,false,Rx,1,8,03,49,29,11,00,0C,40,FF,
120113120,0000042C,false,Rx,1,8,42,C4,E3,57,FE,00,00,00,
120113847,0000045C,false,Rx,1,8,57,90,15,2E,00,00,78,8C,
120132054,00000368,false,Rx,1,8,03,49,29,11,00,0C,40,FF,
120213376,0000042C,false,Rx,1,8,42,C4,E3,57,FE,00,00,00,
120214101,0000045C,false,Rx,1,8,5B,90,15,2E,00,00,83,8C,
120231982,00000368,false,Rx,1,8,03,49,29,11,00,0C,40,FF,
120313128,0000042C,false,Rx,1,8,42,C4,E3,57,FE,00,00,00,
120313854,0000045C,false,Rx,1,8,57,90,15,2E,00,00,78,8C,
120331981,00000368,false,Rx,1,8,03,49,29,11,00,0C,40,FF,
120413370,0000042C,false,Rx,1,8,42,C4,E3,57,FE,00,00,00,
120414095,0000045C,false,Rx,1,8,5C,90,15,2E,00,00,77,8C,
120431984,00000368,false,Rx,1,8,03,49,29,11,00,0C,40,FF,
120513129,0000042C,false,Rx,1,8,42,C4,E3,57,FE,00,00,00,
120513854,0000045C,false,Rx,1,8,59,90,15,2E,00,00,5F,8C,
120532245,00000368,false,Rx,1,8,03,49,29,11,00,0C,40,FF,
120613112,0000042C,false,Rx,1,8,42,C4,E3,57,FE,00,00,00,
120614074,0000045C,false,Rx,1,8,5B,90,15,2E,00,00,77,8C,
120631597,00000368,false,Rx,1,8,03,49,29,11,00,0C,40,FF,
120713116,0000042C,false,Rx,1,8,42,C4,E3,57,FE,00,00,00,
120713835,0000045C,false,Rx,1,8,5A,90,15,2E,00,00,7A,8C,
120732034,00000368,false,Rx,1,8,03,49,29,11,00,0C,40,FF,
120813363,0000042C,false,Rx,1,8,42,C4,E3,57,FE,00,00,00,
120814080,0000045C,false,Rx,1,8,5A,90,15,2E,00,00,6C,8C,
120832250,00000368,false,Rx,1,8,03,49,29,11,00,0C,40,FF,
120913108,0000042C,false,Rx,1,8,42,C4,E3,57,FE,00,00,00,
120913833,0000045C,false,Rx,1,8,5A,90,15,2E,00,00,83,8C,
120931984,00000368,false,Rx,1,8,03,49,29,11,00,0C,40,FF,
121013105,0000042C,false,Rx,1,8,42,C4,E3,57,FE,00,00,00,
121013826,0000045C,false,Rx,1,8,5D,90,15,2E,00,00,78,8C,
121032009,00000368,false,Rx,1,8,03,49,29,11,00,0C,40,FF,
121113097,0000042C,false,Rx,1,8,42,C4,E3,57,FE,00,00,00,
121113822,0000045C,false,Rx,1,8,5C,90,15,2E,00,00,6C,8C,
121132061,00000368,false,Rx,1,8,03,49,29,11,00,0C,40,FF,
121213345,0000042C,false,Rx,1,8,42,C4,E3,57,FE,00,00,00,
121214071,0000045C,false,Rx,1,8,5E,90,15,2E,00,00,6C,8C,
121231976,00000368,false,Rx,1,8,03,49,29,11,00,0C,40,FF,
121313135,0000042C,false,Rx,1,8,42,C4,E3,57,FE,00,00,00,
121313862,0000045C,false,Rx,1,8,5C,90,15,2E,00,00,6A,8C,
121331996,00000368,false,Rx,1,8,03,49,29,11,00,0C,40,FF,
121413577,0000042C,false,Rx,1,8,42,C4,E3,57,FE,00,00,00,
121414302,0000045C,false,Rx,1,8,5A,90,15,2E,00,00,77,8C,
121431987,00000368,false,Rx,1,8,03,49,29,11,00,0C,40,FF,
121513091,0000042C,false,Rx,1,8,42,C4,E3,57,FE,00,00,00,
121513816,0000045C,false,Rx,1,8,5F,90,15,2E,00,00,5F,8C,
121531998,00000368,false,Rx,1,8,03,49,29,11,00,0C,40,FF,
121613080,0000042C,false,Rx,1,8,42,C4,E3,57,FE,00,00,00,
121614042,0000045C,false,Rx,1,8,5B,90,15,2E,00,00,77,8C,
121632005,00000368,false,Rx,1,8,03,49,29,11,00,0C,40,FF,
121713080,0000042C,false,Rx,1,8,42,C4,E3,57,FE,00,00,00,
121713805,0000045C,false,Rx,1,8,5D,90,15,2E,00,00,78,8C,
121731991,00000368,false,Rx,1,8,03,49,29,11,00,0C,40,FF,
121813324,0000042C,false,Rx,1,8,42,C4,E3,57,FE,00,00,00,
121814048,0000045C,false,Rx,1,8,5B,90,15,2E,00,00,7A,8C,
121832220,00000368,false,Rx,1,8,03,49,29,11,00,0C,40,FF,
121913069,0000042C,false,Rx,1,8,42,C4,E3,57,FE,00,00,00,
121913794,0000045C,false,Rx,1,8,5D,90,15,2E,00,00,78,8C,
121932000,00000368,false,Rx,1,8,03,49,29,11,00,0C,40,FF,
122013073,0000042C,false,Rx,1,8,42,C4,E3,57,FE,00,00,00,
122013790,0000045C,false,Rx,1,8,5F,90,15,2E,00,00,78,8C,
122032007,00000368,false,Rx,1,8,03,49,29,11,00,0C,40,FF,
122113062,0000042C,false,Rx,1,8,42,C4,E3,57,FE,00,00,00,
122113788,0000045C,false,Rx,1,8,58,90,15,2E,00,00,6C,8C,
122132060,00000368,false,Rx,1,8,03,49,29,11,00,0C,40,FF,
122213311,0000042C,false,Rx,1,8,42,C4,E3,57,FE,00,00,00,
122214030,0000045C,false,Rx,1,8,59,90,15,2E,00,00,77,8C,
122231998,00000368,false,Rx,1,8,03,49,29,11,00,0C,40,FF,
122313065,0000042C,false,Rx,1,8,42,C4,E3,57,FE,00,00,00,
122313790,0000045C,false,Rx,1,8,5B,90,15,2E,00,00,5F,8C,
122332007,00000368,false,Rx,1,8,03,49,29,11,00,0C,40,FF,
122413315,0000042C,false,Rx,1,8,42,C4,E3,57,FE,00,00,00,
122414032,0000045C,false,Rx,1,8,58,90,15,2E,00,00,6A,8C,
122431996,00000368,false,Rx,1,8,03,49,29,11,00,0C,40,FF,
122513054,0000042C,false,Rx,1,8,42,C4,E3,57,FE,00,00,00,
122513773,0000045C,false,Rx,1,8,59,90,15,2E,00,00,78,8C,
122531998,00000368,false,Rx,1,8,03,49,29,11,00,0C,40,FF,
122613059,0000042C,false,Rx,1,8,42,C4,E3,57,FE,00,00,00,
122614021,0000045C,false,Rx,1,8,5E,90,15,2E,00,00,6D,8C,
122631996,00000368,false,Rx,1,8,03,49,29,11,00,0C,40,FF,
122713049,0000042C,false,Rx,1,8,42,C4,E3,57,FE,00,00,00,
122713767,0000045C,false,Rx,1,8,5B,90,15,2E,00,00,78,8C,
122732001,00000368,false,Rx,1,8,03,49,29,11,00,0C,40,FF,
122813293,0000042C,false,Rx,1,8,42,C4,E3,57,FE,00,00,00,
122814018,0000045C,false,Rx,1,8,57,90,15,2E,00,00,6D,8C,
122832189,00000368,false,Rx,1,8,03,49,29,11,00,0C,40,FF,
122912904,0000042C,false,Rx,1,8,42,C4,E3,57,FE,00,00,00,
122913758,0000045C,false,Rx,1,8,5E,90,15,2E,00,00,78,8C,
122931999,00000368,false,Rx,1,8,03,49,29,11,00,0C,40,FF,
123013030,0000042C,false,Rx,1,8,42,C4,E3,57,FE,00,00,00,
123013755,0000045C,false,Rx,1,8,5A,90,15,2E,00,00,6C,8C,
123032007,00000368,false,Rx,1,8,03,49,29,11,00,0C,40,FF,
123113027,0000042C,false,Rx,1,8,42,C4,E3,57,FE,00,00,00,
123113752,0000045C,false,Rx,1,8,57,90,15,2E,00,00,6A,8C,
123132105,00000368,false,Rx,1,8,03,49,29,11,00,0C,40,FF,
123213146,0000042C,false,Rx,1,8,42,C4,E3,57,FE,00,00,00,
123213872,0000045C,false,Rx,1,8,5B,90,15,2E,00,00,90,8C,
123231998,00000368,false,Rx,1,8,03,49,29,11,00,0C,40,FF,
123313032,0000042C,false,Rx,1,8,42,C4,E3,57,FE,00,00,00,
123313758,0000045C,false,Rx,1,8,5C,90,15,2E,00,00,83,8C,
123332004,00000368,false,Rx,1,8,03,49,29,11,00,0C,40,FF,
