Time Stamp,ID,Extended,Dir,Bus,LEN,D1,D2,D3,D4,D5,D6,D7,D8
4324070042,00000217,false,Rx,1,8,01,40,81,FD,9C,02,00,00,
4324160221,00000207,false,Rx,1,8,00,00,C0,FF,C8,00,04,00,
4324160461,00000227,false,Rx,1,8,E7,0C,2E,81,07,00,1F,C5,
4324160708,00000237,false,Rx,1,8,3D,41,00,00,00,00,00,00,
4324160949,00000247,false,Rx,1,8,44,7D,03,02,00,00,20,00,
4324161198,00000717,false,Rx,1,8,02,00,00,00,00,00,00,00,
4324169998,00000217,false,Rx,1,8,01,40,81,FD,9C,02,00,00,
4324260214,00000207,false,Rx,1,8,00,00,C0,FF,C8,00,04,00,
4324260453,00000227,false,Rx,1,8,F0,0C,29,81,03,00,1F,C5,
4324260700,00000237,false,Rx,1,8,3D,41,00,00,00,00,00,00,
4324260941,00000247,false,Rx,1,8,44,7D,03,02,00,00,20,00,
4324270003,00000217,false,Rx,1,8,01,40,81,FD,9C,02,00,00,
4324360192,00000207,false,Rx,1,8,00,00,00,00,C8,00,04,00,
4324360431,00000227,false,Rx,1,8,ED,0C,2F,81,03,00,1F,C5,
4324360679,00000237,false,Rx,1,8,3D,41,00,00,00,00,00,00,
4324360913,00000247,false,Rx,1,8,44,7D,03,02,00,00,20,00,
4324361160,00000717,false,Rx,1,8,04,00,00,00,00,00,00,00,
4324369985,00000217,false,Rx,1,8,01,40,81,FD,9C,02,00,00,
4324460152,00000207,false,Rx,1,8,00,00,00,00,C8,00,04,00,
4324460383,00000227,false,Rx,1,8,DF,0C,32,81,00,00,1F,C5,
4324460632,00000237,false,Rx,1,8,3D,41,00,00,00,00,00,00,
4324460873,00000247,false,Rx,1,8,44,7D,02,02,00,00,20,00,
4324461121,00000717,false,Rx,1,8,05,00,00,00,00,00,00,00,
4324469938,00000217,false,Rx,1,8,01,40,81,FD,9C,02,00,00,
4324560149,00000207,false,Rx,1,8,00,00,C0,FF,C8,00,04,00,
4324560380,00000227,false,Rx,1,8,E1,0C,2B,81,03,00,1F,C5,
4324560629,00000237,false,Rx,1,8,3D,41,00,00,00,00,00,00,
4324560870,00000247,false,Rx,1,8,44,7D,03,02,00,00,20,00,
4324561103,00000717,false,Rx,1,8,06,00,EA,45,66,06,00,40,
4324569943,00000217,false,Rx,1,8,01,40,81,FD,9C,02,00,00,
4324660116,00000207,false,Rx,1,8,00,00,00,00,C8,00,04,00,
4324660348,00000227,false,Rx,1,8,D8,0C,2D,81,00,00,1F,C5,
4324660596,00000237,false,Rx,1,8,3D,41,00,00,00,00,00,00,
4324660835,00000247,false,Rx,1,8,44,7D,03,02,00,00,20,00,
4324661077,00000717,false,Rx,1,8,07,00,00,00,01,0A,00,00,
4324669923,00000217,false,Rx,1,8,01,40,81,FD,9C,02,00,00,
4324760119,00000207,false,Rx,1,8,00,00,00,00,C8,00,04,00,
4324760351,00000227,false,Rx,1,8,D1,0C,32,81,08,00,1F,C5,
4324760599,00000237,false,Rx,1,8,3D,41,00,00,00,00,00,00,
4324760839,00000247,false,Rx,1,8,44,7D,02,02,00,00,20,00,
4324761081,00000717,false,Rx,1,8,08,00,00,00,6A,45,00,00,
4324769896,00000217,false,Rx,1,8,01,40,81,FD,9C,02,00,00,
4324859980,00000367,false,Rx,1,8,00,00,00,00,00,00,00,00,
4324860220,00000207,false,Rx,1,8,00,00,C0,FF,C8,00,04,00,
4324860460,00000227,false,Rx,1,8,CE,0C,2E,81,00,00,1F,C5,
4324860708,00000237,false,Rx,1,8,3D,41,00,00,00,00,00,00,
4324860950,00000247,false,Rx,1,8,44,7D,03,02,00,00,20,00,
4324861190,00000717,false,Rx,1,8,09,00,62,46,00,00,00,00,
4324869873,00000217,false,Rx,1,8,01,40,81,FD,9C,02,00,00,
4324870120,00000377,false,Rx,1,8,00,00,00,00,00,00,00,00,
4324879967,00000347,false,Rx,1,8,00,00,00,00,00,08,00,00,
4324889971,00000357,false,Rx,1,8,00,00,00,00,00,00,02,00,
4324899968,00000327,false,Rx,1,8,00,00,00,00,00,00,00,00,
4324909964,00000337,false,Rx,1,8,00,00,00,00,00,00,00,00,
4324960059,00000207,false,Rx,1,8,00,00,C0,FF,C8,00,04,00,
4324960290,00000227,false,Rx,1,8,D1,0C,28,81,02,00,1F,C5,
4324960537,00000237,false,Rx,1,8,3D,41,00,00,00,00,00,00,
4324960778,00000247,false,Rx,1,8,44,7D,03,02,00,00,20,00,
4324961027,00000717,false,Rx,1,8,0A,00,00,00,00,00,00,00,
4324969844,00000217,false,Rx,1,8,01,40,81,FD,9C,02,00,00,
4325060049,00000207,false,Rx,1,8,00,00,C0,FF,C8,00,04,00,
4325060280,00000227,false,Rx,1,8,C8,0C,2E,81,00,00,1F,C5,
4325060529,00000237,false,Rx,1,8,3D,41,00,00,00,00,00,00,
4325060769,00000247,false,Rx,1,8,44,7D,03,02,00,00,20,00,
4325061017,00000717,false,Rx,1,8,0B,00,00,00,00,00,00,00,
4325069834,00000217,false,Rx,1,8,01,40,81,FD,9C,02,00,00,
4325160011,00000207,false,Rx,1,8,00,00,C0,FF,C8,00,04,00,
4325160243,00000227,false,Rx,1,8,C7,0C,21,81,07,00,1F,C5,
4325160491,00000237,false,Rx,1,8,3D,41,00,00,00,00,00,00,
4325160731,00000247,false,Rx,1,8,44,7D,03,02,00,00,20,00,
4325160972,00000717,false,Rx,1,8,0C,01,00,00,00,00,02,00,
4325169811,00000217,false,Rx,1,8,01,40,81,FD,9C,02,00,00,
4325259996,00000207,false,Rx,1,8,00,00,00,00,C8,00,04,00,
4325260236,00000227,false,Rx,1,8,BC,0C,27,81,06,00,1F,C5,
4325260483,00000237,false,Rx,1,8,3D,41,00,00,00,00,00,00,
4325260723,00000247,false,Rx,1,8,44,7D,03,02,00,00,20,00,
4325260958,00000717,false,Rx,1,8,0E,00,00,02,A6,4F,00,00,
4325269788,00000217,false,Rx,1,8,01,40,81,FD,9C,02,00,00,
4325359984,00000207,false,Rx,1,8,00,00,C0,FF,C8,00,04,00,
4325360215,00000227,false,Rx,1,8,BF,0C,29,81,01,00,1F,C5,
4325360463,00000237,false,Rx,1,8,3D,41,00,00,00,00,00,00,
4325360703,00000247,false,Rx,1,8,44,7D,03,02,00,00,20,00,
4325360937,00000717,false,Rx,1,8,0F,00,EB,01,27,11,00,00,
4325369775,00000217,false,Rx,1,8,01,40,81,FD,9C,02,00,00,
4325459951,00000207,false,Rx,1,8,00,00,C0,FF,C8,00,04,00,
4325460182,00000227,false,Rx,1,8,B9,0C,2E,81,04,00,1F,C5,
4325460430,00000237,false,Rx,1,8,3D,41,00,00,00,00,00,00,
4325460671,00000247,false,Rx,1,8,44,7D,03,02,00,00,20,00,
4325460905,00000717,false,Rx,1,8,10,0A,50,FF,03,80,FF,00,
4325469735,00000217,false,Rx,1,8,01,40,81,FD,9C,02,00,00,
4325559941,00000207,false,Rx,1,8,00,00,C0,FF,C8,00,04,00,
4325560172,00000227,false,Rx,1,8,B2,0C,26,81,02,00,1F,C5,
4325560421,00000237,false,Rx,1,8,3D,41,00,00,00,00,00,00,
4325560660,00000247,false,Rx,1,8,44,7D,03,02,00,00,20,00,
4325560901,00000537,false,Rx,1,8,0A,01,0E,00,FC,00,3F,00,
4325561141,00000717,false,Rx,1,8,11,00,12,E4,00,00,00,00,
4325569729,00000217,false,Rx,1,8,01,40,81,FD,9C,02,00,00,
4325659927,00000207,false,Rx,1,8,00,00,00,00,C8,00,04,00,
4325660158,00000227,false,Rx,1,8,A9,0C,25,81,03,00,1F,C5,
4325660407,00000237,false,Rx,1,8,3D,41,00,00,00,00,00,00,
4325660647,00000247,false,Rx,1,8,44,7D,03,02,00,00,20,00,
4325660888,00000717,false,Rx,1,8,12,40,29,00,27,00,17,00,
4325669703,00000217,false,Rx,1,8,01,40,81,FD,9C,02,00,00,
4325759887,00000207,false,Rx,1,8,00,00,C0,FF,C8,00,04,00,
4325760127,00000227,false,Rx,1,8,AE,0C,29,81,02,00,1F,C5,
4325760374,00000237,false,Rx,1,8,3D,41,00,00,00,00,00,00,
4325760614,00000247,false,Rx,1,8,44,7D,03,02,00,00,20,00,
4325760864,00000717,false,Rx,1,8,13,00,00,00,00,00,00,00,
4325769666,00000217,false,Rx,1,8,01,40,81,FD,9C,02,00,00,
4325859776,00000367,false,Rx,1,8,00,00,00,00,00,00,00,00,
4325860018,00000207,false,Rx,1,8,00,00,C0,FF,C8,00,04,00,
4325860251,00000227,false,Rx,1,8,A0,0C,2D,81,06,00,1F,C5,
4325860498,00000237,false,Rx,1,8,3D,41,00,00,00,00,00,00,
4325860739,00000247,false,Rx,1,8,44,7D,03,02,00,00,20,00,
4325860980,00000717,false,Rx,1,8,14,00,00,00,F2,FF,00,00,
4325869670,00000217,false,Rx,1,8,01,40,81,FD,9C,02,00,00,
4325869918,00000377,false,Rx,1,8,00,00,00,00,00,00,00,00,
4325879763,00000347,false,Rx,1,8,00,00,00,00,00,08,00,00,
4325889761,00000357,false,Rx,1,8,00,00,00,00,00,00,02,00,
4325899765,00000327,false,Rx,1,8,00,00,00,00,00,00,00,00,
4325909756,00000337,false,Rx,1,8,00,00,00,00,00,00,00,00,
4325959827,00000207,false,Rx,1,8,00,00,C0,FF,C8,00,04,00,
4325960067,00000227,false,Rx,1,8,9F,0C,1F,81,05,00,1F,C5,
4325960314,00000237,false,Rx,1,8,3D,41,00,00,00,00,00,00,
4325960555,00000247,false,Rx,1,8,44,7D,03,02,00,00,20,00,
4325969624,00000217,false,Rx,1,8,01,40,81,FD,9C,02,00,00,
4326059826,00000207,false,Rx,1,8,00,00,C0,FF,C8,00,04,00,
4326060059,00000227,false,Rx,1,8,9B,0C,26,81,05,00,1F,C5,
4326060306,00000237,false,Rx,1,8,3D,41,00,00,00,00,00,00,
4326060547,00000247,false,Rx,1,8,44,7D,03,02,00,00,20,00,
4326060787,00000717,false,Rx,1,8,16,00,00,00,00,00,5E,46,
4326069618,00000217,false,Rx,1,8,01,40,81,FD,9C,02,00,00,
4326159821,00000207,false,Rx,1,8,00,00,00,00,C8,00,04,00,
4326160062,00000227,false,Rx,1,8,9A,0C,24,81,02,00,1F,C5,
4326160310,00000237,false,Rx,1,8,3D,41,00,00,00,00,00,00,
4326160550,00000247,false,Rx,1,8,44,7D,03,02,00,00,20,00,
4326160790,00000717,false,Rx,1,8,17,00,00,50,04,00,00,00,
4326169608,00000217,false,Rx,1,8,01,40,81,FD,9C,02,00,00,
4326259775,00000207,false,Rx,1,8,00,00,00,00,C8,00,04,00,
4326260015,00000227,false,Rx,1,8,96,0C,23,81,00,00,1F,C5,
4326260264,00000237,false,Rx,1,8,3D,41,00,00,00,00,00,00,
4326260504,00000247,false,Rx,1,8,44,7D,03,02,00,00,20,00,
4326260751,00000717,false,Rx,1,8,18,00,00,00,00,00,00,00,
4326269567,00000217,false,Rx,1,8,01,40,81,FD,9C,02,00,00,
4326359780,00000207,false,Rx,1,8,00,00,00,00,C8,00,04,00,
4326360021,00000227,false,Rx,1,8,94,0C,1D,81,00,00,1F,C5,
4326360268,00000237,false,Rx,1,8,3D,41,00,00,00,00,00,00,
4326360508,00000247,false,Rx,1,8,44,7D,03,02,00,00,20,00,
4326360749,00000717,false,Rx,1,8,19,00,00,00,00,00,00,00,
4326369557,00000217,false,Rx,1,8,01,40,81,FD,9C,02,00,00,
4326459739,00000207,false,Rx,1,8,00,00,C0,FF,C8,00,04,00,
4326459972,00000227,false,Rx,1,8,93,0C,27,81,02,00,1F,C5,
4326460219,00000237,false,Rx,1,8,3D,41,00,00,00,00,00,00,
4326460459,00000247,false,Rx,1,8,44,7D,03,02,00,00,20,00,
4326460707,00000537,false,Rx,1,8,0B,00,05,06,00,00,00,00,
4326460950,00000717,false,Rx,1,8,01,00,00,00,00,00,00,00,
4326469541,00000217,false,Rx,1,8,01,40,81,FD,9C,02,00,00,
4326559715,00000207,false,Rx,1,8,00,00,C0,FF,C8,00,04,00,
4326559947,00000227,false,Rx,1,8,86,0C,24,81,03,00,1F,C5,
4326560202,00000237,false,Rx,1,8,3D,41,00,00,00,00,00,00,
4326560436,00000247,false,Rx,1,8,44,7D,03,02,00,00,20,00,
4326560683,00000717,false,Rx,1,8,02,00,00,00,00,00,00,00,
4326569521,00000217,false,Rx,1,8,01,40,81,FD,9C,02,00,00,
4326659711,00000207,false,Rx,1,8,00,00,00,00,C8,00,04,00,
4326659943,00000227,false,Rx,1,8,90,0C,23,81,03,00,1F,C5,
4326660191,00000237,false,Rx,1,8,3D,41,00,00,00,00,00,00,
4326660431,00000247,false,Rx,1,8,44,7D,03,02,00,00,20,00,
4326669501,00000217,false,Rx,1,8,01,40,81,FD,9C,02,00,00,
4326759668,00000207,false,Rx,1,8,00,00,C0,FF,C8,00,04,00,
4326759907,00000227,false,Rx,1,8,80,0C,1F,81,00,00,1F,C5,
4326760156,00000237,false,Rx,1,8,3D,41,00,00,00,00,00,00,
4326760396,00000247,false,Rx,1,8,44,7D,03,02,00,00,20,00,
4326760643,00000717,false,Rx,1,8,04,00,00,00,00,00,00,00,
4326769454,00000217,false,Rx,1,8,01,40,81,FD,9C,02,00,00,
4326859554,00000367,false,Rx,1,8,00,00,00,00,00,00,00,00,
4326859800,00000207,false,Rx,1,8,00,00,00,00,C8,00,04,00,
4326860043,00000227,false,Rx,1,8,86,0C,1F,81,00,00,1F,C5,
4326860290,00000237,false,Rx,1,8,3D,41,00,00,00,00,00,00,
4326860530,00000247,false,Rx,1,8,44,7D,03,02,00,00,20,00,
4326860779,00000717,false,Rx,1,8,05,00,00,00,00,00,00,00,
4326869464,00000217,false,Rx,1,8,01,40,81,FD,9C,02,00,00,
4326869710,00000377,false,Rx,1,8,00,00,00,00,00,00,00,00,
4326879557,00000347,false,Rx,1,8,00,00,00,00,00,08,00,00,
4326889554,00000357,false,Rx,1,8,00,00,00,00,00,00,02,00,
4326899551,00000327,false,Rx,1,8,00,00,00,00,00,00,00,00,
4326909554,00000337,false,Rx,1,8,00,00,00,00,00,00,00,00,
4326959661,00000207,false,Rx,1,8,00,00,C0,FF,C8,00,04,00,
4326959895,00000227,false,Rx,1,8,7A,0C,25,81,01,00,1F,C5,
4326960142,00000237,false,Rx,1,8,3D,41,00,00,00,00,00,00,
4326960382,00000247,false,Rx,1,8,44,7D,03,02,00,00,20,00,
4326960623,00000717,false,Rx,1,8,06,00,FE,45,66,06,00,40,
4326969439,00000217,false,Rx,1,8,01,40,81,FD,9C,02,00,00,
4327059608,00000207,false,Rx,1,8,00,00,00,00,C8,00,04,00,
4327059847,00000227,false,Rx,1,8,81,0C,24,81,05,00,1F,C5,
4327060095,00000237,false,Rx,1,8,3D,41,00,00,00,00,00,00,
4327060336,00000247,false,Rx,1,8,44,7D,03,02,00,00,20,00,
4327060576,00000717,false,Rx,1,8,07,00,00,00,01,0A,00,00,
4327069399,00000217,false,Rx,1,8,01,40,81,FD,9C,02,00,00,
4327159613,00000207,false,Rx,1,8,00,00,C0,FF,C8,00,04,00,
4327159844,00000227,false,Rx,1,8,7A,0C,28,81,01,00,1F,C5,
4327160093,00000237,false,Rx,1,8,3D,41,00,00,00,00,00,00,
4327160334,00000247,false,Rx,1,8,44,7D,03,02,00,00,20,00,
4327160581,00000717,false,Rx,1,8,08,00,00,00,0E,46,00,00,
4327169389,00000217,false,Rx,1,8,01,40,81,FD,9C,02,00,00,
4327259557,00000207,false,Rx,1,8,00,00,C0,FF,C8,00,04,00,
4327259789,00000227,false,Rx,1,8,77,0C,2A,81,03,00,1F,C5,
4327260038,00000237,false,Rx,1,8,3D,41,00,00,00,00,00,00,
4327260278,00000247,false,Rx,1,8,44,7D,03,02,00,00,20,00,
4327260518,00000717,false,Rx,1,8,09,00,12,46,00,00,00,00,
4327269350,00000217,false,Rx,1,8,01,40,81,FD,9C,02,00,00,
4327359580,00000207,false,Rx,1,8,00,00,C0,FF,C8,00,04,00,
4327359811,00000227,false,Rx,1,8,70,0C,2D,81,03,00,1F,C5,
4327360062,00000237,false,Rx,1,8,3D,41,00,00,00,00,00,00,
4327360302,00000247,false,Rx,1,8,44,7D,03,02,00,00,20,00,
4327360542,00000537,false,Rx,1,8,0D,00,00,00,7D,F1,02,85,
4327360790,00000717,false,Rx,1,8,0A,00,00,00,00,00,00,00,
4327369354,00000217,false,Rx,1,8,01,40,81,FD,9C,02,00,00,
4327459552,00000207,false,Rx,1,8,00,00,00,00,C8,00,04,00,
4327459792,00000227,false,Rx,1,8,70,0C,21,81,00,00,1F,C5,
4327460041,00000237,false,Rx,1,8,3D,41,00,00,00,00,00,00,
4327460280,00000247,false,Rx,1,8,44,7D,03,02,00,00,20,00,
4327460522,00000717,false,Rx,1,8,0B,00,00,00,00,00,00,00,
4327469331,00000217,false,Rx,1,8,01,40,81,FD,9C,02,00,00,
4327559504,00000207,false,Rx,1,8,00,00,00,00,C8,00,04,00,
4327559736,00000227,false,Rx,1,8,65,0C,20,81,03,00,1F,C5,
4327559985,00000237,false,Rx,1,8,3D,41,00,00,00,00,00,00,
4327560225,00000247,false,Rx,1,8,44,7D,03,02,00,00,20,00,
4327560466,00000717,false,Rx,1,8,0C,01,00,00,00,00,02,00,
4327569282,00000217,false,Rx,1,8,01,40,81,FD,9C,02,00,00,
4327659507,00000207,false,Rx,1,8,00,00,C0,FF,C8,00,04,00,
4327659738,00000227,false,Rx,1,8,63,0C,26,81,03,00,1F,C5,
4327659987,00000237,false,Rx,1,8,3D,41,00,00,00,00,00,00,
4327660228,00000247,false,Rx,1,8,44,7D,03,02,00,00,20,00,
4327660468,00000717,false,Rx,1,8,0E,00,00,02,06,59,00,00,
4327669294,00000217,false,Rx,1,8,01,40,81,FD,9C,02,00,00,
4327759469,00000207,false,Rx,1,8,00,00,C0,FF,C8,00,04,00,
4327759701,00000227,false,Rx,1,8,5D,0C,26,81,01,00,1F,C5,
4327759949,00000237,false,Rx,1,8,3D,41,00,00,00,00,00,00,
4327760183,00000247,false,Rx,1,8,44,7D,03,02,00,00,20,00,
4327760423,00000717,false,Rx,1,8,0F,00,EB,01,2E,11,00,00,
4327769271,00000217,false,Rx,1,8,01,40,81,FD,9C,02,00,00,
4327859376,00000367,false,Rx,1,8,00,00,00,00,00,00,00,00,
4327859622,00000207,false,Rx,1,8,00,00,00,00,C8,00,04,00,
4327859856,00000227,false,Rx,1,8,57,0C,26,81,07,00,1F,C5,
4327860104,00000237,false,Rx,1,8,3D,41,00,00,00,00,00,00,
4327860344,00000247,false,Rx,1,8,44,7D,03,02,00,00,20,00,
4327860585,00000717,false,Rx,1,8,10,0A,50,FF,03,80,FF,00,
4327869247,00000217,false,Rx,1,8,01,40,81,FD,9C,02,00,00,
4327869493,00000377,false,Rx,1,8,00,00,00,00,00,00,00,00,
4327879351,00000347,false,Rx,1,8,00,00,00,00,00,08,00,00,
4327889355,00000357,false,Rx,1,8,00,00,00,00,00,00,02,00,
4327899336,00000327,false,Rx,1,8,00,00,00,00,00,00,00,00,
4327909336,00000337,false,Rx,1,8,00,00,00,00,00,00,00,00,
4327959444,00000207,false,Rx,1,8,00,00,C0,FF,C8,00,04,00,
4327959676,00000227,false,Rx,1,8,60,0C,25,81,06,00,1F,C5,
4327959925,00000237,false,Rx,1,8,3D,41,00,00,00,00,00,00,
4327960165,00000247,false,Rx,1,8,44,7D,03,02,00,00,20,00,
4327960413,00000717,false,Rx,1,8,11,00,12,E4,00,00,00,00,
4327969222,00000217,false,Rx,1,8,01,40,81,FD,9C,02,00,00,
4328059404,00000207,false,Rx,1,8,00,00,00,00,C8,00,04,00,
4328059643,00000227,false,Rx,1,8,50,0C,2F,81,00,00,1F,C5,
4328059885,00000237,false,Rx,1,8,3D,41,00,00,00,00,00,00,
4328060125,00000247,false,Rx,1,8,44,7D,03,02,00,00,20,00,
4328060366,00000717,false,Rx,1,8,12,40,29,00,27,00,17,00,
4328069181,00000217,false,Rx,1,8,01,40,81,FD,9C,02,00,00,
4328159409,00000207,false,Rx,1,8,00,00,C0,FF,C8,00,04,00,
4328159641,00000227,false,Rx,1,8,46,0C,2C,81,01,00,1F,C5,
4328159890,00000237,false,Rx,1,8,3D,41,00,00,00,00,00,00,
4328160131,00000247,false,Rx,1,8,44,7D,03,02,00,00,20,00,
4328160378,00000717,false,Rx,1,8,13,00,00,00,00,00,00,00,
4328169187,00000217,false,Rx,1,8,01,40,81,FD,9C,02,00,00,
4328259362,00000207,false,Rx,1,8,00,00,00,00,C8,00,04,00,
4328259593,00000227,false,Rx,1,8,47,0C,2A,81,00,00,1F,C5,
4328259840,00000237,false,Rx,1,8,3D,41,00,00,00,00,00,00,
4328260082,00000247,false,Rx,1,8,44,7D,03,02,00,00,20,00,
4328260330,00000537,false,Rx,1,8,0E,00,00,00,00,00,00,00,
4328260570,00000717,false,Rx,1,8,14,00,00,00,24,00,00,00,
4328269158,00000217,false,Rx,1,8,01,40,81,FD,9C,02,00,00,
4328359346,00000207,false,Rx,1,8,00,00,00,00,C8,00,04,00,
4328359585,00000227,false,Rx,1,8,46,0C,1D,81,00,00,1F,C5,
4328359826,00000237,false,Rx,1,8,3D,41,00,00,00,00,00,00,
4328360067,00000247,false,Rx,1,8,44,7D,03,02,00,00,20,00,
4328369135,00000217,false,Rx,1,8,01,40,81,FD,9C,02,00,00,
4328459341,00000207,false,Rx,1,8,00,00,00,00,C8,00,04,00,
4328459572,00000227,false,Rx,1,8,46,0C,25,81,07,00,1F,C5,
4328459821,00000237,false,Rx,1,8,3D,41,00,00,00,00,00,00,
4328460062,00000247,false,Rx,1,8,44,7D,03,02,00,00,20,00,
4328460302,00000717,false,Rx,1,8,16,00,00,00,00,00,36,46,
4328469119,00000217,false,Rx,1,8,01,40,81,FD,9C,02,00,00,
4328559293,00000207,false,Rx,1,8,00,00,C0,FF,C8,00,04,00,
4328559533,00000227,false,Rx,1,8,47,0C,29,81,02,00,1F,C5,
4328559780,00000237,false,Rx,1,8,3D,41,00,00,00,00,00,00,
4328560021,00000247,false,Rx,1,8,44,7D,03,02,00,00,20,00,
4328560262,00000717,false,Rx,1,8,17,00,00,50,04,00,00,00,
4328569080,00000217,false,Rx,1,8,01,40,81,FD,9C,02,00,00,
4328659301,00000207,false,Rx,1,8,00,00,00,00,C8,00,04,00,
4328659532,00000227,false,Rx,1,8,41,0C,2B,81,09,00,1F,C5,
4328659779,00000237,false,Rx,1,8,3D,41,00,00,00,00,00,00,
4328660020,00000247,false,Rx,1,8,44,7D,03,02,00,00,20,00,
4328660269,00000717,false,Rx,1,8,18,00,00,00,00,00,00,00,
4328669076,00000217,false,Rx,1,8,01,40,81,FD,9C,02,00,00,
4328675709,0000045C,false,Rx,1,8,13,8C,15,0E,00,00,90,8C,
4328675957,0000042C,false,Rx,1,8,42,60,00,00,64,00,00,00,
4328676198,00000368,false,Rx,1,8,03,49,29,11,00,0C,40,FF,
4328759288,00000207,false,Rx,1,8,00,00,C0,FF,F0,00,04,00,
4328759526,00000227,false,Rx,1,8,3F,0C,25,81,05,00,1F,C5,
4328759774,00000237,false,Rx,1,8,3D,41,00,00,00,00,00,00,
4328760008,00000247,false,Rx,1,8,44,7D,03,02,00,00,20,00,
4328760256,00000717,false,Rx,1,8,19,00,00,00,00,00,00,00,
4328769066,00000217,false,Rx,1,8,01,40,81,FD,9C,02,00,00,
4328775706,0000045C,false,Rx,1,8,13,8C,15,0E,00,00,90,8C,
4328775961,0000042C,false,Rx,1,8,42,60,00,00,64,00,00,00,
4328776202,00000368,false,Rx,1,8,03,49,29,11,00,0C,40,FF,
4328859157,00000367,false,Rx,1,8,00,00,00,00,00,00,00,00,
4328859411,00000207,false,Rx,1,8,00,00,00,00,F0,00,14,00,
4328859644,00000227,false,Rx,1,8,33,0C,1C,81,00,00,1F,C5,
4328859893,00000237,false,Rx,1,8,3D,41,00,00,00,00,00,00,
4328860133,00000247,false,Rx,1,8,44,7D,03,02,00,00,20,00,
4328860381,00000717,false,Rx,1,8,01,00,00,00,00,00,00,00,
4328869029,00000217,false,Rx,1,8,01,40,81,FD,9C,02,00,00,
4328869275,00000377,false,Rx,1,8,00,00,00,00,00,00,00,00,
4328875706,0000045C,false,Rx,1,8,13,8C,15,0E,00,00,90,8C,
4328875955,0000042C,false,Rx,1,8,42,60,00,00,64,00,00,00,
4328876195,00000368,false,Rx,1,8,03,49,29,11,00,0C,40,FF,
4328879165,00000347,false,Rx,1,8,00,00,00,00,00,00,00,00,
4328889165,00000357,false,Rx,1,8,00,00,00,00,00,00,02,00,
4328899170,00000327,false,Rx,1,8,00,00,00,00,00,00,00,00,
4328909160,00000337,false,Rx,1,8,00,00,00,00,00,00,00,00,
4328959245,00000207,false,Rx,1,8,00,00,C0,FF,F0,00,14,00,
4328959476,00000227,false,Rx,1,8,34,0C,22,81,01,00,1F,C5,
4328959725,00000237,false,Rx,1,8,3D,41,00,00,00,00,00,00,
4328959966,00000247,false,Rx,1,8,44,7D,03,02,00,00,20,00,
4328960213,00000717,false,Rx,1,8,02,00,00,00,00,00,00,00,
4328969031,00000217,false,Rx,1,8,01,40,81,FD,9C,02,00,00,
4328975711,0000045C,false,Rx,1,8,13,8C,15,0E,00,00,90,8C,
4328975958,0000042C,false,Rx,1,8,42,60,00,00,64,00,00,00,
4328976198,00000368,false,Rx,1,8,03,49,29,11,00,0C,40,FF,
4329059197,00000207,false,Rx,1,8,00,00,00,00,F0,00,14,00,
4329059437,00000227,false,Rx,1,8,2F,0C,23,81,02,00,1F,C5,
4329059684,00000237,false,Rx,1,8,3D,41,00,00,00,00,00,00,
4329059925,00000247,false,Rx,1,8,44,7D,03,02,00,00,20,00,
4329069008,00000217,false,Rx,1,8,01,40,81,FD,9C,02,00,00,
4329075703,0000045C,false,Rx,1,8,13,8C,15,0E,00,00,90,8C,
4329075958,0000042C,false,Rx,1,8,42,60,00,00,64,00,00,00,
4329076198,00000368,false,Rx,1,8,03,49,29,11,00,0C,40,FF,
4329159207,00000207,false,Rx,1,8,00,00,00,00,F0,00,14,00,
4329159447,00000227,false,Rx,1,8,28,0C,23,81,01,00,1F,C5,
4329159695,00000237,false,Rx,1,8,3D,41,00,00,00,00,00,00,
4329159937,00000247,false,Rx,1,8,44,7D,03,02,00,00,20,00,
4329160171,00000537,false,Rx,1,8,0F,00,00,00,8C,A1,70,0A,
4329160418,00000717,false,Rx,1,8,04,00,00,00,00,00,00,00,
4329168983,00000217,false,Rx,1,8,01,40,81,FD,9C,02,00,00,
4329175708,0000045C,false,Rx,1,8,13,8C,15,0E,00,00,90,8C,
4329175955,0000042C,false,Rx,1,8,42,60,00,00,64,00,00,00,
4329176196,00000368,false,Rx,1,8,03,49,29,11,00,0C,40,FF,
4329259182,00000207,false,Rx,1,8,00,00,C0,FF,F0,00,14,00,
4329259421,00000227,false,Rx,1,8,26,0C,21,81,01,00,1F,C5,
4329259668,00000237,false,Rx,1,8,3D,41,00,00,00,00,00,00,
4329259903,00000247,false,Rx,1,8,44,7D,03,02,00,00,20,00,
4329260150,00000717,false,Rx,1,8,05,00,00,00,00,00,00,00,
4329268965,00000217,false,Rx,1,8,01,40,81,FD,9C,02,00,00,
4329275705,0000045C,false,Rx,1,8,13,8C,15,0E,00,00,90,8C,
4329275952,0000042C,false,Rx,1,8,42,60,00,00,64,00,00,00,
4329276193,00000368,false,Rx,1,8,03,49,29,11,00,0C,40,FF,
4329359142,00000207,false,Rx,1,8,00,00,00,00,F0,00,14,00,
4329359381,00000227,false,Rx,1,8,1A,0C,1A,81,00,00,1F,C5,
4329359629,00000237,false,Rx,1,8,3D,41,00,00,00,00,00,00,
4329359871,00000247,false,Rx,1,8,44,7D,03,02,00,00,20,00,
4329360111,00000717,false,Rx,1,8,06,00,96,45,66,06,00,40,
4329368928,00000217,false,Rx,1,8,01,40,81,FD,9C,02,00,00,
4329375705,0000045C,false,Rx,1,8,13,8C,15,0E,00,00,90,8C,
4329375953,0000042C,false,Rx,1,8,42,60,00,00,64,00,00,00,
4329376193,00000368,false,Rx,1,8,03,49,29,11,00,0C,40,FF,
4329459147,00000207,false,Rx,1,8,00,00,00,00,F0,00,14,00,
4329459386,00000227,false,Rx,1,8,17,0C,24,81,02,00,1F,C5,
4329459634,00000237,false,Rx,1,8,3D,41,00,00,00,00,00,00,
4329459876,00000247,false,Rx,1,8,44,7D,03,02,00,00,20,00,
4329460116,00000717,false,Rx,1,8,07,00,00,00,01,0A,00,00,
4329468918,00000217,false,Rx,1,8,01,40,81,FD,9C,02,00,00,
4329475703,0000045C,false,Rx,1,8,13,8C,15,0E,00,00,90,8C,
4329475950,0000042C,false,Rx,1,8,42,60,00,00,64,00,00,00,
4329476190,00000368,false,Rx,1,8,03,49,29,11,00,0C,40,FF,
4329559101,00000207,false,Rx,1,8,00,00,C0,FF,F0,00,14,00,
4329559339,00000227,false,Rx,1,8,23,0C,27,81,02,00,1F,C5,
4329559588,00000237,false,Rx,1,8,3D,41,00,00,00,00,00,00,
4329559828,00000247,false,Rx,1,8,44,7D,03,02,00,00,20,00,
4329560069,00000717,false,Rx,1,8,08,00,00,00,F2,45,00,00,
4329568900,00000217,false,Rx,1,8,01,40,81,FD,9C,02,00,00,
4329575701,0000045C,false,Rx,1,8,13,8C,15,0E,00,00,90,8C,
4329575948,0000042C,false,Rx,1,8,42,60,00,00,64,00,00,00,
4329576188,00000368,false,Rx,1,8,03,49,29,11,00,0C,40,FF,
4329659096,00000207,false,Rx,1,8,00,00,C0,FF,F0,00,14,00,
4329659337,00000227,false,Rx,1,8,1A,0C,29,81,01,00,1F,C5,
4329659584,00000237,false,Rx,1,8,3D,41,00,00,00,00,00,00,
4329659824,00000247,false,Rx,1,8,44,7D,03,02,00,00,20,00,
4329660058,00000717,false,Rx,1,8,09,00,5A,46,00,00,00,00,
4329668883,00000217,false,Rx,1,8,01,40,81,FD,9C,02,00,00,
4329675698,0000045C,false,Rx,1,8,13,8C,15,0E,00,00,90,8C,
4329675945,0000042C,false,Rx,1,8,42,60,00,00,64,00,00,00,
4329676193,00000368,false,Rx,1,8,03,49,29,11,00,0C,40,FF,
4329759074,00000207,false,Rx,1,8,00,00,00,00,F0,00,14,00,
4329759313,00000227,false,Rx,1,8,11,0C,22,81,03,00,1F,C5,
4329759560,00000237,false,Rx,1,8,3D,41,00,00,00,00,00,00,
4329759800,00000247,false,Rx,1,8,44,7D,03,02,00,00,20,00,
4329760042,00000717,false,Rx,1,8,0A,00,00,00,00,00,00,00,
4329768866,00000217,false,Rx,1,8,01,40,81,FD,9C,02,00,00,
4329775695,0000045C,false,Rx,1,8,13,8C,15,0E,00,00,90,8C,
4329775950,0000042C,false,Rx,1,8,42,60,00,00,64,00,00,00,
4329776191,00000368,false,Rx,1,8,03,49,29,11,00,0C,40,FF,
4329858942,00000367,false,Rx,1,8,00,00,00,00,00,00,00,00,
4329859188,00000207,false,Rx,1,8,00,00,00,00,F0,00,14,00,
4329859420,00000227,false,Rx,1,8,0F,0C,28,81,02,00,1F,C5,
4329859676,00000237,false,Rx,1,8,3D,41,00,00,00,00,00,00,
4329859910,00000247,false,Rx,1,8,44,7D,03,02,00,00,20,00,
4329860157,00000717,false,Rx,1,8,0B,00,00,00,00,00,00,00,
4329868818,00000217,false,Rx,1,8,01,40,81,FD,9C,02,00,00,
4329869067,00000377,false,Rx,1,8,00,00,00,00,00,00,00,00,
4329875700,0000045C,false,Rx,1,8,13,8C,15,0E,00,00,90,8C,
4329875948,0000042C,false,Rx,1,8,42,60,00,00,64,00,00,00,
4329876188,00000368,false,Rx,1,8,03,49,29,11,00,0C,40,FF,
4329878936,00000347,false,Rx,1,8,00,00,00,00,00,00,00,00,
4329888928,00000357,false,Rx,1,8,00,00,00,00,00,00,02,00,
4329898939,00000327,false,Rx,1,8,00,00,00,00,00,00,00,00,
4329908944,00000337,false,Rx,1,8,00,00,00,00,00,00,00,00,
4329959024,00000207,false,Rx,1,8,00,00,C0,FF,F0,00,14,00,
4329959263,00000227,false,Rx,1,8,0F,0C,27,81,00,00,1F,C5,
4329959511,00000237,false,Rx,1,8,3D,41,00,00,00,00,00,00,
4329959751,00000247,false,Rx,1,8,44,7D,03,02,00,00,20,00,
4329959992,00000717,false,Rx,1,8,0C,01,00,00,00,00,02,00,
4329968815,00000217,false,Rx,1,8,01,40,81,FD,9C,02,00,00,
4329975694,0000045C,false,Rx,1,8,13,8C,15,0E,00,00,90,8C,
4329975948,0000042C,false,Rx,1,8,42,60,00,00,64,00,00,00,
4329976188,00000368,false,Rx,1,8,03,49,29,11,00,0C,40,FF,
4330058983,00000207,false,Rx,1,8,00,00,C0,FF,F0,00,14,00,
4330059215,00000227,false,Rx,1,8,0D,0C,22,81,00,00,1F,C5,
4330059463,00000237,false,Rx,1,8,3D,41,00,00,00,00,00,00,
4330059703,00000247,false,Rx,1,8,44,7D,03,02,00,00,20,00,
4330059952,00000537,false,Rx,1,8,10,00,00,0A,00,00,00,00,
4330060193,00000717,false,Rx,1,8,0E,00,00,02,66,62,00,00,
4330068801,00000217,false,Rx,1,8,01,40,81,FD,9C,02,00,00,
4330075693,0000045C,false,Rx,1,8,13,8C,15,0E,00,00,90,8C,
4330075947,0000042C,false,Rx,1,8,42,60,00,00,64,00,00,00,
4330076187,00000368,false,Rx,1,8,03,49,29,11,00,0C,40,FF,
4330158990,00000207,false,Rx,1,8,00,00,C0,FF,F0,00,14,00,
4330159223,00000227,false,Rx,1,8,05,0C,27,81,02,00,1F,C5,
4330159470,00000237,false,Rx,1,8,3D,41,00,00,00,00,00,00,
4330159710,00000247,false,Rx,1,8,44,7D,03,02,00,00,20,00,
4330159943,00000717,false,Rx,1,8,0F,00,EB,01,32,10,00,00,
4330168761,00000217,false,Rx,1,8,01,40,81,FD,9C,02,00,00,
4330175698,0000045C,false,Rx,1,8,13,8C,15,0E,00,00,90,8C,
4330175945,0000042C,false,Rx,1,8,42,60,00,00,64,00,00,00,
4330176186,00000368,false,Rx,1,8,03,49,29,11,00,0C,40,FF,
4330258975,00000207,false,Rx,1,8,00,00,C0,FF,F0,00,14,00,
4330259215,00000227,false,Rx,1,8,03,0C,29,81,01,00,1F,C5,
4330259463,00000237,false,Rx,1,8,3D,41,00,00,00,00,00,00,
4330259702,00000247,false,Rx,1,8,44,7D,03,02,00,00,20,00,
4330259937,00000717,false,Rx,1,8,10,0A,40,FF,03,80,FF,00,
4330268753,00000217,false,Rx,1,8,01,40,81,FD,9C,02,00,00,
4330275696,0000045C,false,Rx,1,8,13,8C,15,0E,00,00,90,8C,
4330275944,0000042C,false,Rx,1,8,42,60,00,00,64,00,00,00,
4330276184,00000368,false,Rx,1,8,03,49,29,11,00,0C,40,FF,
4330358931,00000207,false,Rx,1,8,00,00,C0,FF,F0,00,14,00,
4330359170,00000227,false,Rx,1,8,00,0C,2B,81,00,00,1F,C5,
4330359418,00000237,false,Rx,1,8,3D,41,00,00,00,00,00,00,
4330359659,00000247,false,Rx,1,8,44,7D,03,02,00,00,20,00,
4330359900,00000717,false,Rx,1,8,11,00,EA,02,00,00,00,00,
4330368706,00000217,false,Rx,1,8,01,40,81,FD,9C,02,00,00,
4330375695,0000045C,false,Rx,1,8,13,8C,15,0E,00,00,90,8C,
4330375945,0000042C,false,Rx,1,8,42,60,00,00,64,00,00,00,
4330376185,00000368,false,Rx,1,8,03,49,29,11,00,0C,40,FF,
4330458945,00000207,false,Rx,1,8,00,00,C0,FF,F0,00,14,00,
4330459177,00000227,false,Rx,1,8,FE,0B,28,81,00,00,1F,C5,
4330459424,00000237,false,Rx,1,8,3D,41,00,00,00,00,00,00,
4330459665,00000247,false,Rx,1,8,44,7D,03,02,00,00,20,00,
4330459906,00000717,false,Rx,1,8,12,40,29,00,27,00,17,00,
4330468716,00000217,false,Rx,1,8,01,40,81,FD,9C,02,00,00,
4330475693,0000045C,false,Rx,1,8,13,8C,15,0E,00,00,90,8C,
4330475940,0000042C,false,Rx,1,8,42,60,00,00,64,00,00,00,
4330476180,00000368,false,Rx,1,8,03,49,29,11,00,0C,40,FF,
4330558918,00000207,false,Rx,1,8,00,00,00,00,F0,00,14,00,
4330559157,00000227,false,Rx,1,8,00,0C,23,81,00,00,1F,C5,
4330559405,00000237,false,Rx,1,8,3D,41,00,00,00,00,00,00,
4330559645,00000247,false,Rx,1,8,44,7D,03,02,00,00,20,00,
4330559894,00000717,false,Rx,1,8,13,00,00,00,01,00,00,00,
4330568694,00000217,false,Rx,1,8,01,40,81,FD,9C,02,00,00,
4330575690,0000045C,false,Rx,1,8,13,8C,15,0E,00,00,90,8C,
4330575938,0000042C,false,Rx,1,8,42,60,00,00,64,00,00,00,
4330576185,00000368,false,Rx,1,8,03,49,29,11,00,0C,40,FF,
4330658858,00000207,false,Rx,1,8,00,00,C0,FF,F0,00,14,00,
4330659091,00000227,false,Rx,1,8,EC,0B,2B,81,03,00,1F,C5,
4330659339,00000237,false,Rx,1,8,3D,41,00,00,00,00,00,00,
4330659579,00000247,false,Rx,1,8,44,7D,03,02,00,00,20,00,
4330659827,00000717,false,Rx,1,8,14,00,00,00,D3,FF,00,00,
4330668650,00000217,false,Rx,1,8,01,40,81,FD,9C,02,00,00,
4330675691,0000045C,false,Rx,1,8,13,8C,15,0E,00,00,90,8C,
4330675938,0000042C,false,Rx,1,8,42,60,00,00,64,00,00,00,
4330676179,00000368,false,Rx,1,8,03,49,29,11,00,0C,40,FF,
4330758853,00000207,false,Rx,1,8,00,00,C0,FF,F0,00,14,00,
4330759086,00000227,false,Rx,1,8,F7,0B,21,81,00,00,1F,C5,
4330759334,00000237,false,Rx,1,8,3D,41,00,00,00,00,00,00,
4330759574,00000247,false,Rx,1,8,44,7D,03,02,00,00,20,00,
4330768649,00000217,false,Rx,1,8,01,40,81,FD,9C,02,00,00,
4330775693,0000045C,false,Rx,1,8,13,8C,15,0E,00,00,90,8C,
4330775934,0000042C,false,Rx,1,8,42,60,00,00,64,00,00,00,
4330776181,00000368,false,Rx,1,8,03,49,29,11,00,0C,40,FF,
4330858736,00000367,false,Rx,1,8,00,00,00,00,00,00,00,00,
4330858984,00000207,false,Rx,1,8,00,00,C0,FF,F0,00,14,00,
4330859216,00000227,false,Rx,1,8,EB,0B,28,81,00,00,1F,C5,
4330859464,00000237,false,Rx,1,8,3D,41,00,00,00,00,00,00,
4330859705,00000247,false,Rx,1,8,44,7D,03,02,00,00,20,00,
4330859946,00000717,false,Rx,1,8,16,00,00,00,00,00,56,46,
4330868628,00000217,false,Rx,1,8,01,40,81,FD,9C,02,00,00,
4330868878,00000377,false,Rx,1,8,00,00,00,00,00,00,00,00,
4330875685,0000045C,false,Rx,1,8,13,8C,15,0E,00,00,90,8C,
4330875934,0000042C,false,Rx,1,8,42,60,00,00,64,00,00,00,
4330876182,00000368,false,Rx,1,8,03,49,29,11,00,0C,40,FF,
4330878731,00000347,false,Rx,1,8,00,00,00,00,00,00,00,00,
4330888728,00000357,false,Rx,1,8,00,00,00,00,00,00,02,00,
4330898725,00000327,false,Rx,1,8,00,00,00,00,00,00,00,00,
4330908723,00000337,false,Rx,1,8,00,00,00,00,00,00,00,00,
4330958832,00000207,false,Rx,1,8,00,00,00,00,F0,00,14,00,
4330959072,00000227,false,Rx,1,8,F6,0B,2B,81,00,00,1F,C5,
4330959319,00000237,false,Rx,1,8,3D,41,00,00,00,00,00,00,
4330959560,00000247,false,Rx,1,8,44,7D,03,02,00,00,20,00,
4330959808,00000537,false,Rx,1,8,11,00,00,00,00,00,00,00,
4330960049,00000717,false,Rx,1,8,17,00,00,50,04,00,00,00,
4330968604,00000217,false,Rx,1,8,01,40,81,FD,9C,02,00,00,
4330975691,0000045C,false,Rx,1,8,13,8C,15,0E,00,00,90,8C,
4330975938,0000042C,false,Rx,1,8,42,60,00,00,64,00,00,00,
4330976178,00000368,false,Rx,1,8,03,49,29,11,00,0C,40,FF,
4331058796,00000207,false,Rx,1,8,00,00,C0,FF,F0,00,14,00,
4331059029,00000227,false,Rx,1,8,E5,0B,22,81,04,00,1F,C5,
4331059276,00000237,false,Rx,1,8,3D,41,00,00,00,00,00,00,
4331059517,00000247,false,Rx,1,8,44,7D,03,02,00,00,20,00,
4331059764,00000717,false,Rx,1,8,18,00,00,00,00,00,00,00,
4331068581,00000217,false,Rx,1,8,01,40,81,FD,9C,02,00,00,
4331075684,0000045C,false,Rx,1,8,13,8C,15,0E,00,00,90,8C,
4331075931,0000042C,false,Rx,1,8,42,60,00,00,64,00,00,00,
4331076179,00000368,false,Rx,1,8,03,49,29,11,00,0C,40,FF,
4331158763,00000207,false,Rx,1,8,00,00,C0,FF,F0,00,14,00,
4331159003,00000227,false,Rx,1,8,EC,0B,23,81,03,00,1F,C5,
4331159251,00000237,false,Rx,1,8,3D,41,00,00,00,00,00,00,
4331159491,00000247,false,Rx,1,8,44,7D,03,02,00,00,20,00,
4331159739,00000717,false,Rx,1,8,19,00,00,00,00,00,00,00,
4331168540,00000217,false,Rx,1,8,01,40,81,FD,9C,02,00,00,
4331175688,0000045C,false,Rx,1,8,13,8C,15,0E,00,00,90,8C,
4331175936,0000042C,false,Rx,1,8,42,60,00,00,64,00,00,00,
4331176177,00000368,false,Rx,1,8,03,49,29,11,00,0C,40,FF,
4331258770,00000207,false,Rx,1,8,00,00,C0,FF,F0,00,14,00,
4331259011,00000227,false,Rx,1,8,E6,0B,21,81,01,00,1F,C5,
4331259258,00000237,false,Rx,1,8,3D,41,00,00,00,00,00,00,
4331259498,00000247,false,Rx,1,8,44,7D,03,02,00,00,20,00,
4331259746,00000717,false,Rx,1,8,01,00,00,00,00,00,00,00,
4331268547,00000217,false,Rx,1,8,01,40,81,FD,9C,02,00,00,
4331275687,0000045C,false,Rx,1,8,13,8C,15,0E,00,00,90,8C,
4331275936,0000042C,false,Rx,1,8,42,60,00,00,64,00,00,00,
4331276176,00000368,false,Rx,1,8,03,49,29,11,00,0C,40,FF,
4331358745,00000207,false,Rx,1,8,00,00,C0,FF,F0,00,14,00,
4331358987,00000227,false,Rx,1,8,D8,0B,21,81,03,00,1F,C5,
4331359234,00000237,false,Rx,1,8,3D,41,00,00,00,00,00,00,
4331359474,00000247,false,Rx,1,8,44,7D,03,02,00,00,20,00,
4331359715,00000717,false,Rx,1,8,02,00,00,00,00,00,00,00,
4331368519,00000217,false,Rx,1,8,01,40,81,FD,9C,02,00,00,
4331375683,0000045C,false,Rx,1,8,13,8C,15,0E,00,00,90,8C,
4331375931,0000042C,false,Rx,1,8,42,60,00,00,64,00,00,00,
4331376171,00000368,false,Rx,1,8,03,49,29,11,00,0C,40,FF,
4331458711,00000207,false,Rx,1,8,00,00,00,00,F0,00,14,00,
4331458943,00000227,false,Rx,1,8,DB,0B,29,81,00,00,1F,C5,
4331459190,00000237,false,Rx,1,8,3D,41,00,00,00,00,00,00,
4331459431,00000247,false,Rx,1,8,44,7D,03,02,00,00,20,00,
4331468499,00000217,false,Rx,1,8,01,40,81,FD,9C,02,00,00,
4331475678,0000045C,false,Rx,1,8,13,8C,15,0E,00,00,90,8C,
4331475933,0000042C,false,Rx,1,8,42,60,00,00,64,00,00,00,
4331476173,00000368,false,Rx,1,8,03,49,29,11,00,0C,40,FF,
4331558701,00000207,false,Rx,1,8,00,00,C0,FF,F0,00,14,00,
4331558933,00000227,false,Rx,1,8,D6,0B,21,81,02,00,1F,C5,
4331559188,00000237,false,Rx,1,8,3D,41,00,00,00,00,00,00,
4331559421,00000247,false,Rx,1,8,44,7D,03,02,00,00,20,00,
4331559669,00000717,false,Rx,1,8,04,00,00,00,00,00,00,00,
4331568484,00000217,false,Rx,1,8,01,40,81,FD,9C,02,00,00,
4331575677,0000045C,false,Rx,1,8,13,8C,15,0E,00,00,90,8C,
4331575925,0000042C,false,Rx,1,8,42,60,00,00,64,00,00,00,
4331576173,00000368,false,Rx,1,8,03,49,29,11,00,0C,40,FF,
4331658660,00000207,false,Rx,1,8,00,00,C0,FF,F0,00,14,00,
4331658892,00000227,false,Rx,1,8,CE,0B,1B,81,00,00,1F,C5,
4331659141,00000237,false,Rx,1,8,3D,41,00,00,00,00,00,00,
4331659381,00000247,false,Rx,1,8,44,7D,03,02,00,00,20,00,
4331659628,00000717,false,Rx,1,8,05,00,00,00,00,00,00,00,
4331668447,00000217,false,Rx,1,8,01,40,81,FD,9C,02,00,00,
4331675677,0000045C,false,Rx,1,8,13,8C,15,0E,00,00,90,8C,
4331675925,0000042C,false,Rx,1,8,42,60,00,00,64,00,00,00,
4331676166,00000368,false,Rx,1,8,03,49,29,11,00,0C,40,FF,
4331758652,00000207,false,Rx,1,8,00,00,C0,FF,F0,00,14,00,
4331758885,00000227,false,Rx,1,8,DA,0B,23,81,01,00,1F,C5,
4331759133,00000237,false,Rx,1,8,3D,41,00,00,00,00,00,00,
4331759373,00000247,false,Rx,1,8,44,7D,03,02,00,00,20,00,
4331759605,00000717,false,Rx,1,8,06,00,FA,45,66,06,00,40,
4331768439,00000217,false,Rx,1,8,01,40,81,FD,9C,02,00,00,
4331775677,0000045C,false,Rx,1,8,13,8C,15,0E,00,00,90,8C,
4331775926,0000042C,false,Rx,1,8,42,60,00,00,64,00,00,00,
4331776166,00000368,false,Rx,1,8,03,49,29,11,00,0C,40,FF,
4331858519,00000367,false,Rx,1,8,00,00,00,00,00,00,00,00,
4331858765,00000207,false,Rx,1,8,00,00,C0,FF,F0,00,14,00,
4331859000,00000227,false,Rx,1,8,D2,0B,23,81,05,00,1F,C5,
4331859248,00000237,false,Rx,1,8,3D,41,00,00,00,00,00,00,
4331859487,00000247,false,Rx,1,8,44,7D,03,02,00,00,20,00,
4331859721,00000537,false,Rx,1,8,12,03,E9,DA,DC,E1,B0,3F,
4331859962,00000717,false,Rx,1,8,07,00,00,00,01,0A,00,00,
4331868408,00000217,false,Rx,1,8,01,40,81,FD,9C,02,00,00,
4331868662,00000377,false,Rx,1,8,00,00,00,00,00,00,00,00,
4331875676,0000045C,false,Rx,1,8,13,8C,15,0E,00,00,90,8C,
4331875923,0000042C,false,Rx,1,8,42,60,00,00,64,00,00,00,
4331876170,00000368,false,Rx,1,8,03,49,29,11,00,0C,40,FF,
4331878512,00000347,false,Rx,1,8,00,00,00,00,00,00,00,00,
4331888509,00000357,false,Rx,1,8,00,00,00,00,00,00,02,00,
4331898513,00000327,false,Rx,1,8,00,00,00,00,00,00,00,00,
4331908503,00000337,false,Rx,1,8,00,00,00,00,00,00,00,00,
4331958586,00000207,false,Rx,1,8,00,00,C0,FF,F0,00,14,00,
4331958818,00000227,false,Rx,1,8,C2,0B,28,81,00,00,1F,C5,
4331959067,00000237,false,Rx,1,8,3D,41,00,00,00,00,00,00,
4331959307,00000247,false,Rx,1,8,44,7D,03,02,00,00,20,00,
4331959548,00000717,false,Rx,1,8,08,00,00,00,FA,45,00,00,
4331968386,00000217,false,Rx,1,8,01,40,81,FD,9C,02,00,00,
4331975678,0000045C,false,Rx,1,8,13,8C,15,0E,00,00,90,8C,
4331975925,0000042C,false,Rx,1,8,42,60,00,00,64,00,00,00,
4331976165,00000368,false,Rx,1,8,03,49,29,11,00,0C,40,FF,
4332058605,00000207,false,Rx,1,8,00,00,00,00,F0,00,14,00,
4332058844,00000227,false,Rx,1,8,C6,0B,1F,81,04,00,1F,C5,
4332059093,00000237,false,Rx,1,8,3D,41,00,00,00,00,00,00,
4332059334,00000247,false,Rx,1,8,44,7D,03,02,00,00,20,00,
4332059574,00000717,false,Rx,1,8,09,00,D2,45,00,00,00,00,
4332068381,00000217,false,Rx,1,8,01,40,81,FD,9C,02,00,00,
4332075679,0000045C,false,Rx,1,8,13,8C,15,0E,00,00,90,8C,
4332075927,0000042C,false,Rx,1,8,42,60,00,00,64,00,00,00,
4332076168,00000368,false,Rx,1,8,03,49,29,11,00,0C,40,FF,
4332158550,00000207,false,Rx,1,8,00,00,00,00,F0,00,14,00,
4332158781,00000227,false,Rx,1,8,BE,0B,21,81,07,00,1F,C5,
4332159030,00000237,false,Rx,1,8,3D,41,00,00,00,00,00,00,
4332159271,00000247,false,Rx,1,8,44,7D,03,02,00,00,20,00,
4332159518,00000717,false,Rx,1,8,0A,00,00,00,00,00,00,00,
4332168349,00000217,false,Rx,1,8,01,40,81,FD,9C,02,00,00,
4332175678,0000045C,false,Rx,1,8,13,8C,15,0E,00,00,90,8C,
4332175925,0000042C,false,Rx,1,8,42,60,00,00,64,00,00,00,
4332176166,00000368,false,Rx,1,8,03,49,29,11,00,0C,40,FF,
4332258540,00000207,false,Rx,1,8,00,00,00,00,F0,00,14,00,
4332258778,00000227,false,Rx,1,8,C3,0B,20,81,00,00,1F,C5,
4332259021,00000237,false,Rx,1,8,3D,41,00,00,00,00,00,00,
4332259261,00000247,false,Rx,1,8,44,7D,03,02,00,00,20,00,
4332259508,00000717,false,Rx,1,8,0B,00,00,00,00,00,00,00,
4332268325,00000217,false,Rx,1,8,01,40,81,FD,9C,02,00,00,
4332275678,0000045C,false,Rx,1,8,13,8C,15,0E,00,00,90,8C,
4332275920,0000042C,false,Rx,1,8,42,60,00,00,64,00,00,00,
4332276167,00000368,false,Rx,1,8,03,49,29,11,00,0C,40,FF,
4332358516,00000207,false,Rx,1,8,00,00,00,00,F0,00,14,00,
4332358756,00000227,false,Rx,1,8,B7,0B,26,81,00,00,1F,C5,
4332358997,00000237,false,Rx,1,8,3D,41,00,00,00,00,00,00,
4332359237,00000247,false,Rx,1,8,44,7D,03,02,00,00,20,00,
4332359484,00000717,false,Rx,1,8,0C,01,00,00,00,00,02,00,
4332368315,00000217,false,Rx,1,8,01,40,81,FD,9C,02,00,00,
4332375676,0000045C,false,Rx,1,8,13,8C,15,0E,00,00,90,8C,
4332375923,0000042C,false,Rx,1,8,42,60,00,00,64,00,00,00,
4332376163,00000368,false,Rx,1,8,03,49,29,11,00,0C,40,FF,
4332458491,00000207,false,Rx,1,8,00,00,00,00,F0,00,14,00,
4332458731,00000227,false,Rx,1,8,B1,0B,20,81,06,00,1F,C5,
4332458979,00000237,false,Rx,1,8,3D,41,00,00,00,00,00,00,
4332459219,00000247,false,Rx,1,8,44,7D,03,02,00,00,20,00,
4332459460,00000717,false,Rx,1,8,0E,00,00,02,C6,6B,00,00,
4332468275,00000217,false,Rx,1,8,01,40,81,FD,9C,02,00,00,
4332475671,0000045C,false,Rx,1,8,13,8C,15,0E,00,00,90,8C,
4332475920,0000042C,false,Rx,1,8,42,60,00,00,64,00,00,00,
4332476160,00000368,false,Rx,1,8,03,49,29,11,00,0C,40,FF,
4332558497,00000207,false,Rx,1,8,00,00,00,00,F0,00,14,00,
4332558728,00000227,false,Rx,1,8,B1,0B,24,81,00,00,1F,C5,
4332558977,00000237,false,Rx,1,8,3D,41,00,00,00,00,00,00,
4332559218,00000247,false,Rx,1,8,44,7D,03,02,00,00,20,00,
4332559458,00000717,false,Rx,1,8,0F,00,EB,01,18,13,00,00,
4332568268,00000217,false,Rx,1,8,01,40,81,FD,9C,02,00,00,
4332575673,0000045C,false,Rx,1,8,13,8C,15,0E,00,00,90,8C,
4332575920,0000042C,false,Rx,1,8,42,60,00,00,64,00,00,00,
4332576161,00000368,false,Rx,1,8,03,49,29,11,00,0C,40,FF,
4332658457,00000207,false,Rx,1,8,00,00,00,00,F0,00,14,00,
4332658688,00000227,false,Rx,1,8,A6,0B,22,81,00,00,1F,C5,
4332658938,00000237,false,Rx,1,8,3D,41,00,00,00,00,00,00,
4332659179,00000247,false,Rx,1,8,44,7D,03,02,00,00,20,00,
4332659411,00000717,false,Rx,1,8,10,0A,40,FF,03,80,FF,00,
4332668241,00000217,false,Rx,1,8,01,40,81,FD,9C,02,00,00,
4332675667,0000045C,false,Rx,1,8,13,8C,15,0E,00,00,90,8C,
4332675915,0000042C,false,Rx,1,8,42,60,00,00,64,00,00,00,
4332676163,00000368,false,Rx,1,8,03,49,29,11,00,0C,40,FF,
4332758459,00000207,false,Rx,1,8,00,00,00,00,F0,00,14,00,
4332758690,00000227,false,Rx,1,8,A4,0B,23,81,00,00,1F,C5,
4332758940,00000237,false,Rx,1,8,3D,41,00,00,00,00,00,00,
4332759180,00000247,false,Rx,1,8,44,7D,03,02,00,00,20,00,
4332759427,00000537,false,Rx,1,8,13,01,FE,00,00,FC,00,00,
4332759668,00000717,false,Rx,1,8,11,00,F0,02,00,00,00,00,
4332768231,00000217,false,Rx,1,8,01,40,81,FD,9C,02,00,00,
4332775672,0000045C,false,Rx,1,8,13,8C,15,0E,00,00,90,8C,
4332775920,0000042C,false,Rx,1,8,42,60,00,00,64,00,00,00,
4332776160,00000368,false,Rx,1,8,03,49,29,11,00,0C,40,FF,
4332858310,00000367,false,Rx,1,8,00,00,00,00,00,00,00,00,
4332858564,00000207,false,Rx,1,8,00,00,00,00,F0,00,14,00,
4332858797,00000227,false,Rx,1,8,A8,0B,28,81,00,00,1F,C5,
4332859047,00000237,false,Rx,1,8,3D,41,00,00,00,00,00,00,
4332859287,00000247,false,Rx,1,8,44,7D,03,02,00,00,20,00,
4332859520,00000717,false,Rx,1,8,12,40,29,00,27,00,17,00,
4332868212,00000217,false,Rx,1,8,01,40,81,FD,9C,02,00,00,
4332868458,00000377,false,Rx,1,8,00,00,00,00,00,00,00,00,
4332875669,0000045C,false,Rx,1,8,13,8C,15,0E,00,00,90,8C,
4332875916,0000042C,false,Rx,1,8,42,60,00,00,64,00,00,00,
4332876156,00000368,false,Rx,1,8,03,49,29,11,00,0C,40,FF,
4332878310,00000347,false,Rx,1,8,00,00,00,00,00,00,00,00,
4332888305,00000357,false,Rx,1,8,00,00,00,00,00,00,02,00,
4332898303,00000327,false,Rx,1,8,00,00,00,00,00,00,00,00,
4332908300,00000337,false,Rx,1,8,00,00,00,00,00,00,00,00,
4332958378,00000207,false,Rx,1,8,00,00,C0,FF,F0,00,14,00,
4332958610,00000227,false,Rx,1,8,A4,0B,26,81,00,00,1F,C5,
4332958858,00000237,false,Rx,1,8,3D,41,00,00,00,00,00,00,
4332959099,00000247,false,Rx,1,8,44,7D,03,02,00,00,20,00,
4332959347,00000717,false,Rx,1,8,13,00,00,00,01,00,00,00,
4332968162,00000217,false,Rx,1,8,01,40,81,FD,9C,02,00,00,
4332975665,0000045C,false,Rx,1,8,13,8C,15,0E,00,00,90,8C,
4332975913,0000042C,false,Rx,1,8,42,60,00,00,64,00,00,00,
4332976160,00000368,false,Rx,1,8,03,49,29,11,00,0C,40,FF,
4333058382,00000207,false,Rx,1,8,00,00,C0,FF,F0,00,14,00,
4333058615,00000227,false,Rx,1,8,9E,0B,23,81,05,00,1F,C5,
4333058871,00000237,false,Rx,1,8,3D,41,00,00,00,00,00,00,
4333059103,00000247,false,Rx,1,8,44,7D,03,02,00,00,20,00,
4333059352,00000717,false,Rx,1,8,14,00,00,00,E3,FF,00,00,
4333068162,00000217,false,Rx,1,8,01,40,81,FD,9C,02,00,00,
4333075666,0000045C,false,Rx,1,8,13,8C,15,0E,00,00,90,8C,
4333075913,0000042C,false,Rx,1,8,42,60,00,00,64,00,00,00,
4333076154,00000368,false,Rx,1,8,03,49,29,11,00,0C,40,FF,
4333158331,00000207,false,Rx,1,8,00,00,00,00,F0,00,14,00,
4333158563,00000227,false,Rx,1,8,9B,0B,25,81,03,00,1F,C5,
4333158810,00000237,false,Rx,1,8,3D,41,00,00,00,00,00,00,
4333159052,00000247,false,Rx,1,8,44,7D,03,02,00,00,20,00,
4333168144,00000217,false,Rx,1,8,01,40,81,FD,9C,02,00,00,
4333175662,0000045C,false,Rx,1,8,13,8C,15,0E,00,00,90,8C,
4333175911,0000042C,false,Rx,1,8,42,60,00,00,64,00,00,00,
4333176158,00000368,false,Rx,1,8,03,49,29,11,00,0C,40,FF,
4333258329,00000207,false,Rx,1,8,00,00,C0,FF,F0,00,14,00,
4333258567,00000227,false,Rx,1,8,9C,0B,25,81,01,00,1F,C5,
4333258815,00000237,false,Rx,1,8,3D,41,00,00,00,00,00,00,
4333259057,00000247,false,Rx,1,8,44,7D,03,02,00,00,20,00,
4333259297,00000717,false,Rx,1,8,16,00,00,00,00,00,1A,46,
4333268122,00000217,false,Rx,1,8,01,40,81,FD,9C,02,00,00,
4333275660,0000045C,false,Rx,1,8,13,8C,15,0E,00,00,90,8C,
4333275909,0000042C,false,Rx,1,8,42,60,00,00,64,00,00,00,
4333276156,00000368,false,Rx,1,8,03,49,29,11,00,0C,40,FF,
4333358328,00000207,false,Rx,1,8,00,00,00,00,F0,00,14,00,
4333358559,00000227,false,Rx,1,8,97,0B,1F,81,04,00,1F,C5,
4333358808,00000237,false,Rx,1,8,3D,41,00,00,00,00,00,00,
4333359049,00000247,false,Rx,1,8,44,7D,03,02,00,00,20,00,
4333359297,00000717,false,Rx,1,8,17,00,00,50,04,00,00,00,
4333368098,00000217,false,Rx,1,8,01,40,81,FD,9C,02,00,00,
4333375661,0000045C,false,Rx,1,8,13,8C,15,0E,00,00,90,8C,
4333375915,0000042C,false,Rx,1,8,42,60,00,00,64,00,00,00,
4333376155,00000368,false,Rx,1,8,03,49,29,11,00,0C,40,FF,
4333458282,00000207,false,Rx,1,8,00,00,C0,FF,F0,00,14,00,
4333458514,00000227,false,Rx,1,8,8C,0B,1E,81,00,00,1F,C5,
4333458762,00000237,false,Rx,1,8,3D,41,00,00,00,00,00,00,
4333459003,00000247,false,Rx,1,8,44,7D,03,02,00,00,20,00,
4333459250,00000717,false,Rx,1,8,18,00,00,00,00,00,00,00,
4333468053,00000217,false,Rx,1,8,01,40,81,FD,9C,02,00,00,
4333475663,0000045C,false,Rx,1,8,13,8C,15,0E,00,00,90,8C,
4333475910,0000042C,false,Rx,1,8,42,60,00,00,64,00,00,00,
4333476150,00000368,false,Rx,1,8,03,49,29,11,00,0C,40,FF,
4333558275,00000207,false,Rx,1,8,00,00,C0,FF,F0,00,14,00,
4333558507,00000227,false,Rx,1,8,8A,0B,22,81,03,00,1F,C5,
4333558754,00000237,false,Rx,1,8,3D,41,00,00,00,00,00,00,
4333558995,00000247,false,Rx,1,8,44,7D,03,02,00,00,20,00,
4333559244,00000717,false,Rx,1,8,19,00,00,00,00,00,00,00,
4333568061,00000217,false,Rx,1,8,01,40,81,FD,9C,02,00,00,
4333575661,0000045C,false,Rx,1,8,13,8C,15,0E,00,00,90,8C,
4333575909,0000042C,false,Rx,1,8,42,60,00,00,64,00,00,00,
4333576150,00000368,false,Rx,1,8,03,49,29,11,00,0C,40,FF,
4333658251,00000207,false,Rx,1,8,00,00,C0,FF,F0,00,14,00,
4333658489,00000227,false,Rx,1,8,82,0B,22,81,04,00,1F,C5,
4333658737,00000237,false,Rx,1,8,3D,41,00,00,00,00,00,00,
4333658979,00000247,false,Rx,1,8,44,7D,03,02,00,00,20,00,
4333659218,00000537,false,Rx,1,8,14,05,00,00,00,00,00,00,
4333659466,00000717,false,Rx,1,8,01,00,00,00,00,00,00,00,
4333668039,00000217,false,Rx,1,8,01,40,81,FD,9C,02,00,00,
4333675663,0000045C,false,Rx,1,8,13,8C,15,0E,00,00,90,8C,
4333675905,0000042C,false,Rx,1,8,42,60,00,00,68,00,00,00,
4333676152,00000368,false,Rx,1,8,03,49,29,11,00,0C,40,FF,
4333758192,00000207,false,Rx,1,8,00,00,C0,FF,F0,00,14,00,
4333758431,00000227,false,Rx,1,8,8A,0B,23,81,04,00,1F,C5,
4333758678,00000237,false,Rx,1,8,3D,41,00,00,00,00,00,00,
4333758920,00000247,false,Rx,1,8,44,7D,03,02,00,00,20,00,
4333759168,00000717,false,Rx,1,8,02,00,00,00,00,00,00,00,
4333767983,00000217,false,Rx,1,8,01,40,81,FD,9C,02,00,00,
4333775660,0000045C,false,Rx,1,8,13,8C,15,0E,00,00,90,8C,
4333775908,0000042C,false,Rx,1,8,42,60,00,00,68,00,00,00,
4333776148,00000368,false,Rx,1,8,03,49,29,11,00,0C,40,FF,
4333858092,00000367,false,Rx,1,8,00,00,00,00,00,00,00,00,
4333858338,00000207,false,Rx,1,8,00,00,00,00,F0,00,14,00,
4333858578,00000227,false,Rx,1,8,81,0B,23,81,00,00,1F,C5,
4333858826,00000237,false,Rx,1,8,3D,41,00,00,00,00,00,00,
4333859067,00000247,false,Rx,1,8,44,7D,03,02,00,00,20,00,
4333867982,00000217,false,Rx,1,8,01,40,81,FD,9C,02,00,00,
4333868236,00000377,false,Rx,1,8,00,00,00,00,00,00,00,00,
4333875657,0000045C,false,Rx,1,8,13,8C,15,0E,00,00,90,8C,
4333875905,0000042C,false,Rx,1,8,42,60,00,00,68,00,00,00,
4333876145,00000368,false,Rx,1,8,03,49,29,11,00,0C,40,FF,
4333878081,00000347,false,Rx,1,8,00,00,00,00,00,00,00,00,
4333888081,00000357,false,Rx,1,8,00,00,00,00,00,00,02,00,
4333898085,00000327,false,Rx,1,8,00,00,00,00,00,00,00,00,
4333908073,00000337,false,Rx,1,8,00,00,00,00,00,00,00,00,
4333958156,00000207,false,Rx,1,8,00,00,C0,FF,F0,00,14,00,
4333958388,00000227,false,Rx,1,8,83,0B,24,81,03,00,1F,C5,
4333958636,00000237,false,Rx,1,8,3D,41,00,00,00,00,00,00,
4333958877,00000247,false,Rx,1,8,44,7D,03,02,00,00,20,00,
4333959124,00000717,false,Rx,1,8,04,00,00,00,00,00,00,00,
4333967949,00000217,false,Rx,1,8,01,40,81,FD,9C,02,00,00,
4333975656,0000045C,false,Rx,1,8,13,8C,15,0E,00,00,90,8C,
4333975903,0000042C,false,Rx,1,8,42,60,00,00,68,00,00,00,
4333976151,00000368,false,Rx,1,8,03,49,29,11,00,0C,40,FF,
4334058154,00000207,false,Rx,1,8,00,00,C0,FF,F0,00,14,00,
4334058386,00000227,false,Rx,1,8,85,0B,20,81,04,00,1F,C5,
4334058634,00000237,false,Rx,1,8,3D,41,00,00,00,00,00,00,
4334058874,00000247,false,Rx,1,8,44,7D,03,02,00,00,20,00,
4334059123,00000717,false,Rx,1,8,05,00,00,00,00,00,00,00,
4334067938,00000217,false,Rx,1,8,01,40,81,FD,9C,02,00,00,
4334075660,0000045C,false,Rx,1,8,13,8C,15,0E,00,00,90,8C,
4334075907,0000042C,false,Rx,1,8,42,60,00,00,68,00,00,00,
4334076148,00000368,false,Rx,1,8,03,49,29,11,00,0C,40,FF,
4334158138,00000207,false,Rx,1,8,00,00,C0,FF,F0,00,14,00,
4334158371,00000227,false,Rx,1,8,7B,0B,2A,81,01,00,1F,C5,
4334158618,00000237,false,Rx,1,8,3D,41,00,00,00,00,00,00,
4334158858,00000247,false,Rx,1,8,44,7D,03,02,00,00,20,00,
4334159093,00000717,false,Rx,1,8,06,00,F6,45,66,06,00,40,
4334167915,00000217,false,Rx,1,8,01,40,81,FD,9C,02,00,00,
4334175652,0000045C,false,Rx,1,8,13,8C,15,0E,00,00,90,8C,
4334175908,0000042C,false,Rx,1,8,42,60,00,00,69,00,00,00,
4334176148,00000368,false,Rx,1,8,03,49,29,11,00,0C,40,FF,
4334258099,00000207,false,Rx,1,8,00,00,C0,FF,F0,00,14,00,
4334258330,00000227,false,Rx,1,8,70,0B,27,81,00,00,1F,C5,
4334258578,00000237,false,Rx,1,8,3D,41,00,00,00,00,00,00,
4334258819,00000247,false,Rx,1,8,44,7D,03,02,00,00,20,00,
4334259060,00000717,false,Rx,1,8,07,00,00,00,01,0A,00,00,
4334267874,00000217,false,Rx,1,8,01,40,81,FD,9C,02,00,00,
4334275656,0000045C,false,Rx,1,8,13,8C,15,0E,00,00,90,8C,
4334275905,0000042C,false,Rx,1,8,42,60,00,00,69,00,00,00,
4334276145,00000368,false,Rx,1,8,03,49,29,11,00,0C,40,FF,
4334358104,00000207,false,Rx,1,8,00,00,00,00,F0,00,14,00,
4334358343,00000227,false,Rx,1,8,76,0B,24,81,01,00,1F,C5,
4334358590,00000237,false,Rx,1,8,3D,41,00,00,00,00,00,00,
4334358831,00000247,false,Rx,1,8,44,7D,03,02,00,00,20,00,
4334359072,00000717,false,Rx,1,8,08,00,00,00,36,46,00,00,
4334367876,00000217,false,Rx,1,8,01,40,81,FD,9C,02,00,00,
4334375651,0000045C,false,Rx,1,8,13,8C,15,0E,00,00,90,8C,
4334375905,0000042C,false,Rx,1,8,42,60,00,00,69,00,00,00,
4334376145,00000368,false,Rx,1,8,03,49,29,11,00,0C,40,FF,
4334458047,00000207,false,Rx,1,8,00,00,C0,FF,F0,00,14,00,
4334458278,00000227,false,Rx,1,8,73,0B,26,81,00,00,1F,C5,
4334458526,00000237,false,Rx,1,8,3D,41,00,00,00,00,00,00,
4334458766,00000247,false,Rx,1,8,44,7D,03,02,00,00,20,00,
4334459007,00000717,false,Rx,1,8,09,00,36,46,00,00,00,00,
4334467852,00000217,false,Rx,1,8,01,40,81,FD,9C,02,00,00,
4334475651,0000045C,false,Rx,1,8,13,8C,15,0E,00,00,90,8C,
4334475905,0000042C,false,Rx,1,8,42,60,00,00,69,00,00,00,
4334476146,00000368,false,Rx,1,8,03,49,29,11,00,0C,40,FF,
4334558059,00000207,false,Rx,1,8,00,00,C0,FF,F0,00,14,00,
4334558290,00000227,false,Rx,1,8,6D,0B,24,81,01,00,1F,C5,
4334558539,00000237,false,Rx,1,8,3D,41,00,00,00,00,00,00,
4334558778,00000247,false,Rx,1,8,44,7D,03,02,00,00,20,00,
4334559019,00000717,false,Rx,1,8,0A,00,00,00,00,00,00,00,
4334567827,00000217,false,Rx,1,8,01,40,81,FD,9C,02,00,00,
4334575654,0000045C,false,Rx,1,8,13,8C,15,0E,00,00,90,8C,
4334575901,0000042C,false,Rx,1,8,42,60,00,00,69,00,00,00,
4334576142,00000368,false,Rx,1,8,03,49,29,11,00,0C,40,FF,
4334658034,00000207,false,Rx,1,8,00,00,00,00,F0,00,14,00,
4334658266,00000227,false,Rx,1,8,72,0B,2B,81,00,00,1F,C5,
4334658513,00000237,false,Rx,1,8,3D,41,00,00,00,00,00,00,
4334658753,00000247,false,Rx,1,8,44,7D,03,02,00,00,20,00,
4334659003,00000717,false,Rx,1,8,0B,00,00,00,00,00,00,00,
4334667818,00000217,false,Rx,1,8,01,40,81,FD,9C,02,00,00,
4334675652,0000045C,false,Rx,1,8,13,8C,15,0E,00,00,90,8C,
4334675901,0000042C,false,Rx,1,8,42,60,00,00,6D,00,00,00,
4334676141,00000368,false,Rx,1,8,03,49,29,11,00,0C,40,FF,
4334757994,00000207,false,Rx,1,8,00,00,00,00,F0,00,14,00,
4334758233,00000227,false,Rx,1,8,64,0B,26,81,04,00,1F,C5,
4334758480,00000237,false,Rx,1,8,3D,41,00,00,00,00,00,00,
4334758720,00000247,false,Rx,1,8,44,7D,03,02,00,00,20,00,
4334758962,00000717,false,Rx,1,8,0C,01,00,00,00,00,02,00,
4334767778,00000217,false,Rx,1,8,01,40,81,FD,9C,02,00,00,
4334775653,0000045C,false,Rx,1,8,13,8C,15,0E,00,00,90,8C,
4334775900,0000042C,false,Rx,1,8,42,60,00,00,6D,00,00,00,
4334776140,00000368,false,Rx,1,8,03,49,29,11,00,0C,40,FF,
4334857873,00000367,false,Rx,1,8,00,00,00,00,00,00,00,00,
4334858127,00000207,false,Rx,1,8,00,00,00,00,F0,00,14,00,
4334858359,00000227,false,Rx,1,8,64,0B,21,81,02,00,1F,C5,
4334858608,00000237,false,Rx,1,8,3D,41,00,00,00,00,00,00,
4334858847,00000247,false,Rx,1,8,44,7D,03,02,00,00,20,00,
4334859088,00000717,false,Rx,1,8,0E,00,00,02,26,75,00,00,
4334867773,00000217,false,Rx,1,8,01,40,81,FD,9C,02,00,00,
4334868021,00000377,false,Rx,1,8,00,00,00,00,00,00,00,00,
4334875648,0000045C,false,Rx,1,8,13,8C,15,0E,00,00,90,8C,
4334875895,0000042C,false,Rx,1,8,42,60,00,00,6D,00,00,00,
4334876142,00000368,false,Rx,1,8,03,49,29,11,00,0C,40,FF,
4334877878,00000347,false,Rx,1,8,00,00,00,00,00,00,00,00,
4334887868,00000357,false,Rx,1,8,00,00,00,00,00,00,02,00,
4334897865,00000327,false,Rx,1,8,00,00,00,00,00,00,00,00,
4334907861,00000337,false,Rx,1,8,00,00,00,00,00,00,00,00,
4334957971,00000207,false,Rx,1,8,00,00,00,00,F0,00,14,00,
4334958210,00000227,false,Rx,1,8,62,0B,23,81,01,00,1F,C5,
4334958458,00000237,false,Rx,1,8,3D,41,00,00,00,00,00,00,
4334958698,00000247,false,Rx,1,8,44,7D,03,02,00,00,20,00,
4334958932,00000717,false,Rx,1,8,0F,00,EB,01,8C,11,00,00,
4334967748,00000217,false,Rx,1,8,01,40,81,FD,9C,02,00,00,
4334975645,0000045C,false,Rx,1,8,13,8C,15,0E,00,00,90,8C,
4334975892,0000042C,false,Rx,1,8,42,60,00,00,6D,00,00,00,
4334976140,00000368,false,Rx,1,8,03,49,29,11,00,0C,40,FF,
4335057918,00000207,false,Rx,1,8,00,00,00,00,F0,00,14,00,
4335058149,00000227,false,Rx,1,8,5D,0B,2A,81,01,00,1F,C5,
4335058398,00000237,false,Rx,1,8,3D,41,00,00,00,00,00,00,
4335058638,00000247,false,Rx,1,8,44,7D,03,02,00,00,20,00,
4335058879,00000717,false,Rx,1,8,10,0A,50,FF,03,80,FF,00,
4335067723,00000217,false,Rx,1,8,01,40,81,FD,9C,02,00,00,
4335075650,0000045C,false,Rx,1,8,13,8C,15,0E,00,00,90,8C,
4335075897,0000042C,false,Rx,1,8,42,60,00,00,6D,00,00,00,
4335076138,00000368,false,Rx,1,8,03,49,29,11,00,0C,40,FF,
4335157932,00000207,false,Rx,1,8,00,00,C0,FF,F0,00,14,00,
4335158165,00000227,false,Rx,1,8,55,0B,24,81,01,00,1F,C5,
4335158412,00000237,false,Rx,1,8,3D,41,00,00,00,00,00,00,
4335158652,00000247,false,Rx,1,8,44,7D,03,02,00,00,20,00,
4335158894,00000717,false,Rx,1,8,11,00,EF,02,00,00,00,00,
4335167710,00000217,false,Rx,1,8,01,40,81,FD,9C,02,00,00,
4335175643,0000045C,false,Rx,1,8,13,8C,15,0E,00,00,90,8C,
4335175892,0000042C,false,Rx,1,8,42,60,00,00,6D,00,00,00,
4335176132,00000368,false,Rx,1,8,03,49,29,11,00,0C,40,FF,
4335257893,00000207,false,Rx,1,8,00,00,C0,FF,F0,00,14,00,
4335258125,00000227,false,Rx,1,8,5E,0B,23,81,01,00,1F,C5,
4335258372,00000237,false,Rx,1,8,3D,41,00,00,00,00,00,00,
4335258612,00000247,false,Rx,1,8,44,7D,03,02,00,00,20,00,
4335258853,00000717,false,Rx,1,8,12,40,29,00,27,00,17,00,
4335267663,00000217,false,Rx,1,8,01,40,81,FD,9C,02,00,00,
4335275642,0000045C,false,Rx,1,8,13,8C,15,0E,00,00,90,8C,
4335275890,0000042C,false,Rx,1,8,42,C4,00,00,6D,00,00,00,
4335276130,00000368,false,Rx,1,8,03,49,29,11,00,0C,40,FF,
4335357877,00000207,false,Rx,1,8,00,00,00,00,F0,00,14,00,
4335358108,00000227,false,Rx,1,8,53,0B,24,81,03,00,1F,C5,
4335358356,00000237,false,Rx,1,8,3D,41,00,00,00,00,00,00,
4335358589,00000247,false,Rx,1,8,44,7D,03,02,00,00,20,00,
4335358844,00000717,false,Rx,1,8,13,00,00,00,03,00,00,00,
4335367660,00000217,false,Rx,1,8,01,40,81,FD,9C,02,00,00,
4335375646,0000045C,false,Rx,1,8,13,8C,15,0E,00,00,90,8C,
4335375886,0000042C,false,Rx,1,8,42,C4,00,00,6D,00,00,00,
4335376134,00000368,false,Rx,1,8,03,49,29,11,00,0C,40,FF,
4335457858,00000207,false,Rx,1,8,00,00,C0,FF,F0,00,14,00,
4335458091,00000227,false,Rx,1,8,4A,0B,1E,81,02,00,1F,C5,
4335458338,00000237,false,Rx,1,8,3D,41,00,00,00,00,00,00,
4335458579,00000247,false,Rx,1,8,44,7D,03,02,00,00,20,00,
4335458819,00000537,false,Rx,1,8,0A,01,0E,00,FC,00,3F,00,
4335459067,00000717,false,Rx,1,8,14,00,00,00,13,00,00,00,
4335467646,00000217,false,Rx,1,8,01,40,81,FD,9C,02,00,00,
4335475639,0000045C,false,Rx,1,8,13,8C,15,0E,00,00,90,8C,
4335475886,0000042C,false,Rx,1,8,42,C4,00,00,6D,00,00,00,
4335476127,00000368,false,Rx,1,8,03,49,29,11,00,0C,40,FF,
4335557833,00000207,false,Rx,1,8,00,00,C0,FF,F0,00,14,00,
4335558065,00000227,false,Rx,1,8,4D,0B,1C,81,03,00,1F,C5,
4335558314,00000237,false,Rx,1,8,3D,41,00,00,00,00,00,00,
4335558554,00000247,false,Rx,1,8,44,7D,03,02,00,00,20,00,
4335567607,00000217,false,Rx,1,8,01,40,81,FD,9C,02,00,00,
4335575640,0000045C,false,Rx,1,8,13,8C,15,0E,00,00,90,8C,
4335575888,0000042C,false,Rx,1,8,42,C4,00,00,6D,00,00,00,
4335576129,00000368,false,Rx,1,8,03,49,29,11,00,0C,40,FF,
4335657814,00000207,false,Rx,1,8,00,00,C0,FF,F0,00,14,00,
4335658046,00000227,false,Rx,1,8,41,0B,20,81,00,00,1F,C5,
4335658295,00000237,false,Rx,1,8,3D,41,00,00,00,00,00,00,
4335658535,00000247,false,Rx,1,8,44,7D,03,02,00,00,20,00,
4335658775,00000717,false,Rx,1,8,16,00,00,00,00,00,D6,45,
4335667600,00000217,false,Rx,1,8,01,40,81,FD,9C,02,00,00,
4335675640,0000045C,false,Rx,1,8,13,8C,15,0E,00,00,90,8C,
4335675890,0000042C,false,Rx,1,8,42,C4,00,00,6D,00,00,00,
4335676129,00000368,false,Rx,1,8,03,49,29,11,00,0C,40,FF,
4335757768,00000207,false,Rx,1,8,00,00,C0,FF,F0,00,14,00,
4335758001,00000227,false,Rx,1,8,4A,0B,20,81,02,00,1F,C5,
4335758249,00000237,false,Rx,1,8,3D,41,00,00,00,00,00,00,
4335758488,00000247,false,Rx,1,8,44,7D,03,02,00,00,20,00,
4335758737,00000717,false,Rx,1,8,17,00,00,50,04,00,00,00,
4335767559,00000217,false,Rx,1,8,01,40,81,FD,9C,02,00,00,
4335775638,0000045C,false,Rx,1,8,13,8C,15,0E,00,00,90,8C,
4335775886,0000042C,false,Rx,1,8,42,C4,00,00,6D,00,00,00,
4335776126,00000368,false,Rx,1,8,03,49,29,11,00,0C,40,FF,
4335857685,00000367,false,Rx,1,8,00,00,00,00,00,00,00,00,
4335857933,00000207,false,Rx,1,8,00,00,00,00,F0,00,14,00,
4335858173,00000227,false,Rx,1,8,3E,0B,1D,81,00,00,1F,C5,
4335858420,00000237,false,Rx,1,8,3D,41,00,00,00,00,00,00,
4335858661,00000247,false,Rx,1,8,44,7D,03,02,00,00,20,00,
4335858910,00000717,false,Rx,1,8,18,00,00,00,00,00,00,00,
4335867562,00000217,false,Rx,1,8,01,40,81,FD,9C,02,00,00,
4335867810,00000377,false,Rx,1,8,00,00,00,00,00,00,00,00,
4335875640,0000045C,false,Rx,1,8,13,8C,15,0E,00,00,90,8C,
4335875887,0000042C,false,Rx,1,8,42,C4,00,00,6D,00,00,00,
4335876127,00000368,false,Rx,1,8,03,49,29,11,00,0C,40,FF,
4335877680,00000347,false,Rx,1,8,00,00,00,00,00,00,00,00,
4335887676,00000357,false,Rx,1,8,00,00,00,00,00,00,02,00,
4335897660,00000327,false,Rx,1,8,00,00,00,00,00,00,00,00,
4335907657,00000337,false,Rx,1,8,00,00,00,00,00,00,00,00,
4335957754,00000207,false,Rx,1,8,00,00,00,00,F0,00,14,00,
4335957987,00000227,false,Rx,1,8,3F,0B,1A,81,04,00,1F,C5,
4335958235,00000237,false,Rx,1,8,3D,41,00,00,00,00,00,00,
4335958476,00000247,false,Rx,1,8,44,7D,03,02,00,00,20,00,
4335958723,00000717,false,Rx,1,8,19,00,00,00,00,00,00,00,
4335967538,00000217,false,Rx,1,8,01,40,81,FD,9C,02,00,00,
4335975640,0000045C,false,Rx,1,8,13,8C,15,0E,00,00,90,8C,
4335975887,0000042C,false,Rx,1,8,42,C4,00,00,6D,00,00,00,
4335976128,00000368,false,Rx,1,8,03,49,29,11,00,0C,40,FF,
4336057723,00000207,false,Rx,1,8,00,00,C0,FF,F0,00,14,00,
4336057955,00000227,false,Rx,1,8,37,0B,1B,81,06,00,1F,C5,
4336058203,00000237,false,Rx,1,8,3D,41,00,00,00,00,00,00,
4336058443,00000247,false,Rx,1,8,44,7D,03,02,00,00,20,00,
4336058691,00000717,false,Rx,1,8,01,00,00,00,00,00,00,00,
4336067500,00000217,false,Rx,1,8,01,40,81,FD,9C,02,00,00,
4336075637,0000045C,false,Rx,1,8,13,8C,15,0E,00,00,90,8C,
4336075886,0000042C,false,Rx,1,8,42,C4,00,00,6D,00,00,00,
4336076125,00000368,false,Rx,1,8,03,49,29,11,00,0C,40,FF,
4336157720,00000207,false,Rx,1,8,00,00,C0,FF,F0,00,14,00,
4336157952,00000227,false,Rx,1,8,38,0B,25,81,00,00,1F,C5,
4336158201,00000237,false,Rx,1,8,3D,41,00,00,00,00,00,00,
4336158441,00000247,false,Rx,1,8,44,7D,03,02,00,00,20,00,
4336158688,00000717,false,Rx,1,8,02,00,00,00,00,00,00,00,
4336167490,00000217,false,Rx,1,8,01,40,81,FD,9C,02,00,00,
4336175634,0000045C,false,Rx,1,8,13,8C,15,0E,00,00,90,8C,
4336175883,0000042C,false,Rx,1,8,42,C4,00,00,6D,00,00,00,
4336176123,00000368,false,Rx,1,8,03,49,29,11,00,0C,40,FF,
4336257679,00000207,false,Rx,1,8,00,00,00,00,F0,00,14,00,
4336257913,00000227,false,Rx,1,8,35,0B,22,81,07,00,1F,C5,
4336258161,00000237,false,Rx,1,8,3D,41,00,00,00,00,00,00,
4336258400,00000247,false,Rx,1,8,44,7D,03,02,00,00,20,00,
4336267476,00000217,false,Rx,1,8,01,40,81,FD,9C,02,00,00,
4336275636,0000045C,false,Rx,1,8,15,8C,15,2E,00,00,90,8C,
4336275883,0000042C,false,Rx,1,8,42,C4,00,00,6D,00,00,00,
4336276123,00000368,false,Rx,1,8,03,49,29,11,00,0C,40,FF,
4336357667,00000207,false,Rx,1,8,00,00,00,00,F0,00,14,00,
4336357908,00000227,false,Rx,1,8,2C,0B,25,81,05,00,1F,C5,
4336358156,00000237,false,Rx,1,8,3D,41,00,00,00,00,00,00,
4336358395,00000247,false,Rx,1,8,44,7D,03,02,00,00,20,00,
4336358636,00000537,false,Rx,1,8,0B,00,05,06,00,00,00,00,
4336358885,00000717,false,Rx,1,8,04,00,00,00,00,00,00,00,
4336367454,00000217,false,Rx,1,8,01,40,81,FD,9C,02,00,00,
4336375637,0000045C,false,Rx,1,8,15,8C,15,2E,00,00,90,8C,
4336375877,0000042C,false,Rx,1,8,42,C4,00,00,6D,00,00,00,
4336376125,00000368,false,Rx,1,8,03,49,29,11,00,0C,40,FF,
4336457638,00000207,false,Rx,1,8,00,00,00,00,F0,00,14,00,
4336457878,00000227,false,Rx,1,8,30,0B,1E,81,00,00,1F,C5,
4336458125,00000237,false,Rx,1,8,3D,41,00,00,00,00,00,00,
4336458366,00000247,false,Rx,1,8,44,7D,03,02,00,00,20,00,
4336458613,00000717,false,Rx,1,8,05,00,00,00,00,00,00,00,
4336467429,00000217,false,Rx,1,8,01,40,81,FD,9C,02,00,00,
4336475636,0000045C,false,Rx,1,8,15,8C,15,2E,00,00,90,8C,
4336475875,0000042C,false,Rx,1,8,42,C4,00,00,6D,00,00,00,
4336476124,00000368,false,Rx,1,8,03,49,29,11,00,0C,40,FF,
4336557584,00000207,false,Rx,1,8,00,00,C0,FF,F0,00,14,00,
4336557823,00000227,false,Rx,1,8,24,0B,1C,81,04,00,1F,C5,
4336558072,00000237,false,Rx,1,8,3D,41,00,00,00,00,00,00,
4336558313,00000247,false,Rx,1,8,44,7D,03,02,00,00,20,00,
4336558553,00000717,false,Rx,1,8,06,00,32,46,66,06,00,40,
4336567384,00000217,false,Rx,1,8,01,40,81,FD,9C,02,00,00,
4336575634,0000045C,false,Rx,1,8,15,8C,15,2E,00,00,90,8C,
4336575875,0000042C,false,Rx,1,8,42,C4,00,00,6D,00,00,00,
4336576123,00000368,false,Rx,1,8,03,49,29,11,00,0C,40,FF,
4336657598,00000207,false,Rx,1,8,30,5F,20,CD,F0,00,14,00,
4336657836,00000227,false,Rx,1,8,20,0B,1B,81,04,00,1F,C5,
4336658086,00000237,false,Rx,1,8,3D,41,00,00,00,00,00,00,
4336658326,00000247,false,Rx,1,8,44,7D,03,02,00,00,20,00,
4336658566,00000717,false,Rx,1,8,07,00,00,00,01,0A,00,00,
4336667392,00000217,false,Rx,1,8,01,40,81,FD,9C,02,04,00,
4336675630,0000045C,false,Rx,1,8,15,8C,15,2E,00,00,90,8C,
4336675878,0000042C,false,Rx,1,8,42,C4,00,00,6D,00,00,00,
4336676118,00000368,false,Rx,1,8,03,49,29,11,00,0C,40,FF,
4336757549,00000207,false,Rx,1,8,56,AC,20,CE,F0,00,14,00,
4336757788,00000227,false,Rx,1,8,21,0B,15,81,00,00,FE,C8,
4336758038,00000237,false,Rx,1,8,3D,41,00,00,00,00,00,00,
4336758270,00000247,false,Rx,1,8,44,7D,09,02,00,00,20,00,
4336758518,00000717,false,Rx,1,8,08,00,00,00,66,06,00,00,
4336767372,00000217,false,Rx,1,8,01,40,01,FD,9C,02,08,00,
4336775631,0000045C,false,Rx,1,8,15,8C,15,2E,00,00,90,8C,
4336775878,0000042C,false,Rx,1,8,42,C4,00,00,6C,00,00,00,
4336776118,00000368,false,Rx,1,8,03,49,29,11,00,0C,40,FF,
4336857449,00000367,false,Rx,1,8,00,00,00,00,00,00,00,00,
4336857689,00000207,false,Rx,1,8,65,C9,A0,CF,F0,00,14,00,
4336857915,00000227,false,Rx,1,8,25,0B,1B,81,00,00,EC,D1,
4336858162,00000237,false,Rx,1,8,3D,41,00,00,00,00,00,00,
4336858402,00000247,false,Rx,1,8,44,7D,1A,02,00,00,20,00,
4336858643,00000717,false,Rx,1,8,09,00,B2,0D,00,00,00,00,
4336867328,00000217,false,Rx,1,8,01,00,01,FD,9C,02,09,00,
4336867582,00000377,false,Rx,1,8,00,00,00,00,00,00,00,00,
4336875631,0000045C,false,Rx,1,8,15,8C,15,2E,00,00,90,8C,
4336875879,0000042C,false,Rx,1,8,42,C4,00,00,6C,00,00,00,
4336876120,00000368,false,Rx,1,8,03,49,29,11,00,0C,40,FF,
4336877462,00000347,false,Rx,1,8,00,00,00,00,00,00,00,00,
4336887456,00000357,false,Rx,1,8,00,00,00,00,00,00,02,00,
4336897453,00000327,false,Rx,1,8,00,00,00,00,00,00,00,00,
4336907441,00000337,false,Rx,1,8,00,00,00,00,00,00,00,00,
4336957522,00000207,false,Rx,1,8,6C,D7,20,D1,F0,00,14,00,
4336957762,00000227,false,Rx,1,8,1F,0B,1C,81,02,00,EC,D1,
4336958010,00000237,false,Rx,1,8,3D,41,00,00,00,00,00,00,
4336958242,00000247,false,Rx,1,8,44,7D,1A,02,00,00,20,00,
4336958491,00000717,false,Rx,1,8,0A,00,00,00,00,00,00,00,
4336967318,00000217,false,Rx,1,8,01,00,01,FD,9C,02,0A,00,
4336975630,0000045C,false,Rx,1,8,15,8C,15,2E,00,00,90,8C,
4336975878,0000042C,false,Rx,1,8,42,C4,00,00,6C,00,00,00,
4336976119,00000368,false,Rx,1,8,03,49,29,11,00,0C,40,FF,
4337057490,00000207,false,Rx,1,8,6F,DF,E0,D2,F0,00,14,00,
4337057721,00000227,false,Rx,1,8,21,0B,21,81,01,00,EC,D1,
4337057970,00000237,false,Rx,1,8,3D,41,00,00,00,00,00,00,
4337058211,00000247,false,Rx,1,8,44,7D,1A,02,00,00,20,00,
4337058451,00000717,false,Rx,1,8,0B,00,00,00,00,00,00,00,
4337067282,00000217,false,Rx,1,8,01,00,81,FC,9C,02,0A,00,
4337075625,0000045C,false,Rx,1,8,15,8C,15,2E,00,00,90,8C,
4337075874,0000042C,false,Rx,1,8,42,C4,00,00,6C,00,00,00,
4337076113,00000368,false,Rx,1,8,03,49,29,11,00,0C,40,FF,
4337157489,00000207,false,Rx,1,8,71,E2,20,D5,F0,00,14,00,
4337157720,00000227,false,Rx,1,8,1B,0B,23,81,03,00,EC,D1,
4337157969,00000237,false,Rx,1,8,3D,41,00,00,00,00,00,00,
4337158202,00000247,false,Rx,1,8,44,7D,1A,02,00,00,20,00,
4337158442,00000717,false,Rx,1,8,0C,01,00,00,00,00,02,00,
4337167281,00000217,false,Rx,1,8,01,00,81,FC,9C,02,0A,00,
4337175622,0000045C,false,Rx,1,8,15,8C,15,2E,00,00,90,8C,
4337175871,0000042C,false,Rx,1,8,42,C4,00,00,6C,00,00,00,
4337176111,00000368,false,Rx,1,8,03,49,29,11,00,0C,40,FF,
4337257466,00000207,false,Rx,1,8,72,E4,E0,D6,F0,00,14,00,
4337257698,00000227,false,Rx,1,8,1C,0B,1E,81,00,00,EC,D1,
4337257947,00000237,false,Rx,1,8,3D,41,00,00,00,00,00,00,
4337258187,00000247,false,Rx,1,8,44,7D,1A,02,00,00,20,00,
4337258427,00000537,false,Rx,1,8,0D,00,00,00,7D,F1,02,85,
4337258668,00000717,false,Rx,1,8,0E,00,00,02,86,7E,00,00,
4337267260,00000217,false,Rx,1,8,01,00,81,FC,9C,02,0A,00,
4337275624,0000045C,false,Rx,1,8,F8,8F,14,2E,00,00,90,8C,
4337275871,0000042C,false,Rx,1,8,42,C4,00,00,6C,00,00,00,
4337276111,00000368,false,Rx,1,8,03,49,29,11,00,0C,40,FF,
4337357423,00000207,false,Rx,1,8,72,E4,E0,D8,F0,00,14,00,
4337357656,00000227,false,Rx,1,8,1C,0B,1B,81,01,00,EC,D1,
4337357897,00000237,false,Rx,1,8,3D,41,00,00,00,00,00,00,
4337358137,00000247,false,Rx,1,8,44,7D,1A,02,00,00,20,00,
4337358377,00000717,false,Rx,1,8,0F,00,EB,01,65,0E,00,00,
4337367218,00000217,false,Rx,1,8,01,00,81,FC,9C,02,0A,00,
4337375622,0000045C,false,Rx,1,8,F8,8F,14,2E,00,00,90,8C,
4337375871,0000042C,false,Rx,1,8,42,C4,00,00,6C,00,00,00,
4337376112,00000368,false,Rx,1,8,03,49,29,11,00,0C,40,FF,
4337457430,00000207,false,Rx,1,8,73,E5,20,DB,F0,00,14,00,
4337457655,00000227,false,Rx,1,8,15,0B,1B,81,02,00,EC,D1,
4337457904,00000237,false,Rx,1,8,3D,41,00,00,00,00,00,00,
4337458144,00000247,false,Rx,1,8,44,7D,1A,02,00,00,20,00,
4337458385,00000717,false,Rx,1,8,10,10,90,FF,03,80,FF,00,
4337467224,00000217,false,Rx,1,8,01,00,81,FC,9C,02,0A,00,
4337475619,0000045C,false,Rx,1,8,F8,8F,14,2E,00,00,90,8C,
4337475866,0000042C,false,Rx,1,8,42,C4,00,00,6C,00,00,00,
4337476107,00000368,false,Rx,1,8,03,49,29,11,00,0C,40,FF,
4337557387,00000207,false,Rx,1,8,73,E5,60,DD,F0,00,14,00,
4337557618,00000227,false,Rx,1,8,13,0B,1E,81,00,00,EC,D1,
4337557866,00000237,false,Rx,1,8,3D,41,00,00,00,00,00,00,
4337558107,00000247,false,Rx,1,8,44,7D,1A,02,00,00,20,00,
4337558347,00000717,false,Rx,1,8,11,00,BD,05,00,00,00,00,
4337567200,00000217,false,Rx,1,8,01,00,81,FC,9C,02,0A,00,
4337575625,0000045C,false,Rx,1,8,F8,8F,14,2E,00,00,90,8C,
4337575866,0000042C,false,Rx,1,8,42,C4,00,00,6C,00,00,00,
4337576106,00000368,false,Rx,1,8,03,49,29,11,00,0C,40,FF,
4337657381,00000207,false,Rx,1,8,73,E5,20,E0,F0,00,14,00,
4337657619,00000227,false,Rx,1,8,11,0B,18,81,04,00,EC,D1,
4337657868,00000237,false,Rx,1,8,3D,41,00,00,00,00,00,00,
4337658102,00000247,false,Rx,1,8,44,7D,1A,02,00,00,20,00,
4337658341,00000717,false,Rx,1,8,12,40,29,00,27,00,17,00,
4337667175,00000217,false,Rx,1,8,01,00,81,FC,9C,02,0A,00,
4337675623,0000045C,false,Rx,1,8,F8,8F,14,2E,00,00,90,8C,
4337675871,0000042C,false,Rx,1,8,42,C4,00,00,6C,00,00,00,
4337676110,00000368,false,Rx,1,8,03,49,29,11,00,0C,40,FF,
4337757353,00000207,false,Rx,1,8,73,E5,60,E2,F0,00,14,00,
4337757592,00000227,false,Rx,1,8,1C,0B,21,81,00,00,EC,D1,
4337757841,00000237,false,Rx,1,8,3D,41,00,00,00,00,00,00,
4337758074,00000247,false,Rx,1,8,44,7D,1A,02,00,00,20,00,
4337758321,00000717,false,Rx,1,8,13,00,00,00,03,00,00,00,
4337767153,00000217,false,Rx,1,8,01,00,81,FC,9C,02,0A,00,
4337775622,0000045C,false,Rx,1,8,F8,8F,14,2E,00,00,90,8C,
4337775870,0000042C,false,Rx,1,8,42,C4,00,00,FC,00,00,00,
4337776110,00000368,false,Rx,1,8,03,49,29,11,00,0C,40,FF,
4337857212,00000367,false,Rx,1,8,00,00,00,00,00,00,00,00,
4337857451,00000207,false,Rx,1,8,73,E5,E0,E4,F0,00,10,00,
4337857684,00000227,false,Rx,1,8,12,0B,1E,81,02,00,EC,D1,
4337857933,00000237,false,Rx,1,8,3D,41,00,00,00,00,00,00,
4337858173,00000247,false,Rx,1,8,44,7D,1A,02,00,00,20,00,
4337858414,00000717,false,Rx,1,8,14,00,00,00,52,23,00,00,
4337867097,00000217,false,Rx,1,8,01,00,01,FC,9C,02,0A,00,
4337867343,00000377,false,Rx,1,8,00,00,00,00,00,00,00,00,
4337875620,0000045C,false,Rx,1,8,F8,8F,14,2E,00,00,90,8C,
4337875867,0000042C,false,Rx,1,8,42,C4,00,00,FC,00,00,00,
4337876108,00000368,false,Rx,1,8,03,49,29,11,00,0C,40,FF,
4337877212,00000347,false,Rx,1,8,00,00,00,00,00,00,00,00,
4337887202,00000357,false,Rx,1,8,00,00,00,00,00,00,00,00,
4337897207,00000327,false,Rx,1,8,00,00,00,00,00,00,00,00,
4337907204,00000337,false,Rx,1,8,00,00,00,00,00,00,00,00,
4337957304,00000207,false,Rx,1,8,73,E5,E0,E7,F0,00,10,00,
4337957537,00000227,false,Rx,1,8,10,0B,1D,81,02,00,EC,D1,
4337957784,00000237,false,Rx,1,8,3D,41,00,00,00,00,00,00,
4337958018,00000247,false,Rx,1,8,44,7D,1A,02,00,00,20,00,
4337967094,00000217,false,Rx,1,8,01,00,01,FC,9C,02,0A,00,
4337975617,0000045C,false,Rx,1,8,F8,8F,14,2E,00,00,90,8C,
4337975865,0000042C,false,Rx,1,8,42,C4,00,00,FC,00,00,00,
4337976106,00000368,false,Rx,1,8,03,49,29,11,00,0C,40,FF,
4338057249,00000207,false,Rx,1,8,73,E5,60,EA,F0,00,10,00,
4338057489,00000227,false,Rx,1,8,08,0B,20,81,00,00,EC,D1,
4338057737,00000237,false,Rx,1,8,3D,41,00,00,00,00,00,00,
4338057970,00000247,false,Rx,1,8,44,7D,1A,02,00,00,20,00,
4338058211,00000717,false,Rx,1,8,16,00,00,00,00,00,5E,9A,
4338067042,00000217,false,Rx,1,8,01,00,01,FC,9C,02,0A,00,
4338075618,0000045C,false,Rx,1,8,F8,8F,14,2E,00,00,90,8C,
4338075866,0000042C,false,Rx,1,8,42,C4,00,00,FC,00,00,00,
4338076106,00000368,false,Rx,1,8,03,49,29,11,00,0C,40,FF,
4338157240,00000207,false,Rx,1,8,73,E5,20,ED,F0,00,10,00,
4338157479,00000227,false,Rx,1,8,12,0B,1C,81,00,00,EC,D1,
4338157726,00000237,false,Rx,1,8,3D,41,00,00,00,00,00,00,
4338157961,00000247,false,Rx,1,8,44,7D,1A,02,00,00,20,00,
4338158208,00000537,false,Rx,1,8,0E,00,00,00,00,00,00,00,
4338158456,00000717,false,Rx,1,8,17,00,00,50,04,00,00,00,
4338167044,00000217,false,Rx,1,8,01,00,01,FC,9C,02,0A,00,
4338175613,0000045C,false,Rx,1,8,F8,8F,14,2E,00,00,90,8C,
4338175868,0000042C,false,Rx,1,8,42,C4,00,00,FC,00,00,00,
4338176107,00000368,false,Rx,1,8,03,49,29,11,00,0C,40,FF,
4338257240,00000207,false,Rx,1,8,73,E5,60,EF,F0,00,10,00,
4338257471,00000227,false,Rx,1,8,0C,0B,16,81,00,00,EC,D1,
4338257719,00000237,false,Rx,1,8,3D,41,00,00,00,00,00,00,
4338257961,00000247,false,Rx,1,8,44,7D,1A,02,00,00,20,00,
4338258208,00000717,false,Rx,1,8,18,00,00,00,00,00,00,00,
4338267033,00000217,false,Rx,1,8,01,00,01,FC,9C,02,0A,00,
4338275616,0000045C,false,Rx,1,8,F8,8F,14,2E,00,00,90,8C,
4338275864,0000042C,false,Rx,1,8,42,C4,00,00,FC,00,00,00,
4338276104,00000368,false,Rx,1,8,03,49,29,11,00,0C,40,FF,
4338357184,00000207,false,Rx,1,8,72,E5,60,F2,F0,00,10,00,
4338357423,00000227,false,Rx,1,8,08,0B,17,81,03,00,EC,D1,
4338357672,00000237,false,Rx,1,8,3D,41,00,00,00,00,00,00,
4338357905,00000247,false,Rx,1,8,44,7D,1A,02,00,00,20,00,
4338358152,00000717,false,Rx,1,8,19,00,00,00,00,00,00,00,
4338366983,00000217,false,Rx,1,8,01,00,01,FC,9C,02,0A,00,
4338375610,0000045C,false,Rx,1,8,F8,8F,14,2E,00,00,90,8C,
4338375865,0000042C,false,Rx,1,8,42,C4,00,00,FC,00,00,00,
4338376106,00000368,false,Rx,1,8,03,49,29,11,00,0C,40,FF,
4338457194,00000207,false,Rx,1,8,72,E5,60,F5,F0,00,10,00,
4338457425,00000227,false,Rx,1,8,12,0B,1B,81,00,00,EC,D1,
4338457674,00000237,false,Rx,1,8,3D,41,00,00,00,00,00,00,
4338457915,00000247,false,Rx,1,8,44,7D,1A,02,00,00,20,00,
4338458162,00000717,false,Rx,1,8,01,00,00,00,00,00,00,00,
4338466986,00000217,false,Rx,1,8,01,00,01,FC,9C,02,0A,00,
4338475615,0000045C,false,Rx,1,8,F8,8F,14,2E,00,00,90,8C,
4338475864,0000042C,false,Rx,1,8,42,C4,00,00,FC,00,00,00,
4338476104,00000368,false,Rx,1,8,03,49,29,11,00,0C,40,FF,
4338557149,00000207,false,Rx,1,8,72,E5,E0,F7,F0,00,10,47,
4338557389,00000227,false,Rx,1,8,05,0B,1F,81,00,00,EC,D1,
4338557637,00000237,false,Rx,1,8,3D,41,00,00,00,00,00,00,
4338557878,00000247,false,Rx,1,8,44,7D,1A,02,00,00,20,00,
4338558119,00000717,false,Rx,1,8,02,00,00,00,00,00,00,00,
4338566981,00000217,false,Rx,1,8,01,00,01,FC,9C,02,0A,00,
4338575610,0000045C,false,Rx,1,8,F8,8F,14,2E,00,00,90,8C,
4338575866,0000042C,false,Rx,1,8,42,C4,00,00,FC,00,00,00,
4338576106,00000368,false,Rx,1,8,03,49,29,11,00,0C,40,FF,
4338657142,00000207,false,Rx,1,8,72,E5,F0,FA,F0,00,10,6F,
4338657381,00000227,false,Rx,1,8,03,0B,17,81,04,00,EC,D1,
4338657629,00000237,false,Rx,1,8,3D,41,00,00,00,00,00,00,
4338657861,00000247,false,Rx,1,8,44,7D,1A,02,00,00,20,00,
4338666938,00000217,false,Rx,1,8,01,00,81,FB,9C,02,0A,00,
4338675611,0000045C,false,Rx,1,8,F8,8F,14,2E,00,00,90,8C,
4338675858,0000042C,false,Rx,1,8,42,C4,00,00,FC,00,00,00,
4338676099,00000368,false,Rx,1,8,03,49,29,11,00,0C,40,FF,
4338757143,00000207,false,Rx,1,8,72,E5,70,FD,F0,00,10,70,
4338757382,00000227,false,Rx,1,8,08,0B,16,81,06,00,EC,D1,
4338757629,00000237,false,Rx,1,8,3D,41,00,00,00,00,00,00,
4338757864,00000247,false,Rx,1,8,44,7D,1A,02,00,00,20,00,
4338758111,00000717,false,Rx,1,8,04,00,00,00,00,00,00,00,
4338766936,00000217,false,Rx,1,8,01,00,81,FB,9C,82,0A,00,
4338775610,0000045C,false,Rx,1,8,F8,8F,14,2E,00,00,90,8C,
4338775856,0000042C,false,Rx,1,8,42,C4,00,00,FC,00,00,00,
4338776097,00000368,false,Rx,1,8,03,49,29,11,00,0C,40,FF,
4338857006,00000367,false,Rx,1,8,00,00,00,00,00,00,00,00,
4338857244,00000207,false,Rx,1,8,72,E5,30,00,F0,00,10,71,
4338857477,00000227,false,Rx,1,8,FF,0A,18,81,00,00,EC,D1,
4338857725,00000237,false,Rx,1,8,3D,41,00,00,00,00,00,00,
4338857960,00000247,false,Rx,1,8,44,7D,1A,02,00,00,20,00,
4338858207,00000717,false,Rx,1,8,05,00,00,00,00,00,00,00,
4338866877,00000217,false,Rx,1,8,01,00,81,FB,9C,82,0A,00,
4338867123,00000377,false,Rx,1,8,00,00,00,00,00,00,00,00,
4338875610,0000045C,false,Rx,1,8,F8,8F,14,2E,00,00,90,8C,
4338875856,0000042C,false,Rx,1,8,42,C4,00,00,FC,00,00,00,
4338876098,00000368,false,Rx,1,8,03,49,29,11,00,0C,40,FF,
4338877006,00000347,false,Rx,1,8,00,00,00,00,00,00,00,00,
4338887001,00000357,false,Rx,1,8,00,00,00,00,00,00,00,00,
4338896999,00000327,false,Rx,1,8,00,00,00,00,00,00,00,00,
4338906997,00000337,false,Rx,1,8,00,00,00,00,00,00,00,00,
4338957099,00000207,false,Rx,1,8,72,E5,F0,02,F0,00,10,74,
4338957337,00000227,false,Rx,1,8,02,0B,12,81,00,00,EC,D1,
4338957586,00000237,false,Rx,1,8,3D,41,00,00,00,00,00,00,
4338957818,00000247,false,Rx,1,8,44,7D,1A,02,00,00,20,00,
4338958059,00000717,false,Rx,1,8,06,00,66,06,66,06,00,40,
4338966890,00000217,false,Rx,1,8,01,00,81,FB,9C,82,0A,00,
4338975609,0000045C,false,Rx,1,8,F8,8F,14,2E,00,00,90,8C,
4338975857,0000042C,false,Rx,1,8,42,C4,00,00,FC,00,00,00,
4338976098,00000368,false,Rx,1,8,03,49,29,11,00,0C,40,FF,
4339057081,00000207,false,Rx,1,8,72,E5,B0,05,F0,00,10,74,
4339057321,00000227,false,Rx,1,8,02,0B,1E,81,01,00,EC,D1,
4339057569,00000237,false,Rx,1,8,3D,41,00,00,00,00,00,00,
4339057801,00000247,false,Rx,1,8,44,7D,1A,02,00,00,20,00,
4339058036,00000537,false,Rx,1,8,0F,00,00,00,8C,A1,70,0A,
4339058283,00000717,false,Rx,1,8,07,00,00,00,01,0A,00,00,
4339066870,00000217,false,Rx,1,8,01,00,81,FB,9C,82,0A,00,
4339075603,0000045C,false,Rx,1,8,F8,8F,14,2E,00,00,90,8C,
4339075857,0000042C,false,Rx,1,8,42,C4,00,00,FC,00,00,00,
4339076099,00000368,false,Rx,1,8,03,49,29,11,00,0C,40,FF,
4339157028,00000207,false,Rx,1,8,72,E5,B0,08,F0,00,10,72,
4339157261,00000227,false,Rx,1,8,FC,0A,19,81,02,00,EC,D1,
4339157508,00000237,false,Rx,1,8,3D,41,00,00,00,00,00,00,
4339157748,00000247,false,Rx,1,8,44,7D,1A,02,00,00,20,00,
4339157990,00000717,false,Rx,1,8,08,00,00,00,66,06,00,00,
4339166819,00000217,false,Rx,1,8,01,00,01,FC,9C,82,0A,00,
4339175600,0000045C,false,Rx,1,8,F8,8F,14,2E,00,00,90,8C,
4339175854,0000042C,false,Rx,1,8,42,C4,00,00,FC,00,00,00,
4339176095,00000368,false,Rx,1,8,03,49,29,11,00,0C,40,FF,
4339257034,00000207,false,Rx,1,8,72,E5,30,0B,F0,00,10,71,
4339257266,00000227,false,Rx,1,8,F3,0A,18,81,03,00,EC,D1,
4339257513,00000237,false,Rx,1,8,3D,41,00,00,00,00,00,00,
4339257747,00000247,false,Rx,1,8,44,7D,1A,02,00,00,20,00,
4339257988,00000717,false,Rx,1,8,09,00,66,06,00,00,00,00,
4339266824,00000217,false,Rx,1,8,01,00,01,FC,9C,82,0A,00,
4339275605,0000045C,false,Rx,1,8,F8,8F,14,2E,00,00,90,8C,
4339275851,0000042C,false,Rx,1,8,42,C4,00,00,FC,00,00,00,
4339276092,00000368,false,Rx,1,8,03,49,29,11,00,0C,40,FF,
4339356986,00000207,false,Rx,1,8,72,E5,B0,0D,F0,00,10,70,
4339357218,00000227,false,Rx,1,8,F8,0A,1B,81,05,00,EC,D1,
4339357465,00000237,false,Rx,1,8,3D,41,00,00,00,00,00,00,
4339357699,00000247,false,Rx,1,8,44,7D,1A,02,00,00,20,00,
4339357947,00000717,false,Rx,1,8,0A,00,00,00,00,00,00,00,
4339366779,00000217,false,Rx,1,8,01,00,01,FC,9C,82,0A,00,
4339375605,0000045C,false,Rx,1,8,F8,8F,14,2E,00,00,90,8C,
4339375851,0000042C,false,Rx,1,8,42,C4,00,00,FC,00,00,00,
4339376093,00000368,false,Rx,1,8,03,49,29,11,00,0C,40,FF,
4339456984,00000207,false,Rx,1,8,72,E5,70,10,F0,00,10,72,
4339457215,00000227,false,Rx,1,8,F6,0A,23,81,00,00,EC,D1,
4339457464,00000237,false,Rx,1,8,3D,41,00,00,00,00,00,00,
4339457704,00000247,false,Rx,1,8,44,7D,1A,02,00,00,20,00,
4339457944,00000717,false,Rx,1,8,0B,00,00,00,00,00,00,00,
4339466791,00000217,false,Rx,1,8,01,00,01,FC,9C,82,0A,00,
4339475600,0000045C,false,Rx,1,8,F8,8F,14,2E,00,00,90,8C,
4339475855,0000042C,false,Rx,1,8,42,C4,00,00,FC,00,00,00,
4339476096,00000368,false,Rx,1,8,03,49,29,11,00,0C,40,FF,
4339556974,00000207,false,Rx,1,8,72,E5,F0,12,F0,00,10,73,
4339557206,00000227,false,Rx,1,8,F6,0A,1F,81,06,00,EC,D1,
4339557453,00000237,false,Rx,1,8,3D,41,00,00,00,00,00,00,
4339557693,00000247,false,Rx,1,8,44,7D,1A,02,00,00,20,00,
4339557942,00000717,false,Rx,1,8,0C,00,00,00,00,00,02,00,
4339566759,00000217,false,Rx,1,8,01,00,01,FC,9C,82,0A,00,
4339575599,0000045C,false,Rx,1,8,F8,8F,14,2E,00,00,90,8C,
4339575854,0000042C,false,Rx,1,8,42,C4,00,00,FC,00,00,00,
4339576095,00000368,false,Rx,1,8,03,49,29,11,00,0C,40,FF,
4339656918,00000207,false,Rx,1,8,72,E5,70,15,F0,00,10,74,
4339657150,00000227,false,Rx,1,8,FD,0A,21,81,05,00,EC,D1,
4339657398,00000237,false,Rx,1,8,3D,41,00,00,00,00,00,00,
4339657638,00000247,false,Rx,1,8,44,7D,1A,02,00,00,20,00,
4339657880,00000717,false,Rx,1,8,0E,00,00,02,E6,87,00,00,
4339666703,00000217,false,Rx,1,8,01,00,01,FC,9C,82,0A,00,
4339675598,0000045C,false,Rx,1,8,F8,8F,14,2E,00,00,90,8C,
4339675852,0000042C,false,Rx,1,8,42,C4,00,00,FC,00,00,00,
4339676093,00000368,false,Rx,1,8,03,49,29,11,00,0C,40,FF,
4339756928,00000207,false,Rx,1,8,72,E5,B0,17,F0,00,10,74,
4339757160,00000227,false,Rx,1,8,EE,0A,1A,81,00,00,EC,D1,
4339757407,00000237,false,Rx,1,8,3D,41,00,00,00,00,00,00,
4339757647,00000247,false,Rx,1,8,44,7D,1A,02,00,00,20,00,
4339757882,00000717,false,Rx,1,8,0F,00,F0,01,87,0F,00,00,
4339766720,00000217,false,Rx,1,8,01,40,01,FC,9C,82,0A,00,
4339775599,0000045C,false,Rx,1,8,F8,8F,14,2E,00,00,90,8C,
4339775846,0000042C,false,Rx,1,8,42,C4,00,00,FC,00,00,00,
4339776088,00000368,false,Rx,1,8,03,49,29,11,00,0C,40,FF,
4339856804,00000367,false,Rx,1,8,00,00,00,00,00,00,00,00,
4339857036,00000207,false,Rx,1,8,72,E5,30,1A,F0,00,10,71,
4339857268,00000227,false,Rx,1,8,F0,0A,1B,81,0D,00,EC,D1,
4339857517,00000237,false,Rx,1,8,3D,41,00,00,00,00,00,00,
4339857749,00000247,false,Rx,1,8,44,7D,1A,02,00,00,20,00,
4339857990,00000717,false,Rx,1,8,10,93,83,47,00,40,04,00,
4339866672,00000217,false,Rx,1,8,01,40,01,FC,9C,82,0A,00,
4339866921,00000377,false,Rx,1,8,00,00,00,00,00,00,00,00,
4339875595,0000045C,false,Rx,1,8,F8,8F,14,2E,00,00,90,8C,
4339875849,0000042C,false,Rx,1,8,42,C4,00,00,FC,00,00,00,
4339876091,00000368,false,Rx,1,8,03,49,29,11,00,0C,40,FF,
4339876803,00000347,false,Rx,1,8,00,00,00,00,00,00,00,00,
4339886797,00000357,false,Rx,1,8,00,00,00,00,00,00,00,00,
4339896794,00000327,false,Rx,1,8,00,00,00,00,00,00,00,00,
4339906792,00000337,false,Rx,1,8,00,00,00,00,00,00,00,00,
4339956877,00000207,false,Rx,1,8,73,E5,B0,1C,F0,00,10,72,
4339957109,00000227,false,Rx,1,8,EB,0A,17,81,00,00,EC,D1,
4339957357,00000237,false,Rx,1,8,3D,41,00,00,00,00,00,00,
4339957590,00000247,false,Rx,1,8,44,7D,1A,02,00,00,20,00,
4339957837,00000537,false,Rx,1,8,10,00,00,0A,00,00,00,00,
4339958078,00000717,false,Rx,1,8,11,00,C2,05,00,00,00,00,
4339966663,00000217,false,Rx,1,8,01,40,01,FC,9C,82,0A,00,
4339975594,0000045C,false,Rx,1,8,F8,8F,14,2E,00,00,90,8C,
4339975849,0000042C,false,Rx,1,8,42,C4,00,00,FC,00,00,00,
4339976090,00000368,false,Rx,1,8,03,49,29,11,00,0C,40,FF,
4340056873,00000207,false,Rx,1,8,73,E5,F0,1E,F0,00,10,72,
4340057104,00000227,false,Rx,1,8,F8,0A,1B,81,00,00,EC,D1,
4340057353,00000237,false,Rx,1,8,3D,41,00,00,00,00,00,00,
4340057585,00000247,false,Rx,1,8,44,7D,1A,02,00,00,20,00,
4340057825,00000717,false,Rx,1,8,12,40,29,00,27,00,17,00,
4340066651,00000217,false,Rx,1,8,01,40,01,FC,9C,82,0A,00,
4340075597,0000045C,false,Rx,1,8,F8,8F,14,2E,00,00,90,8C,
4340075844,0000042C,false,Rx,1,8,42,C4,00,00,FC,00,00,00,
4340076085,00000368,false,Rx,1,8,03,49,29,11,00,0C,40,FF,
4340156821,00000207,false,Rx,1,8,73,E5,F0,20,F0,00,10,74,
4340157048,00000227,false,Rx,1,8,ED,0A,1A,81,01,00,EC,D1,
4340157303,00000237,false,Rx,1,8,3D,41,00,00,00,00,00,00,
4340157535,00000247,false,Rx,1,8,44,7D,1A,02,00,00,20,00,
4340157784,00000717,false,Rx,1,8,13,00,00,00,03,00,00,00,
4340166607,00000217,false,Rx,1,8,01,40,01,FC,9C,82,0A,00,
4340175592,0000045C,false,Rx,1,8,F8,8F,14,2E,00,00,90,8C,
4340175846,0000042C,false,Rx,1,8,42,C4,00,00,FC,00,00,00,
4340176087,00000368,false,Rx,1,8,03,49,29,11,00,0C,40,FF,
4340256836,00000207,false,Rx,1,8,73,E6,30,23,F0,00,10,75,
4340257062,00000227,false,Rx,1,8,ED,0A,1D,81,00,00,EC,D1,
4340257310,00000237,false,Rx,1,8,3D,41,00,00,00,00,00,00,
4340257549,00000247,false,Rx,1,8,44,7D,1A,02,00,00,20,00,
4340257783,00000717,false,Rx,1,8,14,00,75,0F,A2,59,FF,20,
4340266615,00000217,false,Rx,1,8,01,40,01,FC,9C,82,0A,00,
4340275592,0000045C,false,Rx,1,8,F8,8F,14,2E,00,00,90,8C,
4340275845,0000042C,false,Rx,1,8,42,C4,00,00,FC,00,00,00,
4340276088,00000368,false,Rx,1,8,03,49,29,11,00,0C,40,FF,
4340356776,00000207,false,Rx,1,8,73,E5,30,25,F0,00,10,74,
4340357009,00000227,false,Rx,1,8,E2,0A,1A,81,04,00,EC,D1,
4340357257,00000237,false,Rx,1,8,3D,41,00,00,00,00,00,00,
4340357498,00000247,false,Rx,1,8,44,7D,1A,02,00,00,20,00,
4340366588,00000217,false,Rx,1,8,01,40,01,FC,9C,82,0A,00,
4340375595,0000045C,false,Rx,1,8,F8,8F,14,2E,00,00,90,8C,
4340375841,0000042C,false,Rx,1,8,42,C4,00,00,FC,00,00,00,
4340376083,00000368,false,Rx,1,8,03,49,29,11,00,0C,40,FF,
4340456751,00000207,false,Rx,1,8,73,E6,70,27,F0,00,10,74,
4340456983,00000227,false,Rx,1,8,E6,0A,1A,81,06,00,EC,D1,
4340457231,00000237,false,Rx,1,8,3D,41,00,00,00,00,00,00,
4340457472,00000247,false,Rx,1,8,44,7D,1A,02,00,00,20,00,
4340457711,00000717,false,Rx,1,8,16,00,00,00,00,00,9E,DF,
4340466550,00000217,false,Rx,1,8,01,40,01,FC,9C,82,0A,00,
4340475595,0000045C,false,Rx,1,8,F8,8F,14,2E,00,00,90,8C,
4340475843,0000042C,false,Rx,1,8,42,C4,00,00,FC,00,00,00,
4340476084,00000368,false,Rx,1,8,03,49,29,11,00,0C,40,FF,
4340556756,00000207,false,Rx,1,8,73,E6,F0,28,F0,00,10,73,
4340556988,00000227,false,Rx,1,8,E5,0A,1E,81,01,00,EC,D1,
4340557237,00000237,false,Rx,1,8,3D,41,00,00,00,00,00,00,
4340557469,00000247,false,Rx,1,8,44,7D,1A,02,00,00,20,00,
4340557716,00000717,false,Rx,1,8,17,00,00,50,04,00,00,00,
4340566548,00000217,false,Rx,1,8,01,40,01,FC,9C,82,0A,00,
4340575593,0000045C,false,Rx,1,8,F8,8F,14,2E,00,00,90,8C,
4340575839,0000042C,false,Rx,1,8,42,C4,00,00,FC,00,00,00,
4340576080,00000368,false,Rx,1,8,03,49,29,11,00,0C,40,FF,
4340656715,00000207,false,Rx,1,8,73,E6,F0,2A,F0,00,10,74,
4340656947,00000227,false,Rx,1,8,DD,0A,1F,81,05,00,EC,D1,
4340657196,00000237,false,Rx,1,8,3D,41,00,00,00,00,00,00,
4340657436,00000247,false,Rx,1,8,44,7D,1A,02,00,00,20,00,
4340657683,00000717,false,Rx,1,8,18,00,00,00,00,00,00,00,
4340666499,00000217,false,Rx,1,8,01,40,81,FC,9C,82,0A,00,
4340675590,0000045C,false,Rx,1,8,F8,8F,14,2E,00,00,90,8C,
4340675843,0000042C,false,Rx,1,8,42,C4,00,00,FC,00,00,00,
4340676085,00000368,false,Rx,1,8,03,49,29,11,00,0C,40,FF,
4340756718,00000207,false,Rx,1,8,73,E6,F0,2C,F0,00,10,75,
4340756952,00000227,false,Rx,1,8,DF,0A,1F,81,03,00,EC,D1,
4340757200,00000237,false,Rx,1,8,3D,41,00,00,00,00,00,00,
4340757440,00000247,false,Rx,1,8,44,7D,1A,02,00,00,20,00,
4340757688,00000717,false,Rx,1,8,19,00,00,00,00,00,00,00,
4340766506,00000217,false,Rx,1,8,01,40,81,FC,9C,82,0A,00,
4340775588,0000045C,false,Rx,1,8,F8,8F,14,2E,00,00,90,8C,
4340775842,0000042C,false,Rx,1,8,42,C4,00,00,FC,00,00,00,
4340776084,00000368,false,Rx,1,8,03,49,29,11,00,0C,40,FF,
4340856581,00000367,false,Rx,1,8,00,00,00,00,00,00,00,00,
4340856821,00000207,false,Rx,1,8,73,E6,70,2E,F0,00,10,75,
4340857055,00000227,false,Rx,1,8,E9,0A,23,81,00,00,EC,D1,
4340857302,00000237,false,Rx,1,8,3D,41,00,00,00,00,00,00,
4340857535,00000247,false,Rx,1,8,44,7D,1A,02,00,00,20,00,
4340857790,00000537,false,Rx,1,8,11,00,00,00,00,00,00,00,
4340858032,00000717,false,Rx,1,8,01,00,00,00,00,00,00,00,
4340866481,00000217,false,Rx,1,8,01,80,81,FC,9C,82,0A,00,
4340866729,00000377,false,Rx,1,8,00,00,00,00,00,00,00,00,
4340875587,0000045C,false,Rx,1,8,F8,8F,14,2E,00,00,90,8C,
4340875840,0000042C,false,Rx,1,8,42,C4,00,00,FC,00,00,00,
4340876082,00000368,false,Rx,1,8,03,49,29,11,00,0C,40,FF,
4340876614,00000347,false,Rx,1,8,00,00,00,00,00,00,00,00,
4340886577,00000357,false,Rx,1,8,00,00,00,00,00,00,00,00,
4340896575,00000327,false,Rx,1,8,00,00,00,00,00,00,00,00,
4340906572,00000337,false,Rx,1,8,00,00,00,00,00,00,00,00,
4340956653,00000207,false,Rx,1,8,73,E6,30,30,F0,00,10,76,
4340956885,00000227,false,Rx,1,8,E2,0A,25,81,00,00,EC,D1,
4340957133,00000237,false,Rx,1,8,3D,41,00,00,00,00,00,00,
4340957374,00000247,false,Rx,1,8,44,7D,1A,02,00,00,20,00,
4340957621,00000717,false,Rx,1,8,02,00,00,00,00,00,00,00,
4340966436,00000217,false,Rx,1,8,01,80,81,FC,9C,82,0A,00,
4340975587,0000045C,false,Rx,1,8,F8,8F,14,2E,00,00,90,8C,
4340975835,0000042C,false,Rx,1,8,42,C4,00,00,FC,00,00,00,
4340976077,00000368,false,Rx,1,8,03,49,29,11,00,0C,40,FF,
4341056658,00000207,false,Rx,1,8,73,E6,30,31,F0,00,10,75,
4341056890,00000227,false,Rx,1,8,DC,0A,17,81,01,00,EC,D1,
4341057139,00000237,false,Rx,1,8,3D,41,00,00,00,00,00,00,
4341057379,00000247,false,Rx,1,8,44,7D,1A,02,00,00,20,00,
4341066449,00000217,false,Rx,1,8,01,80,81,FC,9C,82,0A,00,
4341075583,0000045C,false,Rx,1,8,F8,8F,14,2E,00,00,90,8C,
4341075836,0000042C,false,Rx,1,8,42,C4,00,00,FC,00,00,00,
4341076077,00000368,false,Rx,1,8,03,49,29,11,00,0C,40,FF,
4341156606,00000207,false,Rx,1,8,73,E6,F0,32,F0,00,10,75,
4341156837,00000227,false,Rx,1,8,DD,0A,21,81,02,00,EC,D1,
4341157086,00000237,false,Rx,1,8,3D,41,00,00,00,00,00,00,
4341157326,00000247,false,Rx,1,8,44,7D,1A,02,00,00,20,00,
4341157574,00000717,false,Rx,1,8,04,00,00,00,00,00,00,00,
4341166391,00000217,false,Rx,1,8,01,80,81,FC,9C,82,0A,00,
4341175585,0000045C,false,Rx,1,8,F8,8F,14,2E,00,00,90,8C,
4341175832,0000042C,false,Rx,1,8,42,C4,00,00,FC,00,00,00,
4341176080,00000368,false,Rx,1,8,03,49,29,11,00,0C,40,FF,
4341256607,00000207,false,Rx,1,8,73,E6,F0,33,F0,00,10,76,
4341256839,00000227,false,Rx,1,8,DE,0A,19,81,05,00,EC,D1,
4341257088,00000237,false,Rx,1,8,3D,41,00,00,00,00,00,00,
4341257328,00000247,false,Rx,1,8,44,7D,1A,02,00,00,20,00,
4341257576,00000717,false,Rx,1,8,05,00,00,00,00,00,00,00,
4341266399,00000217,false,Rx,1,8,01,80,81,FC,9C,82,0A,00,
4341275587,0000045C,false,Rx,1,8,F8,8F,14,2E,00,00,90,8C,
4341275833,0000042C,false,Rx,1,8,42,C4,00,00,FC,00,00,00,
4341276075,00000368,false,Rx,1,8,03,49,29,11,00,0C,40,FF,
4341356594,00000207,false,Rx,1,8,73,E6,30,35,F0,00,10,75,
4341356819,00000227,false,Rx,1,8,DA,0A,18,81,01,00,EC,D1,
4341357067,00000237,false,Rx,1,8,3D,41,00,00,00,00,00,00,
4341357307,00000247,false,Rx,1,8,44,7D,1A,02,00,00,20,00,
4341357548,00000717,false,Rx,1,8,06,00,66,06,66,06,00,40,
4341366386,00000217,false,Rx,1,8,01,80,81,FC,9C,82,0A,00,
4341375581,0000045C,false,Rx,1,8,F8,8F,14,2E,00,00,90,8C,
4341375836,0000042C,false,Rx,1,8,42,C4,00,00,FC,00,00,00,
4341376077,00000368,false,Rx,1,8,03,49,29,11,00,0C,40,FF,
4341456546,00000207,false,Rx,1,8,73,E7,30,36,F0,00,10,77,
4341456785,00000227,false,Rx,1,8,DC,0A,21,81,04,00,EC,D1,
4341457034,00000237,false,Rx,1,8,3D,41,00,00,00,00,00,00,
4341457268,00000247,false,Rx,1,8,44,7D,1A,02,00,00,20,00,
4341457515,00000717,false,Rx,1,8,07,00,00,00,01,0A,00,00,
4341466330,00000217,false,Rx,1,8,01,80,81,FC,9C,82,0A,00,
4341475580,0000045C,false,Rx,1,8,F8,8F,14,2E,00,00,90,8C,
4341475835,0000042C,false,Rx,1,8,42,C4,00,00,FC,00,00,00,
4341476077,00000368,false,Rx,1,8,03,49,29,11,00,0C,40,FF,
4341556554,00000207,false,Rx,1,8,73,E7,F0,36,F0,00,10,76,
4341556785,00000227,false,Rx,1,8,D3,0A,18,81,00,00,EC,D1,
4341557027,00000237,false,Rx,1,8,3D,41,00,00,00,00,00,00,
4341557268,00000247,false,Rx,1,8,44,7D,1A,02,00,00,20,00,
4341557508,00000717,false,Rx,1,8,08,00,00,00,66,06,00,00,
4341566339,00000217,false,Rx,1,8,01,80,81,FC,9C,82,0A,00,
4341575580,0000045C,false,Rx,1,8,F8,8F,14,2E,00,00,90,8C,
4341575834,0000042C,false,Rx,1,8,42,C4,00,00,FC,00,00,00,
4341576075,00000368,false,Rx,1,8,03,49,29,11,00,0C,40,FF,
4341656502,00000207,false,Rx,1,8,73,E7,F0,37,F0,00,10,76,
4341656733,00000227,false,Rx,1,8,D5,0A,1A,81,02,00,EC,D1,
4341656983,00000237,false,Rx,1,8,3D,41,00,00,00,00,00,00,
4341657223,00000247,false,Rx,1,8,44,7D,1A,02,00,00,20,00,
4341657463,00000717,false,Rx,1,8,09,00,66,06,00,00,00,00,
4341666310,00000217,false,Rx,1,8,01,80,81,FC,9C,82,0A,00,
4341675580,0000045C,false,Rx,1,8,F8,8F,14,2E,00,00,90,8C,
4341675826,0000042C,false,Rx,1,8,42,C4,00,00,FC,00,00,00,
4341676075,00000368,false,Rx,1,8,03,49,29,11,00,0C,40,FF,
4341756487,00000207,false,Rx,1,8,73,E7,70,38,F0,00,10,76,
4341756718,00000227,false,Rx,1,8,D3,0A,1A,81,01,00,EC,D1,
4341756960,00000237,false,Rx,1,8,3D,41,00,00,00,00,00,00,
4341757200,00000247,false,Rx,1,8,44,7D,1A,02,00,00,20,00,
4341757432,00000537,false,Rx,1,8,12,03,E9,DA,DC,E1,B0,3F,
4341757681,00000717,false,Rx,1,8,0A,00,00,00,00,00,00,00,
4341766283,00000217,false,Rx,1,8,01,80,81,FC,9C,82,0A,00,
4341775577,0000045C,false,Rx,1,8,F8,8F,14,2E,00,00,90,8C,
4341775831,0000042C,false,Rx,1,8,42,C4,00,00,FC,00,00,00,
4341776073,00000368,false,Rx,1,8,03,49,29,11,00,0C,40,FF,
4341856381,00000367,false,Rx,1,8,00,00,00,00,00,00,00,00,
4341856621,00000207,false,Rx,1,8,73,E7,F0,38,F0,00,10,76,
4341856853,00000227,false,Rx,1,8,D4,0A,1F,81,00,00,EC,D1,
4341857101,00000237,false,Rx,1,8,3D,41,00,00,00,00,00,00,
4341857341,00000247,false,Rx,1,8,44,7D,1A,02,00,00,20,00,
4341857590,00000717,false,Rx,1,8,0B,00,00,00,00,00,00,00,
4341866275,00000217,false,Rx,1,8,01,80,81,FC,9C,82,0A,00,
4341866521,00000377,false,Rx,1,8,00,00,00,00,00,00,00,00,
4341875582,0000045C,false,Rx,1,8,F8,8F,14,2E,00,00,90,8C,
4341875829,0000042C,false,Rx,1,8,42,C4,00,00,FC,00,00,00,
4341876070,00000368,false,Rx,1,8,03,49,29,11,00,0C,40,FF,
4341876407,00000347,false,Rx,1,8,00,00,00,00,00,00,00,00,
4341886368,00000357,false,Rx,1,8,00,00,00,00,00,00,00,00,
4341896373,00000327,false,Rx,1,8,00,00,00,00,00,00,00,00,
4341906366,00000337,false,Rx,1,8,00,00,00,00,00,00,00,00,
4341956437,00000207,false,Rx,1,8,73,E7,70,39,F0,00,10,77,
4341956661,00000227,false,Rx,1,8,CD,0A,1B,81,01,00,EC,D1,
4341956910,00000237,false,Rx,1,8,3D,41,00,00,00,00,00,00,
4341957149,00000247,false,Rx,1,8,44,7D,1A,02,00,00,20,00,
4341957398,00000717,false,Rx,1,8,0C,00,00,00,00,00,02,00,
4341966223,00000217,false,Rx,1,8,01,80,01,FD,9C,82,0A,00,
4341975576,0000045C,false,Rx,1,8,F8,8F,14,2E,00,00,90,8C,
4341975830,0000042C,false,Rx,1,8,42,C4,00,00,FC,00,00,00,
4341976072,00000368,false,Rx,1,8,03,49,29,11,00,0C,40,FF,
4342056442,00000207,false,Rx,1,8,73,E7,B0,39,F0,00,10,76,
4342056673,00000227,false,Rx,1,8,C9,0A,1C,81,05,00,EC,D1,
4342056923,00000237,false,Rx,1,8,3D,41,00,00,00,00,00,00,
4342057156,00000247,false,Rx,1,8,44,7D,1A,02,00,00,20,00,
4342057396,00000717,false,Rx,1,8,0E,00,00,02,46,91,00,00,
4342066226,00000217,false,Rx,1,8,01,80,01,FD,9C,82,0A,00,
4342075580,0000045C,false,Rx,1,8,F8,8F,14,2E,00,00,90,8C,
4342075826,0000042C,false,Rx,1,8,42,C4,00,00,FC,00,00,00,
4342076067,00000368,false,Rx,1,8,03,49,29,11,00,0C,40,FF,
4342156404,00000207,false,Rx,1,8,73,E7,F0,39,F0,00,10,77,
4342156635,00000227,false,Rx,1,8,CF,0A,16,81,02,00,EC,D1,
4342156883,00000237,false,Rx,1,8,3D,41,00,00,00,00,00,00,
4342157117,00000247,false,Rx,1,8,44,7D,1A,02,00,00,20,00,
4342157357,00000717,false,Rx,1,8,0F,00,F0,01,86,0F,00,00,
4342166220,00000217,false,Rx,1,8,01,80,01,FD,9C,82,0A,00,
4342175577,0000045C,false,Rx,1,8,F8,8F,14,2E,00,00,90,8C,
4342175823,0000042C,false,Rx,1,8,42,C4,00,00,FC,00,00,00,
4342176065,00000368,false,Rx,1,8,03,49,29,11,00,0C,40,FF,
4342256381,00000207,false,Rx,1,8,73,E7,70,39,F0,00,10,77,
4342256604,00000227,false,Rx,1,8,C5,0A,1A,81,00,00,EC,D1,
4342256853,00000237,false,Rx,1,8,3D,41,00,00,00,00,00,00,
4342257094,00000247,false,Rx,1,8,44,7D,1A,02,00,00,20,00,
4342257334,00000717,false,Rx,1,8,10,9C,23,48,00,40,04,00,
4342266165,00000217,false,Rx,1,8,01,80,01,FD,9C,82,0A,00,
4342275572,0000045C,false,Rx,1,8,F8,8F,14,2E,00,00,90,8C,
4342275826,0000042C,false,Rx,1,8,42,C4,00,00,FC,00,00,00,
4342276068,00000368,false,Rx,1,8,03,49,29,11,00,0C,40,FF,
4342356381,00000207,false,Rx,1,8,73,E7,30,39,F0,00,10,76,
4342356613,00000227,false,Rx,1,8,CE,0A,22,81,00,00,EC,D1,
4342356861,00000237,false,Rx,1,8,3D,41,00,00,00,00,00,00,
4342357101,00000247,false,Rx,1,8,44,7D,1A,02,00,00,20,00,
4342357342,00000717,false,Rx,1,8,11,00,BA,05,00,00,00,00,
4342366172,00000217,false,Rx,1,8,01,C0,01,FD,9C,82,0A,00,
4342375572,0000045C,false,Rx,1,8,F8,8F,14,2E,00,00,90,8C,
4342375819,0000042C,false,Rx,1,8,42,C4,00,00,FC,00,00,00,
4342376068,00000368,false,Rx,1,8,03,49,29,11,00,0C,40,FF,
4342456328,00000207,false,Rx,1,8,73,E7,30,39,F0,00,10,77,
4342456560,00000227,false,Rx,1,8,C5,0A,18,81,04,00,EC,D1,
4342456807,00000237,false,Rx,1,8,3D,41,00,00,00,00,00,00,
4342457050,00000247,false,Rx,1,8,44,7D,1A,02,00,00,20,00,
4342457283,00000717,false,Rx,1,8,12,40,29,00,27,00,17,00,
4342466122,00000217,false,Rx,1,8,01,C0,01,FD,9C,82,0A,00,
4342475574,0000045C,false,Rx,1,8,F8,8F,14,2E,00,00,90,8C,
4342475821,0000042C,false,Rx,1,8,42,C4,00,00,FC,00,00,00,
4342476062,00000368,false,Rx,1,8,03,49,29,11,00,0C,40,FF,
4342556334,00000207,false,Rx,1,8,73,E7,B0,38,F0,00,10,76,
4342556565,00000227,false,Rx,1,8,C5,0A,15,81,02,00,EC,D1,
4342556812,00000237,false,Rx,1,8,3D,41,00,00,00,00,00,00,
4342557048,00000247,false,Rx,1,8,44,7D,1A,02,00,00,20,00,
4342557295,00000717,false,Rx,1,8,13,00,00,00,03,00,00,00,
4342566136,00000217,false,Rx,1,8,01,C0,01,FD,9C,82,0A,00,
4342575573,0000045C,false,Rx,1,8,F8,8F,14,2E,00,00,90,8C,
4342575819,0000042C,false,Rx,1,8,42,C4,00,00,FC,00,00,00,
4342576067,00000368,false,Rx,1,8,03,49,29,11,00,0C,40,FF,
4342656317,00000207,false,Rx,1,8,73,E6,70,38,F0,00,10,77,
4342656549,00000227,false,Rx,1,8,B9,0A,16,81,04,00,EC,D1,
4342656796,00000237,false,Rx,1,8,3D,41,00,00,00,00,00,00,
4342657038,00000247,false,Rx,1,8,44,7D,1A,02,00,00,20,00,
4342657278,00000537,false,Rx,1,8,13,01,FE,00,00,FC,00,00,
4342657510,00000717,false,Rx,1,8,14,00,76,E8,32,2A,22,39,
4342666107,00000217,false,Rx,1,8,01,C0,01,FD,9C,82,0A,00,
4342675568,0000045C,false,Rx,1,8,F8,8F,14,2E,00,00,90,8C,
4342675821,0000042C,false,Rx,1,8,42,C4,00,00,FC,00,00,00,
4342676063,00000368,false,Rx,1,8,03,49,29,11,00,0C,40,FF,
4342756268,00000207,false,Rx,1,8,73,E7,B0,37,F0,00,10,77,
4342756500,00000227,false,Rx,1,8,BD,0A,1B,81,01,00,EC,D1,
4342756748,00000237,false,Rx,1,8,3D,41,00,00,00,00,00,00,
4342756982,00000247,false,Rx,1,8,44,7D,1A,02,00,00,20,00,
4342766052,00000217,false,Rx,1,8,01,C0,01,FD,9C,82,0A,00,
4342775572,0000045C,false,Rx,1,8,F8,8F,14,2E,00,00,90,8C,
4342775818,0000042C,false,Rx,1,8,42,C4,00,00,FE,00,00,00,
4342776060,00000368,false,Rx,1,8,03,49,29,11,00,0C,40,FF,
4342777057,00000217,false,Rx,1,8,01,C0,00,FB,9C,8A,0A,00,
4342778073,00000217,false,Rx,1,8,31,C0,00,FB,9C,8C,0A,00,
4342779101,00000217,false,Rx,1,8,31,C0,00,FB,9C,8D,0A,00,
4342833076,00000217,false,Rx,1,8,31,00,81,FB,9C,8E,0A,00,
4342856162,00000367,false,Rx,1,8,00,00,00,00,00,00,00,00,
4342856401,00000207,false,Rx,1,8,73,E6,F2,36,F0,02,00,76,
4342856627,00000227,false,Rx,1,8,F9,0A,24,81,03,00,EC,D1,
4342856875,00000237,false,Rx,1,8,3D,41,00,00,00,00,00,00,
4342857107,00000247,false,Rx,1,8,44,7D,1A,3A,05,00,20,00,
4342857356,00000717,false,Rx,1,8,16,00,00,00,00,00,5E,B5,
4342866159,00000377,false,Rx,1,8,00,00,00,00,00,00,00,00,
4342875572,0000045C,false,Rx,1,8,F8,8F,14,2E,00,00,90,8C,
4342875820,0000042C,false,Rx,1,8,42,C4,00,00,FE,00,00,00,
4342876062,00000368,false,Rx,1,8,03,49,29,11,00,0C,40,FF,
4342876309,00000347,false,Rx,1,8,00,00,00,00,00,00,00,00,
4342886157,00000357,false,Rx,1,8,00,00,00,00,00,00,00,00,
4342896161,00000327,false,Rx,1,8,00,00,00,00,00,00,00,00,
4342906149,00000337,false,Rx,1,8,00,00,00,00,00,00,00,00,
4342933021,00000217,false,Rx,1,8,39,00,81,FB,8E,8E,08,00,
4342956227,00000207,false,Rx,1,8,73,E6,72,36,F0,2E,00,77,
4342956460,00000227,false,Rx,1,8,E0,56,2A,81,01,00,EC,D1,
4342956707,00000237,false,Rx,1,8,3D,41,00,00,00,00,00,00,
4342956941,00000247,false,Rx,1,8,44,7D,1A,3A,05,00,20,00,
4342957182,00000717,false,Rx,1,8,17,00,00,50,04,00,00,00,
4342975569,0000045C,false,Rx,1,8,F8,8F,14,2E,00,00,90,8C,
4342975816,0000042C,false,Rx,1,8,42,C4,00,00,FE,00,00,00,
4342976057,00000368,false,Rx,1,8,03,49,29,11,00,0C,40,FF,
4342991047,00000217,false,Rx,1,8,39,40,01,FC,93,90,07,00,
4342992043,00000217,false,Rx,1,8,39,40,01,FC,93,92,07,00,
4343056211,00000207,false,Rx,1,8,73,E6,32,35,F0,28,00,75,
4343056436,00000227,false,Rx,1,8,EB,74,21,81,00,00,EC,D1,
4343056684,00000237,false,Rx,1,8,3D,41,00,00,00,00,00,00,
4343056917,00000247,false,Rx,1,8,44,7D,1A,3A,05,00,20,00,
