Time Stamp,ID,Extended,Dir,Bus,LEN,D1,D2,D3,D4,D5,D6,D7,D8
4348725454,00000207,false,Rx,1,8,00,00,C4,FF,F0,00,04,00,
4348725685,00000227,false,Rx,1,8,05,3C,3F,7F,03,00,1F,C5,
4348725934,00000237,false,Rx,1,8,39,41,00,00,00,00,00,00,
4348726167,00000247,false,Rx,1,8,44,7D,07,3A,05,00,20,00,
4348726399,00000217,false,Rx,1,8,21,60,81,FD,9C,37,00,03,
4348726647,00000717,false,Rx,1,8,16,00,00,00,00,00,4C,46,
4348825441,00000207,false,Rx,1,8,00,00,C4,FF,F0,00,04,00,
4348825672,00000227,false,Rx,1,8,EF,3B,34,7F,02,00,1F,C5,
4348825921,00000237,false,Rx,1,8,39,41,00,00,00,00,00,00,
4348826154,00000247,false,Rx,1,8,44,7D,08,3A,05,00,20,00,
4348826387,00000217,false,Rx,1,8,21,60,81,FD,9C,37,00,03,
4348826635,00000717,false,Rx,1,8,17,00,00,60,04,00,00,00,
4348925400,00000207,false,Rx,1,8,00,00,C4,FF,F0,00,04,00,
4348925633,00000227,false,Rx,1,8,DC,3B,3A,7F,01,00,1F,C5,
4348925880,00000237,false,Rx,1,8,39,41,00,00,00,00,00,00,
4348926115,00000247,false,Rx,1,8,44,7D,08,3A,05,00,20,00,
4348926347,00000217,false,Rx,1,8,21,60,81,FD,9C,37,00,03,
4348926596,00000717,false,Rx,1,8,18,00,00,00,00,00,00,00,
4349025415,00000207,false,Rx,1,8,00,00,04,00,F0,00,04,00,
4349025647,00000227,false,Rx,1,8,CE,3B,38,7F,00,00,1F,C5,
4349025887,00000237,false,Rx,1,8,39,41,00,00,00,00,00,00,
4349026130,00000247,false,Rx,1,8,44,7D,08,3A,05,00,20,00,
4349026363,00000217,false,Rx,1,8,21,60,81,FD,9C,37,00,03,
4349026603,00000717,false,Rx,1,8,19,00,00,00,00,00,00,00,
4349125353,00000207,false,Rx,1,8,00,00,C4,FF,F0,00,04,00,
4349125584,00000227,false,Rx,1,8,B2,3B,36,7F,01,00,1F,C5,
4349125824,00000237,false,Rx,1,8,39,41,00,00,00,00,00,00,
4349126067,00000247,false,Rx,1,8,44,7D,08,3A,05,00,20,00,
4349126299,00000217,false,Rx,1,8,21,60,81,FD,9C,37,00,03,
4349126539,00000537,false,Rx,1,8,0B,00,05,06,00,00,00,00,
4349126793,00000717,false,Rx,1,8,01,00,00,00,00,00,00,00,
4349225333,00000207,false,Rx,1,8,00,00,C4,FF,F0,00,04,00,
4349225564,00000227,false,Rx,1,8,A4,3B,3F,7F,00,00,1F,C5,
4349225804,00000237,false,Rx,1,8,39,41,00,00,00,00,00,00,
4349226047,00000247,false,Rx,1,8,44,7D,07,3A,05,00,20,00,
4349226279,00000217,false,Rx,1,8,21,60,81,FD,9C,37,00,03,
4349226527,00000717,false,Rx,1,8,02,00,00,00,00,00,00,00,
4349325328,00000207,false,Rx,1,8,00,00,C4,FF,F0,00,04,00,
4349325567,00000227,false,Rx,1,8,92,3B,3F,7F,09,00,1F,C5,
4349325808,00000237,false,Rx,1,8,39,41,00,00,00,00,00,00,
4349326042,00000247,false,Rx,1,8,44,7D,07,3A,05,00,20,00,
4349326282,00000217,false,Rx,1,8,21,60,81,FD,9C,37,00,03,
4349425297,00000207,false,Rx,1,8,00,00,04,00,F0,00,04,00,
4349425528,00000227,false,Rx,1,8,7E,3B,38,7F,02,00,1F,C5,
4349425777,00000237,false,Rx,1,8,39,41,00,00,00,00,00,00,
4349426010,00000247,false,Rx,1,8,44,7D,08,3A,05,00,20,00,
4349426242,00000217,false,Rx,1,8,21,60,81,FD,9C,37,00,03,
4349426491,00000717,false,Rx,1,8,04,00,00,00,00,00,00,00,
4349525204,00000367,false,Rx,1,8,00,00,00,00,00,00,40,00,
4349525451,00000207,false,Rx,1,8,00,00,C4,FF,F0,00,04,00,
4349525684,00000227,false,Rx,1,8,67,3B,30,7F,00,00,1F,C5,
4349525932,00000237,false,Rx,1,8,39,41,00,00,00,00,00,00,
4349526166,00000217,false,Rx,1,8,21,60,81,FD,9C,37,00,03,
4349526398,00000247,false,Rx,1,8,44,7D,08,3A,05,00,20,00,
4349526645,00000717,false,Rx,1,8,05,00,00,00,00,00,00,00,
4349535176,00000377,false,Rx,1,8,00,00,00,00,00,00,00,00,
4349545174,00000347,false,Rx,1,8,00,00,00,00,00,08,00,00,
4349555171,00000357,false,Rx,1,8,00,00,00,00,00,00,02,00,
4349565169,00000327,false,Rx,1,8,00,00,00,00,00,00,00,00,
4349575166,00000337,false,Rx,1,8,00,00,00,00,00,00,00,00,
4349625248,00000207,false,Rx,1,8,00,00,04,00,F0,00,04,00,
4349625486,00000227,false,Rx,1,8,58,3B,39,7F,00,00,1F,C5,
4349625726,00000237,false,Rx,1,8,39,41,00,00,00,00,00,00,
4349625960,00000247,false,Rx,1,8,44,7D,08,3A,05,00,20,00,
4349626201,00000217,false,Rx,1,8,21,60,81,FD,9C,37,00,03,
4349626433,00000717,false,Rx,1,8,06,00,5F,46,66,06,30,23,
4349725217,00000207,false,Rx,1,8,00,00,C4,FF,F0,00,04,00,
4349725456,00000227,false,Rx,1,8,39,3B,36,7F,00,00,1F,C5,
4349725696,00000237,false,Rx,1,8,39,41,00,00,00,00,00,00,
4349725938,00000247,false,Rx,1,8,44,7D,08,3A,05,00,20,00,
4349726170,00000217,false,Rx,1,8,21,60,81,FD,9C,37,00,03,
4349726410,00000717,false,Rx,1,8,07,00,00,00,01,0A,00,00,
4349825252,00000207,false,Rx,1,8,00,00,04,00,F0,00,04,00,
4349825483,00000227,false,Rx,1,8,2F,3B,3C,7F,05,00,1F,C5,
4349825724,00000237,false,Rx,1,8,39,41,00,00,00,00,00,00,
4349825965,00000247,false,Rx,1,8,44,7D,07,3A,05,00,20,00,
4349826198,00000217,false,Rx,1,8,21,60,81,FD,9C,37,00,03,
4349826437,00000717,false,Rx,1,8,08,00,00,00,26,46,00,00,
4349925187,00000207,false,Rx,1,8,00,00,C4,FF,F0,00,04,00,
4349925419,00000227,false,Rx,1,8,24,3B,37,7F,00,00,1F,C5,
4349925667,00000237,false,Rx,1,8,39,41,00,00,00,00,00,00,
4349925899,00000247,false,Rx,1,8,44,7D,08,3A,05,00,20,00,
4349926133,00000217,false,Rx,1,8,21,60,81,FD,9C,37,00,03,
4349926374,00000717,false,Rx,1,8,09,00,5F,46,00,00,00,00,
4350001119,0000045C,false,Rx,1,8,0E,8C,15,0E,00,00,14,8C,
4350025179,00000207,false,Rx,1,8,00,00,C4,FF,F0,00,04,00,
4350025411,00000227,false,Rx,1,8,0C,3B,37,7F,00,00,1F,C5,
4350025659,00000237,false,Rx,1,8,39,41,00,00,00,00,00,00,
4350025891,00000247,false,Rx,1,8,44,7D,08,3A,05,00,20,00,
4350026125,00000217,false,Rx,1,8,21,60,81,FD,9C,37,00,03,
4350026366,00000537,false,Rx,1,8,0D,00,00,00,7D,F1,02,85,
4350026598,00000717,false,Rx,1,8,0A,00,E1,8B,7F,8D,00,00,
4350051039,00000368,false,Rx,1,8,03,49,29,11,00,0C,40,FF,
4350101093,0000042C,false,Rx,1,8,42,60,00,00,64,00,00,00,
4350125169,00000207,false,Rx,1,8,00,00,04,00,F0,00,04,00,
4350125409,00000227,false,Rx,1,8,F8,3A,30,7F,00,00,1F,C5,
4350125656,00000237,false,Rx,1,8,39,41,00,00,00,00,00,00,
4350125888,00000247,false,Rx,1,8,44,7D,08,3A,05,00,20,00,
4350126123,00000217,false,Rx,1,8,21,60,81,FD,9C,37,00,03,
4350126370,00000717,false,Rx,1,8,0B,00,00,00,00,00,00,00,
4350206016,0000045C,false,Rx,1,8,10,8C,15,0E,00,00,08,8C,
4350225127,00000207,false,Rx,1,8,00,00,C4,FF,F0,00,04,00,
4350225359,00000227,false,Rx,1,8,E5,3A,34,7F,00,00,1F,C5,
4350225606,00000237,false,Rx,1,8,39,41,00,00,00,00,00,00,
4350225840,00000247,false,Rx,1,8,44,7D,08,3A,05,00,20,00,
4350226073,00000217,false,Rx,1,8,21,60,81,FD,9C,37,00,03,
4350226313,00000717,false,Rx,1,8,0C,01,00,03,00,00,02,02,
4350250935,00000368,false,Rx,1,8,03,49,29,11,00,0C,40,FF,
4350301129,0000042C,false,Rx,1,8,42,60,00,00,64,00,00,00,
4350325122,00000207,false,Rx,1,8,00,00,C4,FF,F0,00,04,00,
4350325353,00000227,false,Rx,1,8,CE,3A,36,7F,03,00,1F,C5,
4350325601,00000237,false,Rx,1,8,39,41,00,00,00,00,00,00,
4350325834,00000247,false,Rx,1,8,44,7D,08,3A,05,00,20,00,
4350326068,00000217,false,Rx,1,8,21,60,81,FD,9C,37,00,03,
4350326300,00000717,false,Rx,1,8,0E,10,20,37,AB,6B,01,00,
4350351082,0000045C,false,Rx,1,8,11,8C,15,0E,00,00,11,8C,
4350401099,00000368,false,Rx,1,8,03,49,29,11,00,0C,40,FF,
4350425077,00000207,false,Rx,1,8,00,00,C4,FF,F0,00,04,00,
4350425308,00000227,false,Rx,1,8,BC,3A,38,7F,00,00,1F,C5,
4350425557,00000237,false,Rx,1,8,39,41,00,00,00,00,00,00,
4350425789,00000247,false,Rx,1,8,44,7D,08,3A,05,00,20,00,
4350426023,00000217,false,Rx,1,8,21,60,81,FD,9C,37,00,03,
4350426264,00000717,false,Rx,1,8,0F,00,EB,01,64,0E,00,00,
4350472813,0000042C,false,Rx,1,8,42,60,00,00,64,00,00,00,
4350500993,0000045C,false,Rx,1,8,11,8C,15,0E,00,00,11,8C,
4350524993,00000367,false,Rx,1,8,00,00,00,00,00,00,40,00,
4350525240,00000207,false,Rx,1,8,00,00,C4,FF,F0,00,04,00,
4350525466,00000227,false,Rx,1,8,B4,3A,31,7F,04,00,1F,C5,
4350525713,00000237,false,Rx,1,8,39,41,00,00,00,00,00,00,
4350525946,00000217,false,Rx,1,8,21,60,81,FD,9C,37,00,03,
4350526180,00000247,false,Rx,1,8,44,7D,08,3A,05,00,20,00,
4350526420,00000717,false,Rx,1,8,10,0A,40,FF,03,80,FF,00,
4350534996,00000377,false,Rx,1,8,00,00,00,00,00,00,00,00,
4350544993,00000347,false,Rx,1,8,00,00,00,00,00,00,00,00,
4350551121,00000368,false,Rx,1,8,03,49,29,11,00,0C,40,FF,
4350554981,00000357,false,Rx,1,8,00,00,00,00,00,00,02,00,
4350564978,00000327,false,Rx,1,8,00,00,00,00,00,00,00,00,
4350574968,00000337,false,Rx,1,8,00,00,00,00,00,00,00,00,
4350601091,0000042C,false,Rx,1,8,42,60,00,00,64,00,00,00,
4350625068,00000207,false,Rx,1,8,00,00,04,00,F0,00,04,00,
4350625300,00000227,false,Rx,1,8,99,3A,37,7F,02,00,1F,C5,
4350625540,00000237,false,Rx,1,8,39,41,00,00,00,00,00,00,
4350625780,00000247,false,Rx,1,8,44,7D,08,3A,05,00,20,00,
4350626015,00000217,false,Rx,1,8,21,60,81,FD,9C,37,00,03,
4350626255,00000717,false,Rx,1,8,11,00,61,04,2D,00,00,00,
4350651153,0000045C,false,Rx,1,8,14,8C,15,0E,00,00,1F,8C,
4350725023,00000207,false,Rx,1,8,00,00,C4,FF,F0,00,04,00,
4350725247,00000227,false,Rx,1,8,95,3A,37,7F,01,00,1F,C5,
4350725494,00000237,false,Rx,1,8,39,41,00,00,00,00,00,00,
4350725734,00000247,false,Rx,1,8,44,7D,08,3A,05,00,20,00,
4350725961,00000217,false,Rx,1,8,21,60,81,FD,9C,37,00,03,
4350726201,00000717,false,Rx,1,8,12,40,29,00,27,00,19,00,
4350729671,00000368,false,Rx,1,8,03,49,29,11,00,0C,40,FF,
4350751071,0000042C,false,Rx,1,8,42,60,00,00,64,00,00,00,
4350801107,0000045C,false,Rx,1,8,0F,8C,15,0E,00,00,11,8C,
4350825011,00000207,false,Rx,1,8,00,00,C4,FF,F0,00,04,00,
4350825250,00000227,false,Rx,1,8,7C,3A,37,7F,06,00,1F,C5,
4350825490,00000237,false,Rx,1,8,39,41,00,00,00,00,00,00,
4350825731,00000247,false,Rx,1,8,44,7D,08,3A,05,00,20,00,
4350825965,00000217,false,Rx,1,8,21,60,81,FD,9C,37,00,03,
4350826212,00000717,false,Rx,1,8,13,00,00,00,01,00,00,00,
4350851144,00000368,false,Rx,1,8,03,49,29,11,00,0C,40,FF,
4350901147,0000042C,false,Rx,1,8,42,60,00,00,64,00,00,00,
4350924988,00000207,false,Rx,1,8,00,00,04,00,F0,00,04,00,
4350925219,00000227,false,Rx,1,8,69,3A,3A,7F,00,00,1F,C5,
4350925468,00000237,false,Rx,1,8,39,41,00,00,00,00,00,00,
4350925700,00000247,false,Rx,1,8,44,7D,08,3A,05,00,20,00,
4350925934,00000217,false,Rx,1,8,21,60,81,FD,9C,37,00,03,
4350926182,00000537,false,Rx,1,8,0E,00,00,00,00,00,00,00,
4350926423,00000717,false,Rx,1,8,14,00,00,01,1D,00,00,00,
4350984162,0000045C,false,Rx,1,8,11,8C,15,0E,00,00,11,8C,
4351000998,00000368,false,Rx,1,8,03,49,29,11,00,0C,40,FF,
4351024961,00000207,false,Rx,1,8,00,00,C4,FF,F0,00,04,00,
4351025192,00000227,false,Rx,1,8,4E,3A,39,7F,02,00,1F,C5,
4351025440,00000237,false,Rx,1,8,39,41,00,00,00,00,00,00,
4351025673,00000247,false,Rx,1,8,44,7D,08,3A,05,00,20,00,
4351025905,00000217,false,Rx,1,8,21,60,81,FD,9C,37,00,03,
4351051107,0000042C,false,Rx,1,8,42,60,00,00,64,00,00,00,
4351101124,0000045C,false,Rx,1,8,0F,8C,15,0E,00,00,11,8C,
4351124953,00000207,false,Rx,1,8,00,00,C4,FF,F0,00,04,00,
4351125193,00000227,false,Rx,1,8,3C,3A,2E,7F,03,00,1F,C5,
4351125440,00000237,false,Rx,1,8,39,41,00,00,00,00,00,00,
4351125672,00000247,false,Rx,1,8,44,7D,08,3A,05,00,20,00,
4351125906,00000217,false,Rx,1,8,21,60,81,FD,9C,37,00,03,
4351126147,00000717,false,Rx,1,8,16,00,00,00,00,00,3B,46,
4351151200,00000368,false,Rx,1,8,03,49,29,11,00,0C,40,FF,
4351224930,00000207,false,Rx,1,8,00,00,C4,FF,F0,00,04,00,
4351225163,00000227,false,Rx,1,8,2B,3A,3B,7F,00,00,1F,C5,
4351225403,00000237,false,Rx,1,8,39,41,00,00,00,00,00,00,
4351225643,00000247,false,Rx,1,8,44,7D,08,3A,05,00,20,00,
4351225876,00000217,false,Rx,1,8,21,60,81,FD,9C,37,00,03,
4351226125,00000717,false,Rx,1,8,17,00,00,60,04,00,00,00,
4351247980,0000042C,false,Rx,1,8,42,60,00,00,64,00,00,00,
4351251026,0000045C,false,Rx,1,8,13,8C,15,0E,00,00,14,8C,
4351300969,00000368,false,Rx,1,8,03,49,29,11,00,0C,40,FF,
4351324933,00000207,false,Rx,1,8,00,00,C4,FF,F0,00,04,00,
4351325164,00000227,false,Rx,1,8,15,3A,35,7F,00,00,1F,C5,
4351325412,00000237,false,Rx,1,8,39,41,00,00,00,00,00,00,
4351325645,00000247,false,Rx,1,8,44,7D,08,3A,05,00,20,00,
4351325878,00000217,false,Rx,1,8,21,60,81,FD,9C,37,00,03,
4351326126,00000717,false,Rx,1,8,18,00,00,00,00,00,00,00,
4351351129,0000042C,false,Rx,1,8,42,60,00,00,64,00,00,00,
4351401164,0000045C,false,Rx,1,8,11,8C,15,0E,00,00,06,8C,
4351424907,00000207,false,Rx,1,8,00,00,C4,FF,F0,00,04,00,
4351425147,00000227,false,Rx,1,8,07,3A,30,7F,04,00,1F,C5,
4351425387,00000237,false,Rx,1,8,39,41,00,00,00,00,00,00,
4351425628,00000247,false,Rx,1,8,44,7D,08,3A,05,00,20,00,
4351425860,00000217,false,Rx,1,8,21,60,81,FD,9C,37,00,03,
4351426102,00000717,false,Rx,1,8,19,00,00,00,00,00,00,00,
4351509823,00000368,false,Rx,1,8,03,49,29,11,00,0C,40,FF,
4351524763,00000367,false,Rx,1,8,00,00,00,00,00,00,40,00,
4351525010,00000207,false,Rx,1,8,00,00,C4,FF,F0,00,04,00,
4351525250,00000227,false,Rx,1,8,F9,39,30,7F,00,00,1F,C5,
4351525491,00000237,false,Rx,1,8,39,41,00,00,00,00,00,00,
4351525724,00000217,false,Rx,1,8,21,60,81,FD,9C,37,00,03,
4351525965,00000247,false,Rx,1,8,44,7D,08,3A,05,00,20,00,
4351526206,00000717,false,Rx,1,8,01,00,00,00,00,00,00,00,
4351534758,00000377,false,Rx,1,8,00,00,00,00,00,00,00,00,
4351544770,00000347,false,Rx,1,8,00,00,00,00,00,00,00,00,
4351551147,0000042C,false,Rx,1,8,42,60,00,00,64,00,00,00,
4351554780,00000357,false,Rx,1,8,00,00,00,00,00,00,02,00,
4351564778,00000327,false,Rx,1,8,00,00,00,00,00,00,00,00,
4351574766,00000337,false,Rx,1,8,00,00,00,00,00,00,00,00,
4351601126,0000045C,false,Rx,1,8,12,8C,15,0E,00,00,11,8C,
4351624854,00000207,false,Rx,1,8,00,00,04,00,F0,00,04,00,
4351625087,00000227,false,Rx,1,8,E4,39,39,7F,08,00,1F,C5,
4351625335,00000237,false,Rx,1,8,39,41,00,00,00,00,00,00,
4351625568,00000247,false,Rx,1,8,44,7D,08,3A,05,00,20,00,
4351625800,00000217,false,Rx,1,8,21,60,81,FD,9C,37,00,03,
4351626050,00000717,false,Rx,1,8,02,00,00,00,00,00,00,00,
4351651209,00000368,false,Rx,1,8,03,49,29,11,00,0C,40,FF,
4351724810,00000207,false,Rx,1,8,00,00,04,00,F0,00,04,00,
4351725051,00000227,false,Rx,1,8,CF,39,36,7F,04,00,1F,C5,
4351725291,00000237,false,Rx,1,8,39,41,00,00,00,00,00,00,
4351725531,00000247,false,Rx,1,8,44,7D,08,3A,05,00,20,00,
4351725764,00000217,false,Rx,1,8,21,60,81,FD,9C,37,00,03,
4351764400,0000042C,false,Rx,1,8,42,60,00,00,64,00,00,00,
4351801019,0000045C,false,Rx,1,8,10,8C,15,0E,00,00,13,8C,
4351824814,00000207,false,Rx,1,8,00,00,C4,FF,F0,00,04,00,
4351825047,00000227,false,Rx,1,8,BB,39,32,7F,06,00,1F,C5,
4351825287,00000237,false,Rx,1,8,39,41,00,00,00,00,00,00,
4351825527,00000247,false,Rx,1,8,44,7D,08,3A,05,00,20,00,
4351825760,00000217,false,Rx,1,8,21,60,81,FD,9C,37,00,03,
4351825995,00000537,false,Rx,1,8,0F,00,00,00,8C,A1,70,0A,
4351826242,00000717,false,Rx,1,8,04,00,00,00,00,00,00,00,
4351851253,00000368,false,Rx,1,8,03,49,29,11,00,0C,40,FF,
4351901204,0000042C,false,Rx,1,8,42,60,00,00,64,00,00,00,
4351924796,00000207,false,Rx,1,8,00,00,04,00,F0,00,04,00,
4351925029,00000227,false,Rx,1,8,B2,39,32,7F,03,00,1F,C5,
4351925268,00000237,false,Rx,1,8,39,41,00,00,00,00,00,00,
4351925502,00000247,false,Rx,1,8,44,7D,08,3A,05,00,20,00,
4351925742,00000217,false,Rx,1,8,21,60,81,FD,9C,37,00,03,
4351925983,00000717,false,Rx,1,8,05,00,00,00,00,00,00,00,
4351951247,0000045C,false,Rx,1,8,0E,8C,15,0E,00,00,FA,8B,
4352024751,00000207,false,Rx,1,8,00,00,04,00,F0,00,04,00,
4352024990,00000227,false,Rx,1,8,96,39,36,7F,00,00,1F,C5,
4352025231,00000237,false,Rx,1,8,39,41,00,00,00,00,00,00,
4352025464,00000247,false,Rx,1,8,44,7D,08,3A,05,00,20,00,
4352025704,00000217,false,Rx,1,8,21,60,81,FD,9C,37,00,03,
4352025938,00000717,false,Rx,1,8,06,00,5F,46,66,06,43,24,
4352028271,00000368,false,Rx,1,8,03,49,29,11,00,0C,40,FF,
4352051081,0000042C,false,Rx,1,8,42,60,00,00,64,00,00,00,
4352101176,0000045C,false,Rx,1,8,14,8C,15,0E,00,00,14,8C,
4352124752,00000207,false,Rx,1,8,00,00,C4,FF,F0,00,04,00,
4352124985,00000227,false,Rx,1,8,8F,39,37,7F,04,00,1F,C5,
4352125226,00000237,false,Rx,1,8,39,41,00,00,00,00,00,00,
4352125466,00000247,false,Rx,1,8,44,7D,08,3A,05,00,20,00,
4352125698,00000217,false,Rx,1,8,21,60,81,FD,9C,37,00,03,
4352125940,00000717,false,Rx,1,8,07,00,00,00,01,0A,00,00,
4352151257,00000368,false,Rx,1,8,03,49,29,11,00,0C,40,FF,
4352201222,0000042C,false,Rx,1,8,42,60,00,00,64,00,00,00,
4352224714,00000207,false,Rx,1,8,00,00,C4,FF,F0,00,04,00,
4352224941,00000227,false,Rx,1,8,7A,39,32,7F,02,00,1F,C5,
4352225188,00000237,false,Rx,1,8,39,41,00,00,00,00,00,00,
4352225420,00000247,false,Rx,1,8,44,7D,08,3A,05,00,20,00,
4352225660,00000217,false,Rx,1,8,21,60,81,FD,9C,37,00,03,
4352225901,00000717,false,Rx,1,8,08,00,00,00,16,46,00,00,
4352295124,0000045C,false,Rx,1,8,13,8C,15,0E,00,00,21,8C,
4352301071,00000368,false,Rx,1,8,03,49,29,11,00,0C,40,FF,
4352324700,00000207,false,Rx,1,8,00,00,C4,FF,F0,00,04,00,
4352324933,00000227,false,Rx,1,8,69,39,32,7F,09,00,1F,C5,
4352325173,00000237,false,Rx,1,8,39,41,00,00,00,00,00,00,
4352325413,00000247,false,Rx,1,8,44,7D,08,3A,05,00,20,00,
4352325647,00000217,false,Rx,1,8,21,60,81,FD,9C,37,00,03,
4352325886,00000717,false,Rx,1,8,09,00,48,46,00,00,00,00,
4352351227,0000042C,false,Rx,1,8,42,60,00,00,64,00,00,00,
4352401199,0000045C,false,Rx,1,8,10,8C,15,0E,00,00,13,8C,
4352424693,00000207,false,Rx,1,8,00,00,C4,FF,F0,00,04,00,
4352424925,00000227,false,Rx,1,8,4C,39,30,7F,01,00,1F,C5,
4352425172,00000237,false,Rx,1,8,39,41,00,00,00,00,00,00,
4352425406,00000247,false,Rx,1,8,44,7D,08,3A,05,00,20,00,
4352425638,00000217,false,Rx,1,8,21,60,81,FD,9C,37,00,03,
4352425878,00000717,false,Rx,1,8,0A,00,E1,8B,7F,8D,00,00,
4352451231,00000368,false,Rx,1,8,03,49,29,11,00,0C,40,FF,
4352524563,00000367,false,Rx,1,8,00,00,00,00,00,00,40,00,
4352524809,00000207,false,Rx,1,8,00,00,C4,FF,F0,00,04,00,
4352525050,00000227,false,Rx,1,8,3F,39,39,7F,00,00,1F,C5,
4352525291,00000237,false,Rx,1,8,39,41,00,00,00,00,00,00,
4352525531,00000217,false,Rx,1,8,21,60,81,FD,9C,37,00,03,
4352525763,00000247,false,Rx,1,8,44,7D,08,3A,05,00,20,00,
4352526013,00000717,false,Rx,1,8,0B,00,00,00,00,00,00,00,
4352534565,00000377,false,Rx,1,8,00,00,00,00,00,00,00,00,
4352544562,00000347,false,Rx,1,8,00,00,00,00,00,00,00,00,
4352544801,0000042C,false,Rx,1,8,42,60,00,00,64,00,00,00,
4352551060,0000045C,false,Rx,1,8,0E,8C,15,0E,00,00,13,8C,
4352554558,00000357,false,Rx,1,8,00,00,00,00,00,00,02,00,
4352564554,00000327,false,Rx,1,8,00,00,00,00,00,00,00,00,
4352574560,00000337,false,Rx,1,8,00,00,00,00,00,00,00,00,
4352601228,00000368,false,Rx,1,8,03,49,29,11,00,0C,40,FF,
4352624647,00000207,false,Rx,1,8,00,00,C4,FF,F0,00,04,00,
4352624886,00000227,false,Rx,1,8,28,39,2B,7F,06,00,1F,C5,
4352625128,00000237,false,Rx,1,8,39,41,00,00,00,00,00,00,
4352625360,00000247,false,Rx,1,8,44,7D,08,3A,05,00,20,00,
4352625600,00000217,false,Rx,1,8,21,60,81,FD,9C,37,00,03,
4352625841,00000717,false,Rx,1,8,0C,01,00,03,00,00,02,02,
4352651275,0000042C,false,Rx,1,8,42,60,00,00,64,00,00,00,
4352701217,0000045C,false,Rx,1,8,11,8C,15,0E,00,00,16,8C,
4352724611,00000207,false,Rx,1,8,00,00,04,00,F0,00,04,00,
4352724843,00000227,false,Rx,1,8,1D,39,37,7F,01,00,1F,C5,
4352725085,00000237,false,Rx,1,8,39,41,00,00,00,00,00,00,
4352725325,00000247,false,Rx,1,8,44,7D,08,3A,05,00,20,00,
4352725557,00000217,false,Rx,1,8,21,60,81,FD,9C,37,00,03,
4352725806,00000537,false,Rx,1,8,10,00,00,0A,00,00,00,00,
4352726039,00000717,false,Rx,1,8,0E,10,20,37,0B,75,01,00,
4352807902,00000368,false,Rx,1,8,03,49,29,11,00,0C,40,FF,
4352824587,00000207,false,Rx,1,8,00,00,04,00,F0,00,04,00,
4352824819,00000227,false,Rx,1,8,11,39,38,7F,01,00,1F,C5,
4352825068,00000237,false,Rx,1,8,39,41,00,00,00,00,00,00,
4352825300,00000247,false,Rx,1,8,44,7D,08,3A,05,00,20,00,
4352825534,00000217,false,Rx,1,8,21,60,81,FD,9C,37,00,03,
4352825774,00000717,false,Rx,1,8,0F,00,EB,01,6A,0E,00,00,
4352851132,0000042C,false,Rx,1,8,42,60,00,00,64,00,00,00,
4352901262,0000045C,false,Rx,1,8,0F,8C,15,0E,00,00,0A,8C,
4352924597,00000207,false,Rx,1,8,00,00,04,00,F0,00,04,00,
4352924829,00000227,false,Rx,1,8,00,39,36,7F,00,00,1F,C5,
4352925077,00000237,false,Rx,1,8,39,41,00,00,00,00,00,00,
4352925310,00000247,false,Rx,1,8,44,7D,08,3A,05,00,20,00,
4352925543,00000217,false,Rx,1,8,21,60,81,FD,9C,37,00,03,
4352925783,00000717,false,Rx,1,8,10,0A,40,FF,03,80,FF,00,
4352951274,00000368,false,Rx,1,8,03,49,29,11,00,0C,40,FF,
4353024552,00000207,false,Rx,1,8,00,00,04,00,F0,00,04,00,
4353024791,00000227,false,Rx,1,8,DF,38,31,7F,02,00,1F,C5,
4353025032,00000237,false,Rx,1,8,39,41,00,00,00,00,00,00,
4353025266,00000247,false,Rx,1,8,44,7D,08,3A,05,00,20,00,
4353025506,00000217,false,Rx,1,8,21,60,81,FD,9C,37,00,03,
4353025738,00000717,false,Rx,1,8,11,00,64,04,2D,00,00,00,
4353070099,0000042C,false,Rx,1,8,42,60,00,00,64,00,00,00,
4353101104,0000045C,false,Rx,1,8,10,8C,15,0E,00,00,14,8C,
4353124545,00000207,false,Rx,1,8,00,00,04,00,F0,00,04,00,
4353124783,00000227,false,Rx,1,8,CB,38,31,7F,03,00,1F,C5,
4353125025,00000237,false,Rx,1,8,39,41,00,00,00,00,00,00,
4353125258,00000247,false,Rx,1,8,44,7D,08,3A,05,00,20,00,
4353125498,00000217,false,Rx,1,8,21,60,81,FD,9C,37,00,03,
4353125730,00000717,false,Rx,1,8,12,40,29,00,27,00,19,00,
4353151358,00000368,false,Rx,1,8,03,49,29,11,00,0C,40,FF,
4353201295,0000042C,false,Rx,1,8,42,60,00,00,64,00,00,00,
4353224532,00000207,false,Rx,1,8,00,00,04,00,F0,00,04,00,
4353224771,00000227,false,Rx,1,8,BF,38,3B,7F,00,00,1F,C5,
4353225013,00000237,false,Rx,1,8,39,41,00,00,00,00,00,00,
4353225253,00000247,false,Rx,1,8,44,7D,08,3A,05,00,20,00,
4353225485,00000217,false,Rx,1,8,21,60,81,FD,9C,37,00,03,
4353225734,00000717,false,Rx,1,8,13,00,00,00,01,00,00,00,
4353251233,0000045C,false,Rx,1,8,11,8C,15,0E,00,00,14,8C,
4353323986,00000368,false,Rx,1,8,03,49,29,11,00,0C,40,FF,
4353324532,00000207,false,Rx,1,8,00,00,C4,FF,F0,00,04,00,
4353324765,00000227,false,Rx,1,8,B2,38,33,7F,02,00,1F,C5,
4353325014,00000237,false,Rx,1,8,39,41,00,00,00,00,00,00,
4353325246,00000247,false,Rx,1,8,44,7D,08,3A,05,00,20,00,
4353325480,00000217,false,Rx,1,8,21,60,81,FD,9C,37,00,03,
4353325727,00000717,false,Rx,1,8,14,00,00,01,0C,00,00,00,
4353351202,0000042C,false,Rx,1,8,42,60,00,00,64,00,00,00,
4353401290,0000045C,false,Rx,1,8,13,8C,15,0E,00,00,16,8C,
4353424480,00000207,false,Rx,1,8,00,00,C4,FF,F0,00,04,00,
4353424720,00000227,false,Rx,1,8,A0,38,36,7F,02,00,1F,C5,
4353424961,00000237,false,Rx,1,8,39,41,00,00,00,00,00,00,
4353425201,00000247,false,Rx,1,8,44,7D,08,3A,05,00,20,00,
4353425435,00000217,false,Rx,1,8,21,60,81,FD,9C,37,00,03,
4353451282,00000368,false,Rx,1,8,03,49,29,11,00,0C,40,FF,
4353501364,0000042C,false,Rx,1,8,42,60,00,00,64,00,00,00,
4353524350,00000367,false,Rx,1,8,00,00,00,00,00,00,40,00,
4353524605,00000207,false,Rx,1,8,00,00,04,00,F0,00,04,00,
4353524837,00000227,false,Rx,1,8,94,38,37,7F,02,00,1F,C5,
4353525085,00000237,false,Rx,1,8,39,41,00,00,00,00,00,00,
4353525319,00000217,false,Rx,1,8,21,60,81,FD,9C,37,00,03,
4353525551,00000247,false,Rx,1,8,44,7D,08,3A,05,00,20,00,
4353525791,00000717,false,Rx,1,8,16,00,00,00,00,00,5D,46,
4353534348,00000377,false,Rx,1,8,00,00,00,00,00,00,00,00,
4353544346,00000347,false,Rx,1,8,00,00,00,00,00,00,00,00,
4353554343,00000357,false,Rx,1,8,00,00,00,00,00,00,02,00,
4353564341,00000327,false,Rx,1,8,00,00,00,00,00,00,00,00,
4353574338,00000337,false,Rx,1,8,00,00,00,00,00,00,00,00,
4353592882,0000045C,false,Rx,1,8,10,8C,15,0E,00,00,05,8C,
4353601149,00000368,false,Rx,1,8,03,49,29,11,00,0C,40,FF,
4353624446,00000207,false,Rx,1,8,00,00,C4,FF,F0,00,04,00,
4353624684,00000227,false,Rx,1,8,7C,38,2D,7F,00,00,1F,C5,
4353624933,00000237,false,Rx,1,8,39,41,00,00,00,00,00,00,
4353625166,00000247,false,Rx,1,8,44,7D,08,3A,05,00,20,00,
4353625399,00000217,false,Rx,1,8,21,60,81,FD,9C,37,00,03,
4353625646,00000537,false,Rx,1,8,11,00,00,00,00,00,00,00,
4353625895,00000717,false,Rx,1,8,17,00,00,60,04,00,00,00,
4353651315,0000042C,false,Rx,1,8,42,60,00,00,64,00,00,00,
4353701302,0000045C,false,Rx,1,8,14,8C,15,0E,00,00,2D,8C,
4353724426,00000207,false,Rx,1,8,00,00,C4,FF,F0,00,04,00,
4353724657,00000227,false,Rx,1,8,6B,38,2C,7F,03,00,1F,C5,
4353724898,00000237,false,Rx,1,8,39,41,00,00,00,00,00,00,
4353725139,00000247,false,Rx,1,8,44,7D,08,3A,05,00,20,00,
4353725372,00000217,false,Rx,1,8,21,60,81,FD,9C,37,00,03,
4353725620,00000717,false,Rx,1,8,18,00,00,00,00,00,00,00,
4353751293,00000368,false,Rx,1,8,03,49,29,11,00,0C,40,FF,
4353824393,00000207,false,Rx,1,8,00,00,C4,FF,F0,00,04,00,
4353824632,00000227,false,Rx,1,8,53,38,32,7F,00,00,1F,C5,
4353824873,00000237,false,Rx,1,8,39,41,00,00,00,00,00,00,
4353825106,00000247,false,Rx,1,8,44,7D,08,3A,05,00,20,00,
4353825339,00000217,false,Rx,1,8,21,60,81,FD,9C,37,00,03,
4353825587,00000717,false,Rx,1,8,19,00,00,00,00,00,00,00,
4353849930,0000042C,false,Rx,1,8,42,60,00,00,64,00,00,00,
4353851677,0000045C,false,Rx,1,8,10,8C,15,0E,00,00,06,8C,
4353901311,00000368,false,Rx,1,8,03,49,29,11,00,0C,40,FF,
4353924375,00000207,false,Rx,1,8,00,00,C4,FF,F0,00,04,00,
4353924607,00000227,false,Rx,1,8,46,38,36,7F,00,00,1F,C5,
4353924847,00000237,false,Rx,1,8,39,41,00,00,00,00,00,00,
4353925088,00000247,false,Rx,1,8,44,7D,08,3A,05,00,20,00,
4353925322,00000217,false,Rx,1,8,21,60,81,FD,9C,37,00,03,
4353925569,00000717,false,Rx,1,8,01,00,00,00,00,00,00,00,
4353951317,0000042C,false,Rx,1,8,42,60,00,00,64,00,00,00,
4354001351,0000045C,false,Rx,1,8,13,8C,15,0E,00,00,14,8C,
4354024338,00000207,false,Rx,1,8,00,00,C4,FF,F0,00,04,00,
4354024569,00000227,false,Rx,1,8,35,38,2A,7F,00,00,1F,C5,
4354024817,00000237,false,Rx,1,8,39,41,00,00,00,00,00,00,
4354025050,00000247,false,Rx,1,8,44,7D,08,3A,05,00,20,00,
4354025284,00000217,false,Rx,1,8,21,60,81,FD,9C,37,00,03,
4354025531,00000717,false,Rx,1,8,02,00,00,00,00,00,00,00,
4354103515,00000368,false,Rx,1,8,03,49,29,11,00,0C,40,FF,
4354124325,00000207,false,Rx,1,8,00,00,C4,FF,F0,00,04,00,
4354124564,00000227,false,Rx,1,8,23,38,2B,7F,00,00,1F,C5,
4354124803,00000237,false,Rx,1,8,39,41,00,00,00,00,00,00,
4354125046,00000247,false,Rx,1,8,44,7D,08,3A,05,00,20,00,
4354125278,00000217,false,Rx,1,8,21,60,81,FD,9C,37,00,03,
4354151496,0000042C,false,Rx,1,8,42,60,00,00,64,00,00,00,
4354201335,0000045C,false,Rx,1,8,11,8C,15,0E,00,00,14,8C,
4354224331,00000207,false,Rx,1,8,00,00,C4,FF,F0,00,04,00,
4354224562,00000227,false,Rx,1,8,15,38,2E,7F,06,00,1F,C5,
4354224811,00000237,false,Rx,1,8,39,41,00,00,00,00,00,00,
4354225044,00000247,false,Rx,1,8,44,7D,08,3A,05,00,20,00,
4354225276,00000217,false,Rx,1,8,21,60,81,FD,9C,37,00,03,
4354225524,00000717,false,Rx,1,8,04,00,00,00,00,00,00,00,
4354251385,00000368,false,Rx,1,8,03,49,29,11,00,0C,40,FF,
4354301413,0000042C,false,Rx,1,8,42,60,00,00,64,00,00,00,
4354324274,00000207,false,Rx,1,8,00,00,C4,FF,F0,00,04,00,
4354324513,00000227,false,Rx,1,8,00,38,2D,7F,00,00,1F,C5,
4354324754,00000237,false,Rx,1,8,39,41,00,00,00,00,00,00,
4354324988,00000247,false,Rx,1,8,44,7D,08,3A,05,00,20,00,
4354325227,00000217,false,Rx,1,8,21,60,81,FD,9C,37,00,03,
4354325469,00000717,false,Rx,1,8,05,00,00,00,00,00,00,00,
4354374938,0000045C,false,Rx,1,8,13,8C,15,0E,00,00,13,8C,
4354401204,00000368,false,Rx,1,8,03,49,29,11,00,0C,40,FF,
4354424275,00000207,false,Rx,1,8,00,00,C4,FF,F0,00,04,00,
4354424507,00000227,false,Rx,1,8,ED,37,2C,7F,00,00,1F,C5,
4354424754,00000237,false,Rx,1,8,39,41,00,00,00,00,00,00,
4354424988,00000247,false,Rx,1,8,44,7D,08,3A,05,00,20,00,
4354425220,00000217,false,Rx,1,8,21,60,81,FD,9C,37,00,03,
4354425454,00000717,false,Rx,1,8,06,00,37,46,66,06,57,25,
4354451376,0000042C,false,Rx,1,8,42,60,00,00,64,00,00,00,
4354501328,0000045C,false,Rx,1,8,15,8C,15,0E,00,00,2D,8C,
4354524151,00000367,false,Rx,1,8,00,00,00,00,00,00,40,00,
4354524398,00000207,false,Rx,1,8,00,00,C4,FF,F0,00,04,00,
4354524631,00000227,false,Rx,1,8,E9,37,24,7F,00,00,1F,C5,
4354524870,00000237,false,Rx,1,8,39,41,00,00,00,00,00,00,
4354525105,00000217,false,Rx,1,8,21,60,81,FD,9C,37,00,03,
4354525345,00000247,false,Rx,1,8,44,7D,08,3A,05,00,20,00,
4354525577,00000537,false,Rx,1,8,12,03,E9,DA,DC,E1,B0,3F,
4354525817,00000717,false,Rx,1,8,07,00,00,00,01,0A,00,00,
4354534149,00000377,false,Rx,1,8,00,00,00,00,00,00,00,00,
4354544146,00000347,false,Rx,1,8,00,00,00,00,00,00,00,00,
4354551393,00000368,false,Rx,1,8,03,49,29,11,00,0C,40,FF,
4354554142,00000357,false,Rx,1,8,00,00,00,00,00,00,02,00,
4354564138,00000327,false,Rx,1,8,00,00,00,00,00,00,00,00,
4354574136,00000337,false,Rx,1,8,00,00,00,00,00,00,00,00,
4354624223,00000207,false,Rx,1,8,00,00,04,00,F0,00,04,00,
4354624454,00000227,false,Rx,1,8,CB,37,32,7F,02,00,1F,C5,
4354624694,00000237,false,Rx,1,8,39,41,00,00,00,00,00,00,
4354624936,00000247,false,Rx,1,8,44,7D,08,3A,05,00,20,00,
4354625168,00000217,false,Rx,1,8,21,60,81,FD,9C,37,00,03,
4354625408,00000717,false,Rx,1,8,08,00,00,00,5A,46,00,00,
4354630072,0000042C,false,Rx,1,8,42,60,00,00,64,00,00,00,
4354651313,0000045C,false,Rx,1,8,0F,8C,15,0E,00,00,13,8C,
4354701353,00000368,false,Rx,1,8,03,49,29,11,00,0C,40,FF,
4354724213,00000207,false,Rx,1,8,00,00,04,00,F0,00,04,00,
4354724444,00000227,false,Rx,1,8,B3,37,2B,7F,01,00,1F,C5,
4354724691,00000237,false,Rx,1,8,39,41,00,00,00,00,00,00,
4354724926,00000247,false,Rx,1,8,44,7D,08,3A,05,00,20,00,
4354725158,00000217,false,Rx,1,8,21,60,81,FD,9C,37,00,03,
4354725405,00000717,false,Rx,1,8,09,00,01,46,00,00,00,00,
4354751441,0000042C,false,Rx,1,8,42,60,00,00,64,00,00,00,
4354801386,0000045C,false,Rx,1,8,12,8C,15,0E,00,00,13,8C,
4354824185,00000207,false,Rx,1,8,00,00,C4,FF,F0,00,04,00,
4354824416,00000227,false,Rx,1,8,A7,37,2C,7F,03,00,1F,C5,
4354824657,00000237,false,Rx,1,8,39,41,00,00,00,00,00,00,
4354824897,00000247,false,Rx,1,8,44,7D,08,3A,05,00,20,00,
4354825130,00000217,false,Rx,1,8,21,60,81,FD,9C,37,00,03,
4354825364,00000717,false,Rx,1,8,0A,00,E1,8B,7F,8D,00,00,
4354883938,00000368,false,Rx,1,8,03,49,29,11,00,0C,40,FF,
4354901244,0000042C,false,Rx,1,8,42,60,00,00,64,00,00,00,
4354924177,00000207,false,Rx,1,8,00,00,C4,FF,F0,00,04,00,
4354924409,00000227,false,Rx,1,8,95,37,2A,7F,00,00,1F,C5,
4354924657,00000237,false,Rx,1,8,39,41,00,00,00,00,00,00,
4354924889,00000247,false,Rx,1,8,44,7D,08,3A,05,00,20,00,
4354925123,00000217,false,Rx,1,8,21,60,81,FD,9C,37,00,03,
4354925371,00000717,false,Rx,1,8,0B,00,00,00,00,00,00,00,
4354951346,0000045C,false,Rx,1,8,16,8C,15,0E,00,00,14,8C,
4355001356,00000368,false,Rx,1,8,03,49,29,11,00,0C,40,FF,
4355024146,00000207,false,Rx,1,8,00,00,C4,FF,F0,00,04,00,
4355024379,00000227,false,Rx,1,8,84,37,24,7F,01,00,1F,C5,
4355024626,00000237,false,Rx,1,8,39,41,00,00,00,00,00,00,
4355024858,00000247,false,Rx,1,8,44,7D,08,3A,05,00,20,00,
4355025093,00000217,false,Rx,1,8,21,60,81,FD,9C,37,00,03,
4355025340,00000717,false,Rx,1,8,0C,01,00,03,00,00,02,02,
4355051400,0000042C,false,Rx,1,8,42,60,00,00,64,00,00,00,
4355124105,00000207,false,Rx,1,8,00,00,C4,FF,F0,00,04,00,
4355124338,00000227,false,Rx,1,8,73,37,2B,7F,00,00,1F,C5,
4355124585,00000237,false,Rx,1,8,39,41,00,00,00,00,00,00,
4355124817,00000247,false,Rx,1,8,44,7D,08,3A,05,00,20,00,
4355125052,00000217,false,Rx,1,8,21,60,81,FD,9C,37,00,03,
4355125285,00000717,false,Rx,1,8,0E,10,20,37,6B,7E,01,00,
4355148385,0000045C,false,Rx,1,8,0E,8C,15,0E,00,00,14,8C,
4355151332,00000368,false,Rx,1,8,03,49,29,11,00,0C,40,FF,
4355201416,0000042C,false,Rx,1,8,42,60,00,00,64,00,00,00,
4355224117,00000207,false,Rx,1,8,00,00,C4,FF,F0,00,04,00,
4355224349,00000227,false,Rx,1,8,5A,37,27,7F,00,00,1F,C5,
4355224588,00000237,false,Rx,1,8,39,41,00,00,00,00,00,00,
4355224830,00000247,false,Rx,1,8,44,7D,08,3A,05,00,20,00,
4355225063,00000217,false,Rx,1,8,21,60,81,FD,9C,37,00,03,
4355225295,00000717,false,Rx,1,8,0F,00,EB,01,3A,11,00,00,
4355251367,0000045C,false,Rx,1,8,12,8C,15,0E,00,00,21,8C,
4355301396,00000368,false,Rx,1,8,03,49,29,11,00,0C,40,FF,
4355324081,00000207,false,Rx,1,8,00,00,04,00,F0,00,04,00,
4355324312,00000227,false,Rx,1,8,4B,37,32,7F,00,00,1F,C5,
4355324552,00000237,false,Rx,1,8,39,41,00,00,00,00,00,00,
4355324793,00000247,false,Rx,1,8,44,7D,08,3A,05,00,20,00,
4355325027,00000217,false,Rx,1,8,21,60,81,FD,9C,37,00,03,
4355325267,00000717,false,Rx,1,8,10,09,40,FF,03,80,FF,00,
4355409399,0000042C,false,Rx,1,8,42,60,00,00,64,00,00,00,
4355424069,00000207,false,Rx,1,8,00,00,04,00,F0,00,04,00,
4355424307,00000227,false,Rx,1,8,39,37,2B,7F,03,00,1F,C5,
4355424548,00000237,false,Rx,1,8,39,41,00,00,00,00,00,00,
4355424788,00000247,false,Rx,1,8,44,7D,08,3A,05,00,20,00,
4355425022,00000217,false,Rx,1,8,21,60,81,FD,9C,37,00,03,
4355425263,00000537,false,Rx,1,8,13,01,FE,00,00,FC,00,00,
4355425503,00000717,false,Rx,1,8,11,00,6B,04,2D,00,00,00,
4355451429,0000045C,false,Rx,1,8,10,8C,15,0E,00,00,06,8C,
4355501401,00000368,false,Rx,1,8,03,49,29,11,00,0C,40,FF,
4355523940,00000367,false,Rx,1,8,00,00,00,00,00,00,40,00,
4355524187,00000207,false,Rx,1,8,00,00,04,00,F0,00,04,00,
4355524420,00000227,false,Rx,1,8,27,37,34,7F,05,00,1F,C5,
4355524668,00000237,false,Rx,1,8,39,41,00,00,00,00,00,00,
4355524900,00000217,false,Rx,1,8,21,60,81,FD,9C,37,00,03,
4355525135,00000247,false,Rx,1,8,44,7D,08,3A,05,00,20,00,
4355525375,00000717,false,Rx,1,8,12,40,29,00,27,00,19,00,
4355533942,00000377,false,Rx,1,8,00,00,00,00,00,00,00,00,
4355543939,00000347,false,Rx,1,8,00,00,00,00,00,00,00,00,
4355551449,0000042C,false,Rx,1,8,42,60,00,00,64,00,00,00,
4355553936,00000357,false,Rx,1,8,00,00,00,00,00,00,02,00,
4355563939,00000327,false,Rx,1,8,00,00,00,00,00,00,00,00,
4355573935,00000337,false,Rx,1,8,00,00,00,00,00,00,00,00,
4355624006,00000207,false,Rx,1,8,00,00,04,00,F0,00,04,00,
4355624246,00000227,false,Rx,1,8,1C,37,2D,7F,00,00,1F,C5,
4355624486,00000237,false,Rx,1,8,39,41,00,00,00,00,00,00,
4355624726,00000247,false,Rx,1,8,44,7D,08,3A,05,00,20,00,
4355624960,00000217,false,Rx,1,8,21,60,81,FD,9C,37,00,03,
4355625208,00000717,false,Rx,1,8,13,00,00,00,01,00,00,00,
4355664247,0000045C,false,Rx,1,8,15,8C,15,0E,00,00,15,8C,
4355701262,00000368,false,Rx,1,8,03,49,29,11,00,0C,40,FF,
4355724008,00000207,false,Rx,1,8,00,00,C4,FF,F0,00,04,00,
4355724247,00000227,false,Rx,1,8,02,37,2B,7F,00,00,1F,C5,
4355724487,00000237,false,Rx,1,8,39,41,00,00,00,00,00,00,
4355724728,00000247,false,Rx,1,8,44,7D,08,3A,05,00,20,00,
4355724961,00000217,false,Rx,1,8,21,60,81,FD,9C,37,00,03,
4355725201,00000717,false,Rx,1,8,14,00,00,01,DC,FF,00,00,
4355751463,0000042C,false,Rx,1,8,42,60,00,00,64,00,00,00,
4355801430,0000045C,false,Rx,1,8,11,8C,15,0E,00,00,13,8C,
4355823966,00000207,false,Rx,1,8,00,00,C4,FF,F0,00,04,00,
4355824197,00000227,false,Rx,1,8,F9,36,23,7F,08,00,1F,C5,
4355824437,00000237,false,Rx,1,8,39,41,00,00,00,00,00,00,
4355824678,00000247,false,Rx,1,8,44,7D,08,3A,05,00,20,00,
4355824911,00000217,false,Rx,1,8,21,60,81,FD,9C,37,00,03,
4355851441,00000368,false,Rx,1,8,03,49,29,11,00,0C,40,FF,
4355923943,00000207,false,Rx,1,8,00,00,C4,FF,F0,00,04,00,
4355924174,00000227,false,Rx,1,8,DE,36,2F,7F,00,00,1F,C5,
4355924415,00000237,false,Rx,1,8,39,41,00,00,00,00,00,00,
4355924655,00000247,false,Rx,1,8,44,7D,08,3A,05,00,20,00,
4355924887,00000217,false,Rx,1,8,21,60,81,FD,9C,37,00,03,
4355925129,00000717,false,Rx,1,8,16,00,00,00,00,00,5C,46,
4355931108,0000042C,false,Rx,1,8,42,60,00,00,64,00,00,00,
4355951314,0000045C,false,Rx,1,8,11,8C,15,0E,00,00,1E,8C,
4356001476,00000368,false,Rx,1,8,03,49,29,11,00,0C,40,FF,
4356023950,00000207,false,Rx,1,8,00,00,C4,FF,F0,00,04,00,
4356024181,00000227,false,Rx,1,8,D8,36,29,7F,03,00,1F,C5,
4356024430,00000237,false,Rx,1,8,39,41,00,00,00,00,00,00,
4356024662,00000247,false,Rx,1,8,44,7D,08,3A,05,00,20,00,
4356024894,00000217,false,Rx,1,8,21,60,81,FD,9C,37,00,03,
4356025144,00000717,false,Rx,1,8,17,00,00,60,04,00,00,00,
4356051467,0000042C,false,Rx,1,8,42,60,00,00,64,00,00,00,
4356101434,0000045C,false,Rx,1,8,12,8C,15,0E,00,00,1E,8C,
4356123913,00000207,false,Rx,1,8,00,00,04,00,F0,00,04,00,
4356124147,00000227,false,Rx,1,8,C0,36,27,7F,02,00,1F,C5,
4356124395,00000237,false,Rx,1,8,39,41,00,00,00,00,00,00,
4356124627,00000247,false,Rx,1,8,44,7D,08,3A,05,00,20,00,
4356124860,00000217,false,Rx,1,8,21,60,81,FD,9C,37,00,03,
4356125109,00000717,false,Rx,1,8,18,00,00,00,00,00,00,00,
4356180444,00000368,false,Rx,1,8,03,49,29,11,00,0C,40,FF,
4356201300,0000042C,false,Rx,1,8,42,60,00,00,64,00,00,00,
4356223910,00000207,false,Rx,1,8,00,00,04,00,F0,00,04,00,
4356224134,00000227,false,Rx,1,8,BC,36,2C,7F,00,00,1F,C5,
4356224382,00000237,false,Rx,1,8,39,41,00,00,00,00,00,00,
4356224622,00000247,false,Rx,1,8,44,7D,08,3A,05,00,20,00,
4356224855,00000217,false,Rx,1,8,21,60,81,FD,9C,37,00,03,
4356225096,00000717,false,Rx,1,8,19,00,00,00,00,00,00,00,
4356251523,0000045C,false,Rx,1,8,0F,8C,15,0E,00,00,13,8C,
4356301445,00000368,false,Rx,1,8,03,49,29,11,00,0C,40,FF,
4356323889,00000207,false,Rx,1,8,00,00,C4,FF,F0,00,04,00,
4356324122,00000227,false,Rx,1,8,A3,36,25,7F,00,00,1F,C5,
4356324362,00000237,false,Rx,1,8,39,41,00,00,00,00,00,00,
4356324603,00000247,false,Rx,1,8,44,7D,08,3A,05,00,20,00,
4356324835,00000217,false,Rx,1,8,21,60,81,FD,9C,37,00,03,
4356325077,00000537,false,Rx,1,8,14,05,00,00,00,00,00,00,
4356325325,00000717,false,Rx,1,8,01,00,00,00,00,00,00,00,
4356351522,0000042C,false,Rx,1,8,42,60,00,00,64,00,00,00,
4356423846,00000207,false,Rx,1,8,00,00,C4,FF,F0,00,04,00,
4356424080,00000227,false,Rx,1,8,8F,36,2E,7F,02,00,1F,C5,
4356424320,00000237,false,Rx,1,8,39,41,00,00,00,00,00,00,
4356424561,00000247,false,Rx,1,8,44,7D,08,3A,05,00,20,00,
4356424793,00000217,false,Rx,1,8,21,60,81,FD,9C,37,00,03,
4356425035,00000717,false,Rx,1,8,02,00,00,00,00,00,00,00,
4356444441,0000045C,false,Rx,1,8,0E,8C,15,0E,00,00,14,8C,
4356451325,00000368,false,Rx,1,8,03,49,29,11,00,0C,40,FF,
4356501527,0000042C,false,Rx,1,8,42,60,00,00,64,00,00,00,
4356523735,00000367,false,Rx,1,8,00,00,00,00,00,00,40,00,
4356523982,00000207,false,Rx,1,8,00,00,C4,FF,F0,00,04,00,
4356524216,00000227,false,Rx,1,8,85,36,27,7F,00,00,1F,C5,
4356524456,00000237,false,Rx,1,8,39,41,00,00,00,00,00,00,
4356524688,00000217,false,Rx,1,8,21,60,81,FD,9C,37,00,03,
4356524929,00000247,false,Rx,1,8,44,7D,08,3A,05,00,20,00,
4356533727,00000377,false,Rx,1,8,00,00,00,00,00,00,00,00,
4356543733,00000347,false,Rx,1,8,00,00,00,00,00,00,00,00,
4356551522,0000045C,false,Rx,1,8,10,8C,15,0E,00,00,13,8C,
4356553727,00000357,false,Rx,1,8,00,00,00,00,00,00,02,00,
4356563723,00000327,false,Rx,1,8,00,00,00,00,00,00,00,00,
4356573719,00000337,false,Rx,1,8,00,00,00,00,00,00,00,00,
4356601428,00000368,false,Rx,1,8,03,49,29,11,00,0C,40,FF,
4356623796,00000207,false,Rx,1,8,00,00,C4,FF,F0,00,04,00,
4356624037,00000227,false,Rx,1,8,71,36,26,7F,00,00,1F,C5,
4356624277,00000237,false,Rx,1,8,39,41,00,00,00,00,00,00,
4356624517,00000247,false,Rx,1,8,44,7D,08,3A,05,00,20,00,
4356624749,00000217,false,Rx,1,8,21,60,81,FD,9C,37,00,03,
4356624999,00000717,false,Rx,1,8,04,00,00,00,00,00,00,00,
4356707596,0000042C,false,Rx,1,8,42,60,00,00,64,00,00,00,
4356723805,00000207,false,Rx,1,8,00,00,C4,FF,F0,00,04,00,
4356724040,00000227,false,Rx,1,8,60,36,2C,7F,00,00,1F,C5,
4356724287,00000237,false,Rx,1,8,39,41,00,00,00,00,00,00,
4356724520,00000247,false,Rx,1,8,44,7D,08,3A,05,00,20,00,
4356724753,00000217,false,Rx,1,8,21,60,81,FD,9C,37,00,03,
4356725002,00000717,false,Rx,1,8,05,00,00,00,00,00,00,00,
4356751337,0000045C,false,Rx,1,8,0F,8C,15,0E,00,00,1E,8C,
4356801467,00000368,false,Rx,1,8,03,49,29,11,00,0C,40,FF,
4356823796,00000207,false,Rx,1,8,00,00,C4,FF,F0,00,04,00,
4356824029,00000227,false,Rx,1,8,4B,36,2F,7F,01,00,1F,C5,
4356824276,00000237,false,Rx,1,8,39,41,00,00,00,00,00,00,
4356824509,00000247,false,Rx,1,8,44,7D,08,3A,05,00,20,00,
4356824742,00000217,false,Rx,1,8,21,60,81,FD,9C,37,00,03,
4356824975,00000717,false,Rx,1,8,06,00,25,46,66,06,76,26,
4356851502,0000042C,false,Rx,1,8,42,60,00,00,64,00,00,00,
4356923743,00000207,false,Rx,1,8,00,00,04,00,F0,00,04,00,
4356923983,00000227,false,Rx,1,8,36,36,2C,7F,00,00,1F,C5,
4356924223,00000237,false,Rx,1,8,39,41,00,00,00,00,00,00,
4356924456,00000247,false,Rx,1,8,44,7D,08,3A,05,00,20,00,
4356924696,00000217,false,Rx,1,8,21,60,81,FD,9C,37,00,03,
4356924937,00000717,false,Rx,1,8,07,00,00,00,01,0A,00,00,
4356969817,0000045C,false,Rx,1,8,12,8C,15,0E,00,00,13,8C,
4357001554,00000368,false,Rx,1,8,03,49,29,11,00,0C,40,FF,
4357023740,00000207,false,Rx,1,8,00,00,04,00,F0,00,04,00,
4357023980,00000227,false,Rx,1,8,2D,36,30,7F,01,00,1F,C5,
4357024221,00000237,false,Rx,1,8,39,41,00,00,00,00,00,00,
4357024453,00000247,false,Rx,1,8,44,7D,08,3A,05,00,20,00,
4357024693,00000217,false,Rx,1,8,21,60,81,FD,9C,37,00,03,
4357024935,00000717,false,Rx,1,8,08,00,00,00,5A,46,00,00,
4357051537,0000042C,false,Rx,1,8,42,60,00,00,64,00,00,00,
4357101504,0000045C,false,Rx,1,8,11,8C,15,0E,00,00,1E,8C,
4357123697,00000207,false,Rx,1,8,00,00,04,00,F0,00,04,00,
4357123937,00000227,false,Rx,1,8,20,36,25,7F,04,00,1F,C5,
4357124178,00000237,false,Rx,1,8,39,41,00,00,00,00,00,00,
4357124418,00000247,false,Rx,1,8,44,7D,08,3A,05,00,20,00,
4357124650,00000217,false,Rx,1,8,21,60,81,FD,9C,37,00,03,
4357124891,00000717,false,Rx,1,8,09,00,33,46,00,00,00,00,
4357151589,00000368,false,Rx,1,8,03,49,29,11,00,0C,40,FF,
4357220160,0000042C,false,Rx,1,8,42,60,00,00,64,00,00,00,
4357223701,00000207,false,Rx,1,8,00,00,C4,FF,F0,00,04,00,
4357223935,00000227,false,Rx,1,8,04,36,22,7F,00,00,1F,C5,
4357224182,00000237,false,Rx,1,8,39,41,00,00,00,00,00,00,
4357224415,00000247,false,Rx,1,8,44,7D,08,3A,05,00,20,00,
4357224648,00000217,false,Rx,1,8,21,60,81,FD,9C,37,00,03,
4357224881,00000717,false,Rx,1,8,0A,00,E1,8B,7F,8D,00,00,
4357251451,0000045C,false,Rx,1,8,10,8C,15,0E,00,00,1E,8C,
4357301554,00000368,false,Rx,1,8,03,49,29,11,00,0C,40,FF,
4357323673,00000207,false,Rx,1,8,00,00,C4,FF,F0,00,04,00,
4357323912,00000227,false,Rx,1,8,F2,35,2C,7F,00,00,1F,C5,
4357324152,00000237,false,Rx,1,8,39,41,00,00,00,00,00,00,
4357324392,00000247,false,Rx,1,8,44,7D,08,3A,05,00,20,00,
4357324626,00000217,false,Rx,1,8,21,60,81,FD,9C,37,00,03,
4357324866,00000717,false,Rx,1,8,0B,00,00,00,00,00,00,00,
4357351522,0000042C,false,Rx,1,8,42,60,00,00,64,00,00,00,
4357401572,0000045C,false,Rx,1,8,14,8C,15,0E,00,00,11,8C,
4357423630,00000207,false,Rx,1,8,00,00,C4,FF,F0,00,04,00,
4357423869,00000227,false,Rx,1,8,DF,35,27,7F,04,00,1F,C5,
4357424110,00000237,false,Rx,1,8,39,41,00,00,00,00,00,00,
4357424343,00000247,false,Rx,1,8,44,7D,08,3A,05,00,20,00,
4357424576,00000217,false,Rx,1,8,21,60,81,FD,9C,37,00,03,
4357424823,00000717,false,Rx,1,8,0C,01,00,03,00,00,02,02,
4357489028,00000368,false,Rx,1,8,03,49,29,11,00,0C,40,FF,
4357501436,0000042C,false,Rx,1,8,42,60,00,00,64,00,00,00,
4357523546,00000367,false,Rx,1,8,00,00,00,00,00,00,40,00,
4357523793,00000207,false,Rx,1,8,00,00,C4,FF,F0,00,04,00,
4357524027,00000227,false,Rx,1,8,D0,35,23,7F,00,00,1F,C5,
4357524268,00000237,false,Rx,1,8,39,41,00,00,00,00,00,00,
4357524501,00000217,false,Rx,1,8,21,60,81,FD,9C,37,00,03,
4357524741,00000247,false,Rx,1,8,44,7D,08,3A,05,00,20,00,
4357524975,00000717,false,Rx,1,8,0E,10,20,37,CB,87,01,00,
4357533529,00000377,false,Rx,1,8,00,00,00,00,00,00,00,00,
4357543525,00000347,false,Rx,1,8,00,00,00,00,00,00,00,00,
4357551519,0000045C,false,Rx,1,8,12,8C,15,0E,00,00,F8,8B,
4357553527,00000357,false,Rx,1,8,00,00,00,00,00,00,02,00,
4357563524,00000327,false,Rx,1,8,00,00,00,00,00,00,00,00,
4357573515,00000337,false,Rx,1,8,00,00,00,00,00,00,00,00,
4357601528,00000368,false,Rx,1,8,03,49,29,11,00,0C,40,FF,
4357623595,00000207,false,Rx,1,8,00,00,C4,FF,F0,00,04,00,
4357623834,00000227,false,Rx,1,8,C2,35,23,7F,00,00,1F,C5,
4357624076,00000237,false,Rx,1,8,39,41,00,00,00,00,00,00,
4357624316,00000247,false,Rx,1,8,44,7D,08,3A,05,00,20,00,
4357624548,00000217,false,Rx,1,8,21,60,81,FD,9C,37,00,03,
4357624782,00000717,false,Rx,1,8,0F,00,EB,01,2E,11,00,00,
4357651549,0000042C,false,Rx,1,8,42,60,00,00,64,00,00,00,
4357723590,00000207,false,Rx,1,8,00,00,C4,FF,F0,00,04,00,
4357723822,00000227,false,Rx,1,8,AC,35,21,7F,07,00,1F,C5,
4357724063,00000237,false,Rx,1,8,39,41,00,00,00,00,00,00,
4357724303,00000247,false,Rx,1,8,44,7D,08,3A,05,00,20,00,
4357724535,00000217,false,Rx,1,8,21,60,81,FD,9C,37,00,03,
4357724776,00000717,false,Rx,1,8,10,0A,40,FF,03,80,FF,00,
4357748506,0000045C,false,Rx,1,8,0F,8C,15,0E,00,00,06,8C,
4357751445,00000368,false,Rx,1,8,03,49,29,11,00,0C,40,FF,
4357801539,0000042C,false,Rx,1,8,42,60,00,00,64,00,00,00,
4357823564,00000207,false,Rx,1,8,00,00,C4,FF,F0,00,04,00,
4357823797,00000227,false,Rx,1,8,9D,35,1D,7F,00,00,1F,C5,
4357824045,00000237,false,Rx,1,8,39,41,00,00,00,00,00,00,
4357824278,00000247,false,Rx,1,8,44,7D,08,3A,05,00,20,00,
4357824511,00000217,false,Rx,1,8,21,60,81,FD,9C,37,00,03,
4357824751,00000717,false,Rx,1,8,11,00,73,04,2D,00,00,00,
4357851549,0000045C,false,Rx,1,8,14,8C,15,0E,00,00,13,8C,
4357901582,00000368,false,Rx,1,8,03,49,29,11,00,0C,40,FF,
4357923537,00000207,false,Rx,1,8,00,00,04,00,F0,00,04,00,
4357923768,00000227,false,Rx,1,8,93,35,1E,7F,02,00,1F,C5,
4357924009,00000237,false,Rx,1,8,39,41,00,00,00,00,00,00,
4357924250,00000247,false,Rx,1,8,44,7D,08,3A,05,00,20,00,
4357924483,00000217,false,Rx,1,8,21,60,81,FD,9C,37,00,03,
4357924715,00000717,false,Rx,1,8,12,40,29,00,27,00,19,00,
4358003861,0000042C,false,Rx,1,8,42,60,00,00,64,00,00,00,
4358023539,00000207,false,Rx,1,8,00,00,C4,FF,F0,00,04,00,
4358023770,00000227,false,Rx,1,8,7A,35,1D,7F,01,00,1F,C5,
4358024011,00000237,false,Rx,1,8,39,41,00,00,00,00,00,00,
4358024244,00000247,false,Rx,1,8,44,7D,08,3A,05,00,20,00,
4358024484,00000217,false,Rx,1,8,21,60,81,FD,9C,37,00,03,
4358024724,00000717,false,Rx,1,8,13,00,00,00,01,00,00,00,
4358051591,0000045C,false,Rx,1,8,11,8C,15,0E,00,00,13,8C,
4358101578,00000368,false,Rx,1,8,03,49,29,11,00,0C,40,FF,
4358123509,00000207,false,Rx,1,8,00,00,C4,FF,F0,00,04,00,
4358123740,00000227,false,Rx,1,8,6B,35,22,7F,00,00,1F,C5,
4358123990,00000237,false,Rx,1,8,39,41,00,00,00,00,00,00,
4358124223,00000247,false,Rx,1,8,44,7D,08,3A,05,00,20,00,
4358124455,00000217,false,Rx,1,8,21,60,81,FD,9C,37,00,03,
4358124696,00000537,false,Rx,1,8,0A,01,0E,00,FC,00,3F,00,
4358124944,00000717,false,Rx,1,8,14,00,00,01,FD,FF,00,00,
4358151655,0000042C,false,Rx,1,8,42,60,00,00,64,00,00,00,
4358201630,0000045C,false,Rx,1,8,10,8C,15,0E,00,00,14,8C,
4358223476,00000207,false,Rx,1,8,00,00,04,00,F0,00,04,00,
4358223708,00000227,false,Rx,1,8,52,35,18,7F,00,00,1F,C5,
4358223950,00000237,false,Rx,1,8,39,41,00,00,00,00,00,00,
4358224182,00000247,false,Rx,1,8,44,7D,08,3A,05,00,20,00,
4358224422,00000217,false,Rx,1,8,21,60,81,FD,9C,37,00,03,
4358275649,00000368,false,Rx,1,8,03,49,29,11,00,0C,40,FF,
4358301441,0000042C,false,Rx,1,8,42,60,00,00,64,00,00,00,
4358323476,00000207,false,Rx,1,8,00,00,04,00,F0,00,04,00,
4358323708,00000227,false,Rx,1,8,47,35,1E,7F,01,00,1F,C5,
4358323957,00000237,false,Rx,1,8,39,41,00,00,00,00,00,00,
4358324190,00000247,false,Rx,1,8,44,7D,08,3A,05,00,20,00,
4358324423,00000217,false,Rx,1,8,21,60,81,FD,9C,37,00,03,
4358324671,00000717,false,Rx,1,8,16,00,00,00,00,00,5F,46,
4358351567,0000045C,false,Rx,1,8,0F,8C,15,0E,00,00,13,8C,
4358401587,00000368,false,Rx,1,8,03,49,29,11,00,0C,40,FF,
4358423433,00000207,false,Rx,1,8,00,00,C4,FF,F0,00,04,00,
4358423673,00000227,false,Rx,1,8,30,35,20,7F,00,00,1F,C5,
4358423913,00000237,false,Rx,1,8,39,41,00,00,00,00,00,00,
4358424147,00000247,false,Rx,1,8,44,7D,08,3A,05,00,20,00,
4358424380,00000217,false,Rx,1,8,21,60,81,FD,9C,37,00,03,
4358424635,00000717,false,Rx,1,8,17,00,00,60,04,00,00,00,
4358451614,0000042C,false,Rx,1,8,42,60,00,00,64,00,00,00,
4358523346,00000367,false,Rx,1,8,00,00,00,00,00,00,40,00,
4358523592,00000207,false,Rx,1,8,00,00,C4,FF,F0,00,04,00,
4358523825,00000227,false,Rx,1,8,26,35,1C,7F,01,00,1F,C5,
4358524067,00000237,false,Rx,1,8,39,41,00,00,00,00,00,00,
4358524307,00000217,false,Rx,1,8,21,60,81,FD,9C,37,00,03,
4358524539,00000247,false,Rx,1,8,44,7D,08,3A,05,00,20,00,
4358524786,00000717,false,Rx,1,8,18,00,00,00,00,00,00,00,
4358529713,0000045C,false,Rx,1,8,0C,8C,15,0E,00,00,06,8C,
4358533340,00000377,false,Rx,1,8,00,00,00,00,00,00,00,00,
4358543346,00000347,false,Rx,1,8,00,00,00,00,00,00,00,00,
4358551446,00000368,false,Rx,1,8,03,49,29,11,00,0C,40,FF,
4358553313,00000357,false,Rx,1,8,00,00,00,00,00,00,02,00,
4358563310,00000327,false,Rx,1,8,00,00,00,00,00,00,00,00,
4358573308,00000337,false,Rx,1,8,00,00,00,00,00,00,00,00,
4358601578,0000042C,false,Rx,1,8,42,60,00,00,64,00,00,00,
4358623411,00000207,false,Rx,1,8,00,00,04,00,F0,00,04,00,
4358623642,00000227,false,Rx,1,8,15,35,22,7F,00,00,1F,C5,
4358623891,00000237,false,Rx,1,8,39,41,00,00,00,00,00,00,
4358624124,00000247,false,Rx,1,8,44,7D,08,3A,05,00,20,00,
4358624357,00000217,false,Rx,1,8,21,60,81,FD,9C,37,00,03,
4358624604,00000717,false,Rx,1,8,19,00,00,00,00,00,00,00,
4358651652,0000045C,false,Rx,1,8,0D,8C,15,0E,00,00,13,8C,
4358701610,00000368,false,Rx,1,8,03,49,29,11,00,0C,40,FF,
4358723373,00000207,false,Rx,1,8,00,00,C4,FF,F0,00,04,00,
4358723604,00000227,false,Rx,1,8,09,35,22,7F,00,00,1F,C5,
4358723853,00000237,false,Rx,1,8,39,41,00,00,00,00,00,00,
4358724087,00000247,false,Rx,1,8,44,7D,08,3A,05,00,20,00,
4358724320,00000217,false,Rx,1,8,21,60,81,FD,9C,37,00,03,
4358724568,00000717,false,Rx,1,8,01,00,00,00,00,00,00,00,
4358784620,0000042C,false,Rx,1,8,42,60,00,00,64,00,00,00,
4358801479,0000045C,false,Rx,1,8,0F,8C,15,0E,00,00,14,8C,
4358823365,00000207,false,Rx,1,8,00,00,C4,FF,F0,00,04,00,
4358823605,00000227,false,Rx,1,8,F5,34,1D,7F,00,00,1F,C5,
4358823845,00000237,false,Rx,1,8,39,41,00,00,00,00,00,00,
4358824080,00000247,false,Rx,1,8,44,7D,08,3A,05,00,20,00,
4358824312,00000217,false,Rx,1,8,21,60,81,FD,9C,37,00,03,
4358824561,00000717,false,Rx,1,8,02,00,00,00,00,00,00,00,
4358851607,00000368,false,Rx,1,8,03,49,29,11,00,0C,40,FF,
4358901680,0000042C,false,Rx,1,8,42,60,00,00,64,00,00,00,
4358923330,00000207,false,Rx,1,8,00,00,04,00,F0,00,04,00,
4358923563,00000227,false,Rx,1,8,E3,34,1C,7F,01,00,1F,C5,
4358923810,00000237,false,Rx,1,8,39,41,00,00,00,00,00,00,
4358924044,00000247,false,Rx,1,8,44,7D,08,3A,05,00,20,00,
4358924277,00000217,false,Rx,1,8,21,60,81,FD,9C,37,00,03,
4358951629,0000045C,false,Rx,1,8,15,8C,15,0E,00,00,20,8C,
4359023313,00000207,false,Rx,1,8,00,00,C4,FF,F0,00,04,00,
4359023552,00000227,false,Rx,1,8,D8,34,1E,7F,07,00,1F,C5,
4359023799,00000237,false,Rx,1,8,39,41,00,00,00,00,00,00,
4359024034,00000247,false,Rx,1,8,44,7D,08,3A,05,00,20,00,
4359024266,00000217,false,Rx,1,8,21,60,81,FD,9C,37,00,03,
4359024513,00000537,false,Rx,1,8,0B,00,05,06,00,00,00,00,
4359024760,00000717,false,Rx,1,8,04,00,00,00,00,00,00,00,
4359047807,00000368,false,Rx,1,8,03,49,29,11,00,0C,40,FF,
4359051539,0000042C,false,Rx,1,8,42,60,00,00,64,00,00,00,
4359101650,0000045C,false,Rx,1,8,0F,8C,15,0E,00,00,08,8C,
4359123323,00000207,false,Rx,1,8,00,00,C4,FF,F0,00,04,00,
4359123554,00000227,false,Rx,1,8,C9,34,27,7F,00,00,1F,C5,
4359123801,00000237,false,Rx,1,8,39,41,00,00,00,00,00,00,
4359124036,00000247,false,Rx,1,8,44,7D,08,3A,05,00,20,00,
4359124269,00000217,false,Rx,1,8,21,60,81,FD,9C,37,00,03,
4359124516,00000717,false,Rx,1,8,05,00,00,00,00,00,00,00,
4359151693,00000368,false,Rx,1,8,03,49,29,11,00,0C,40,FF,
4359201635,0000042C,false,Rx,1,8,42,60,00,00,64,00,00,00,
4359223270,00000207,false,Rx,1,8,00,00,04,00,F0,00,04,00,
4359223501,00000227,false,Rx,1,8,B4,34,21,7F,01,00,1F,C5,
4359223750,00000237,false,Rx,1,8,39,41,00,00,00,00,00,00,
4359223983,00000247,false,Rx,1,8,44,7D,08,3A,05,00,20,00,
4359224215,00000217,false,Rx,1,8,21,60,81,FD,9C,37,00,03,
4359224455,00000717,false,Rx,1,8,06,00,48,46,66,06,9F,27,
4359309626,0000045C,false,Rx,1,8,12,8C,15,0E,00,00,21,8C,
4359323282,00000207,false,Rx,1,8,00,00,04,00,F0,00,04,00,
4359323513,00000227,false,Rx,1,8,B1,34,27,7F,02,00,1F,C5,
4359323762,00000237,false,Rx,1,8,39,41,00,00,00,00,00,00,
4359323995,00000247,false,Rx,1,8,44,7D,08,3A,05,00,20,00,
4359324228,00000217,false,Rx,1,8,21,60,81,FD,9C,37,00,03,
4359324469,00000717,false,Rx,1,8,07,00,00,00,01,0A,00,00,
4359351652,00000368,false,Rx,1,8,03,49,29,11,00,0C,40,FF,
4359401672,0000042C,false,Rx,1,8,42,60,00,00,64,00,00,00,
4359423224,00000207,false,Rx,1,8,00,00,04,00,F0,00,04,00,
4359423456,00000227,false,Rx,1,8,9D,34,2C,7F,05,00,1F,C5,
4359423704,00000237,false,Rx,1,8,39,41,00,00,00,00,00,00,
4359423937,00000247,false,Rx,1,8,44,7D,08,3A,05,00,20,00,
4359424170,00000217,false,Rx,1,8,21,60,81,FD,9C,37,00,03,
4359424410,00000717,false,Rx,1,8,08,00,00,00,4B,46,00,00,
4359451670,0000045C,false,Rx,1,8,12,8C,15,0E,00,00,0A,8C,
4359523118,00000367,false,Rx,1,8,00,00,00,00,00,00,40,00,
4359523365,00000207,false,Rx,1,8,00,00,C4,FF,F0,00,04,00,
4359523605,00000227,false,Rx,1,8,80,34,20,7F,00,00,1F,C5,
4359523845,00000237,false,Rx,1,8,39,41,00,00,00,00,00,00,
4359524080,00000217,false,Rx,1,8,21,60,81,FD,9C,37,00,03,
4359524320,00000247,false,Rx,1,8,44,7D,08,3A,05,00,20,00,
4359524553,00000717,false,Rx,1,8,09,00,59,46,00,00,00,00,
4359533113,00000377,false,Rx,1,8,00,00,00,00,00,00,00,00,
4359543131,00000347,false,Rx,1,8,00,00,00,00,00,00,00,00,
4359553128,00000357,false,Rx,1,8,00,00,00,00,00,00,02,00,
4359563133,00000327,false,Rx,1,8,00,00,00,00,00,00,00,00,
4359564874,00000368,false,Rx,1,8,03,49,29,11,00,0C,40,FF,
4359573122,00000337,false,Rx,1,8,00,00,00,00,00,00,00,00,
4359601483,0000042C,false,Rx,1,8,42,60,00,00,64,00,00,00,
4359623225,00000207,false,Rx,1,8,00,00,04,00,F0,00,04,00,
4359623456,00000227,false,Rx,1,8,70,34,1B,7F,00,00,1F,C5,
4359623704,00000237,false,Rx,1,8,39,41,00,00,00,00,00,00,
4359623938,00000247,false,Rx,1,8,44,7D,08,3A,05,00,20,00,
4359624171,00000217,false,Rx,1,8,21,60,81,FD,9C,37,00,03,
4359624411,00000717,false,Rx,1,8,0A,00,E1,8B,7F,8D,00,00,
4359651715,0000045C,false,Rx,1,8,11,8C,15,0E,00,00,08,8C,
4359701680,00000368,false,Rx,1,8,03,49,29,11,00,0C,40,FF,
4359723179,00000207,false,Rx,1,8,00,00,04,00,F0,00,04,00,
4359723418,00000227,false,Rx,1,8,62,34,1D,7F,01,00,1F,C5,
4359723658,00000237,false,Rx,1,8,39,41,00,00,00,00,00,00,
4359723899,00000247,false,Rx,1,8,44,7D,08,3A,05,00,20,00,
4359724132,00000217,false,Rx,1,8,21,60,81,FD,9C,37,00,03,
4359724380,00000717,false,Rx,1,8,0B,00,00,00,00,00,00,00,
4359751663,0000042C,false,Rx,1,8,42,60,00,00,64,00,00,00,
4359823152,00000207,false,Rx,1,8,00,00,C4,FF,F0,00,04,00,
4359823383,00000227,false,Rx,1,8,4C,34,28,7F,01,00,1F,C5,
4359823632,00000237,false,Rx,1,8,39,41,00,00,00,00,00,00,
4359823864,00000247,false,Rx,1,8,44,7D,08,3A,05,00,20,00,
4359824098,00000217,false,Rx,1,8,21,60,81,FD,9C,37,00,03,
4359824339,00000717,false,Rx,1,8,0C,01,00,03,00,00,02,02,
4359828497,0000045C,false,Rx,1,8,10,8C,15,0E,00,00,16,8C,
4359851537,00000368,false,Rx,1,8,03,49,29,11,00,0C,40,FF,
4359901705,0000042C,false,Rx,1,8,42,60,00,00,64,00,00,00,
4359923143,00000207,false,Rx,1,8,00,00,C4,FF,F0,00,04,00,
4359923383,00000227,false,Rx,1,8,3D,34,19,7F,00,00,1F,C5,
4359923623,00000237,false,Rx,1,8,39,41,00,00,00,00,00,00,
4359923863,00000247,false,Rx,1,8,44,7D,08,3A,05,00,20,00,
4359924097,00000217,false,Rx,1,8,21,60,81,FD,9C,37,00,03,
4359924338,00000537,false,Rx,1,8,0D,00,00,00,7D,F1,02,85,
4359924570,00000717,false,Rx,1,8,0E,10,20,37,2B,91,01,00,
4359951657,0000045C,false,Rx,1,8,10,8C,15,0E,00,00,21,8C,
4360001788,00000368,false,Rx,1,8,03,49,29,11,00,0C,40,FF,
4360023121,00000207,false,Rx,1,8,00,00,04,00,F0,00,04,00,
4360023361,00000227,false,Rx,1,8,34,34,1E,7F,00,00,1F,C5,
4360023608,00000237,false,Rx,1,8,39,41,00,00,00,00,00,00,
4360023840,00000247,false,Rx,1,8,44,7D,08,3A,05,00,20,00,
4360024075,00000217,false,Rx,1,8,21,60,81,FD,9C,37,00,03,
4360024307,00000717,false,Rx,1,8,0F,00,EB,01,5D,0E,00,00,
4360080247,0000042C,false,Rx,1,8,42,60,00,00,64,00,00,00,
4360101550,0000045C,false,Rx,1,8,0E,8C,15,0E,00,00,0B,8C,
4360123110,00000207,false,Rx,1,8,00,00,C4,FF,F0,00,04,00,
4360123349,00000227,false,Rx,1,8,21,34,1E,7F,05,00,1F,C5,
4360123588,00000237,false,Rx,1,8,39,41,00,00,00,00,00,00,
4360123830,00000247,false,Rx,1,8,44,7D,08,3A,05,00,20,00,
4360124063,00000217,false,Rx,1,8,21,60,81,FD,9C,37,00,03,
4360124303,00000717,false,Rx,1,8,10,09,40,FF,03,80,FF,00,
4360151803,00000368,false,Rx,1,8,03,49,29,11,00,0C,40,FF,
4360201713,0000042C,false,Rx,1,8,42,60,00,00,64,00,00,00,
4360223049,00000207,false,Rx,1,8,00,00,C4,FF,F0,00,04,00,
4360223288,00000227,false,Rx,1,8,0D,34,20,7F,00,00,1F,C5,
4360223535,00000237,false,Rx,1,8,39,41,00,00,00,00,00,00,
4360223769,00000247,false,Rx,1,8,44,7D,08,3A,05,00,20,00,
4360224002,00000217,false,Rx,1,8,21,60,81,FD,9C,37,00,03,
4360224242,00000717,false,Rx,1,8,11,00,71,04,2D,00,00,00,
4360251743,0000045C,false,Rx,1,8,0D,8C,15,0E,00,00,14,8C,
4360323066,00000207,false,Rx,1,8,00,00,04,00,F0,00,04,00,
4360323297,00000227,false,Rx,1,8,F3,33,16,7F,01,00,1F,C5,
4360323538,00000237,false,Rx,1,8,39,41,00,00,00,00,00,00,
4360323778,00000247,false,Rx,1,8,44,7D,08,3A,05,00,20,00,
4360324013,00000217,false,Rx,1,8,21,60,81,FD,9C,37,00,03,
4360324246,00000717,false,Rx,1,8,12,40,29,00,27,00,19,00,
4360344498,00000368,false,Rx,1,8,03,49,29,11,00,0C,40,FF,
4360351562,0000042C,false,Rx,1,8,42,60,00,00,64,00,00,00,
4360401715,0000045C,false,Rx,1,8,0E,8C,15,0E,00,00,23,8C,
4360423056,00000207,false,Rx,1,8,00,00,04,00,F0,00,04,00,
4360423287,00000227,false,Rx,1,8,F0,33,22,7F,03,00,1F,C5,
4360423535,00000237,false,Rx,1,8,39,41,00,00,00,00,00,00,
4360423768,00000247,false,Rx,1,8,44,7D,08,3A,05,00,20,00,
4360424002,00000217,false,Rx,1,8,21,60,81,FD,9C,37,00,03,
4360424251,00000717,false,Rx,1,8,13,00,00,00,01,00,00,00,
4360451728,00000368,false,Rx,1,8,03,49,29,11,00,0C,40,FF,
4360501751,0000042C,false,Rx,1,8,42,60,00,00,64,00,00,00,
4360522901,00000367,false,Rx,1,8,00,00,00,00,00,00,40,00,
4360523149,00000207,false,Rx,1,8,00,00,C4,FF,F0,00,04,00,
4360523390,00000227,false,Rx,1,8,DC,33,16,7F,04,00,1F,C5,
4360523629,00000237,false,Rx,1,8,39,41,00,00,00,00,00,00,
4360523862,00000217,false,Rx,1,8,21,60,81,FD,9C,37,00,03,
4360524104,00000247,false,Rx,1,8,44,7D,08,3A,05,00,20,00,
4360524351,00000717,false,Rx,1,8,14,00,00,01,FC,FF,00,00,
4360532903,00000377,false,Rx,1,8,00,00,00,00,00,00,00,00,
4360542900,00000347,false,Rx,1,8,00,00,00,00,00,00,00,00,
4360552891,00000357,false,Rx,1,8,00,00,00,00,00,00,02,00,
4360562903,00000327,false,Rx,1,8,00,00,00,00,00,00,00,00,
4360572908,00000337,false,Rx,1,8,00,00,00,00,00,00,00,00,
4360608320,0000045C,false,Rx,1,8,0E,8C,15,0E,00,00,08,8C,
4360623006,00000207,false,Rx,1,8,00,00,04,00,F0,00,04,00,
4360623238,00000227,false,Rx,1,8,CE,33,17,7F,01,00,1F,C5,
4360623477,00000237,false,Rx,1,8,39,41,00,00,00,00,00,00,
4360623717,00000247,false,Rx,1,8,44,7D,08,3A,05,00,20,00,
4360623952,00000217,false,Rx,1,8,21,60,81,FD,9C,37,00,03,
4360651629,00000368,false,Rx,1,8,03,49,29,11,00,0C,40,FF,
4360701737,0000042C,false,Rx,1,8,42,60,00,00,64,00,00,00,
4360722959,00000207,false,Rx,1,8,00,00,C4,FF,F0,00,04,00,
4360723197,00000227,false,Rx,1,8,C0,33,23,7F,00,00,1F,C5,
4360723437,00000237,false,Rx,1,8,39,41,00,00,00,00,00,00,
4360723678,00000247,false,Rx,1,8,44,7D,08,3A,05,00,20,00,
4360723911,00000217,false,Rx,1,8,21,60,81,FD,9C,37,00,03,
4360724152,00000717,false,Rx,1,8,16,00,00,00,00,00,4A,46,
4360751798,0000045C,false,Rx,1,8,0E,8C,15,0E,00,00,06,8C,
4360822935,00000207,false,Rx,1,8,00,00,C4,FF,F0,00,04,00,
4360823174,00000227,false,Rx,1,8,AA,33,1C,7F,00,00,1F,C5,
4360823414,00000237,false,Rx,1,8,39,41,00,00,00,00,00,00,
4360823655,00000247,false,Rx,1,8,44,7D,08,3A,05,00,20,00,
4360823887,00000217,false,Rx,1,8,21,60,81,FD,9C,37,00,03,
4360824137,00000537,false,Rx,1,8,0E,00,00,00,00,00,00,00,
4360824378,00000717,false,Rx,1,8,17,00,00,60,04,00,00,00,
4360869082,00000368,false,Rx,1,8,03,49,29,11,00,0C,40,FF,
4360901797,0000042C,false,Rx,1,8,42,60,00,00,64,00,00,00,
4360922940,00000207,false,Rx,1,8,00,00,C4,FF,F0,00,04,00,
4360923179,00000227,false,Rx,1,8,A1,33,26,7F,03,00,1F,C5,
4360923420,00000237,false,Rx,1,8,39,41,00,00,00,00,00,00,
4360923652,00000247,false,Rx,1,8,44,7D,08,3A,05,00,20,00,
4360923892,00000217,false,Rx,1,8,21,60,81,FD,9C,37,00,03,
4360924134,00000717,false,Rx,1,8,18,00,00,00,00,00,00,00,
4360951758,0000045C,false,Rx,1,8,12,8C,15,0E,00,00,16,8C,
4361001752,00000368,false,Rx,1,8,03,49,29,11,00,0C,40,FF,
4361022911,00000207,false,Rx,1,8,00,00,04,00,F0,00,04,00,
4361023145,00000227,false,Rx,1,8,93,33,17,7F,00,00,1F,C5,
4361023385,00000237,false,Rx,1,8,39,41,00,00,00,00,00,00,
4361023624,00000247,false,Rx,1,8,44,7D,08,3A,05,00,20,00,
4361023857,00000217,false,Rx,1,8,21,60,81,FD,9C,37,00,03,
4361024106,00000717,false,Rx,1,8,19,00,00,00,00,00,00,00,
4361051750,0000042C,false,Rx,1,8,42,60,00,00,64,00,00,00,
4361119820,0000045C,false,Rx,1,8,11,8C,15,0E,00,00,06,8C,
4361122911,00000207,false,Rx,1,8,00,00,C4,FF,F0,00,04,00,
4361123145,00000227,false,Rx,1,8,7A,33,1E,7F,00,00,1F,C5,
4361123385,00000237,false,Rx,1,8,39,41,00,00,00,00,00,00,
4361123625,00000247,false,Rx,1,8,44,7D,08,3A,05,00,20,00,
4361123858,00000217,false,Rx,1,8,21,60,81,FD,9C,37,00,03,
4361124107,00000717,false,Rx,1,8,01,00,00,00,00,00,00,00,
4361151689,00000368,false,Rx,1,8,03,49,29,11,00,0C,40,FF,
4361201793,0000042C,false,Rx,1,8,42,60,00,00,64,00,00,00,
4361222869,00000207,false,Rx,1,8,00,00,C4,FF,F0,00,04,00,
4361223102,00000227,false,Rx,1,8,63,33,1E,7F,02,00,1F,C5,
4361223349,00000237,false,Rx,1,8,39,41,00,00,00,00,00,00,
4361223583,00000247,false,Rx,1,8,44,7D,08,3A,05,00,20,00,
4361223815,00000217,false,Rx,1,8,21,60,81,FD,9C,37,00,03,
4361224065,00000717,false,Rx,1,8,02,00,00,00,00,00,00,00,
4361251752,0000045C,false,Rx,1,8,12,8C,15,0E,00,00,16,8C,
4361301743,00000368,false,Rx,1,8,03,49,29,11,00,0C,40,FF,
4361322827,00000207,false,Rx,1,8,00,00,C4,FF,F0,00,04,00,
4361323059,00000227,false,Rx,1,8,5C,33,28,7F,05,00,1F,C5,
4361323306,00000237,false,Rx,1,8,39,41,00,00,00,00,00,00,
4361323540,00000247,false,Rx,1,8,44,7D,08,3A,05,00,20,00,
4361323772,00000217,false,Rx,1,8,21,60,81,FD,9C,37,00,03,
4361388458,0000042C,false,Rx,1,8,42,60,00,00,64,00,00,00,
4361401614,0000045C,false,Rx,1,8,13,8C,15,0E,00,00,21,8C,
4361422849,00000207,false,Rx,1,8,00,00,C4,FF,F0,00,04,00,
4361423081,00000227,false,Rx,1,8,4B,33,19,7F,02,00,1F,C5,
4361423322,00000237,false,Rx,1,8,39,41,00,00,00,00,00,00,
4361423562,00000247,false,Rx,1,8,44,7D,08,3A,05,00,20,00,
4361423794,00000217,false,Rx,1,8,21,60,81,FD,9C,37,00,03,
4361424044,00000717,false,Rx,1,8,04,00,00,00,00,00,00,00,
4361451771,00000368,false,Rx,1,8,03,49,29,11,00,0C,40,FF,
4361501796,0000042C,false,Rx,1,8,42,60,00,00,64,00,00,00,
4361522706,00000367,false,Rx,1,8,00,00,00,00,00,00,40,00,
4361522953,00000207,false,Rx,1,8,00,00,C4,FF,F0,00,04,00,
4361523187,00000227,false,Rx,1,8,39,33,20,7F,03,00,1F,C5,
4361523434,00000237,false,Rx,1,8,39,41,00,00,00,00,00,00,
4361523667,00000217,false,Rx,1,8,21,60,81,FD,9C,37,00,03,
4361523900,00000247,false,Rx,1,8,44,7D,08,3A,05,00,20,00,
4361524149,00000717,false,Rx,1,8,05,00,00,00,00,00,00,00,
4361532702,00000377,false,Rx,1,8,00,00,00,00,00,00,00,00,
4361542700,00000347,false,Rx,1,8,00,00,00,00,00,00,00,00,
4361551736,0000045C,false,Rx,1,8,10,8C,15,0E,00,00,0A,8C,
4361552695,00000357,false,Rx,1,8,00,00,00,00,00,00,02,00,
4361562698,00000327,false,Rx,1,8,00,00,00,00,00,00,00,00,
4361572695,00000337,false,Rx,1,8,00,00,00,00,00,00,00,00,
4361622805,00000207,false,Rx,1,8,00,00,C4,FF,F0,00,04,00,
4361623039,00000227,false,Rx,1,8,26,33,1A,7F,03,00,1F,C5,
4361623279,00000237,false,Rx,1,8,39,41,00,00,00,00,00,00,
4361623519,00000247,false,Rx,1,8,44,7D,08,3A,05,00,20,00,
4361623752,00000217,false,Rx,1,8,21,60,81,FD,9C,37,00,03,
4361623978,00000717,false,Rx,1,8,06,00,5C,46,66,06,D4,28,
4361650541,00000368,false,Rx,1,8,03,49,29,11,00,0C,40,FF,
4361652356,0000042C,false,Rx,1,8,42,60,00,00,64,00,00,00,
4361701803,0000045C,false,Rx,1,8,14,8C,15,0E,00,00,0A,8C,
4361722774,00000207,false,Rx,1,8,00,00,C4,FF,F0,00,04,00,
4361723014,00000227,false,Rx,1,8,16,33,1E,7F,00,00,1F,C5,
4361723253,00000237,false,Rx,1,8,39,41,00,00,00,00,00,00,
4361723493,00000247,false,Rx,1,8,44,7D,08,3A,05,00,20,00,
4361723727,00000217,false,Rx,1,8,21,60,81,FD,9C,37,00,03,
4361723960,00000537,false,Rx,1,8,0F,00,00,00,8C,A1,70,0A,
4361724200,00000717,false,Rx,1,8,07,00,00,00,01,0A,00,00,
4361751788,00000368,false,Rx,1,8,03,49,29,11,00,0C,40,FF,
4361801793,0000042C,false,Rx,1,8,42,60,00,00,64,00,00,00,
4361822720,00000207,false,Rx,1,8,00,00,C4,FF,F0,00,04,00,
4361822960,00000227,false,Rx,1,8,0D,33,18,7F,00,00,1F,C5,
4361823200,00000237,false,Rx,1,8,39,41,00,00,00,00,00,00,
4361823434,00000247,false,Rx,1,8,44,7D,08,3A,05,00,20,00,
4361823674,00000217,false,Rx,1,8,21,60,81,FD,9C,37,00,03,
4361823913,00000717,false,Rx,1,8,08,00,00,00,0A,46,00,00,
4361903290,0000045C,false,Rx,1,8,14,8C,15,0E,00,00,0A,8C,
4361922733,00000207,false,Rx,1,8,00,00,C4,FF,F0,00,04,00,
4361922965,00000227,false,Rx,1,8,F8,32,1B,7F,00,00,1F,C5,
4361923212,00000237,false,Rx,1,8,39,41,00,00,00,00,00,00,
4361923446,00000247,false,Rx,1,8,44,7D,08,3A,05,00,20,00,
4361923678,00000217,false,Rx,1,8,21,60,81,FD,9C,37,00,03,
4361923918,00000717,false,Rx,1,8,09,00,5C,46,00,00,00,00,
4361951827,00000368,false,Rx,1,8,03,49,29,11,00,0C,40,FF,
4362001806,0000042C,false,Rx,1,8,42,60,00,00,64,00,00,00,
4362022685,00000207,false,Rx,1,8,00,00,C4,FF,F0,00,04,00,
4362022916,00000227,false,Rx,1,8,E2,32,22,7F,01,00,1F,C5,
4362023166,00000237,false,Rx,1,8,39,41,00,00,00,00,00,00,
4362023398,00000247,false,Rx,1,8,44,7D,08,3A,05,00,20,00,
4362023631,00000217,false,Rx,1,8,21,60,81,FD,9C,37,00,03,
4362023864,00000717,false,Rx,1,8,0A,00,E1,8B,7F,8D,00,00,
4362051804,0000045C,false,Rx,1,8,13,8C,15,0E,00,00,16,8C,
4362101838,00000368,false,Rx,1,8,03,49,29,11,00,0C,40,FF,
4362122685,00000207,false,Rx,1,8,00,00,04,00,F0,00,04,00,
4362122917,00000227,false,Rx,1,8,D0,32,13,7F,02,00,1F,C5,
4362123166,00000237,false,Rx,1,8,39,41,00,00,00,00,00,00,
4362123399,00000247,false,Rx,1,8,44,7D,08,3A,05,00,20,00,
4362123631,00000217,false,Rx,1,8,21,60,81,FD,9C,37,00,03,
4362123880,00000717,false,Rx,1,8,0B,00,00,00,00,00,00,00,
4362183610,0000042C,false,Rx,1,8,42,60,00,00,64,00,00,00,
4362201708,0000045C,false,Rx,1,8,14,8C,15,0E,00,00,0A,8C,
4362222662,00000207,false,Rx,1,8,00,00,C4,FF,F0,00,04,00,
4362222902,00000227,false,Rx,1,8,C7,32,15,7F,00,00,1F,C5,
4362223144,00000237,false,Rx,1,8,39,41,00,00,00,00,00,00,
4362223377,00000247,false,Rx,1,8,44,7D,08,3A,05,00,20,00,
4362223610,00000217,false,Rx,1,8,21,60,81,FD,9C,37,00,03,
4362223858,00000717,false,Rx,1,8,0C,01,00,03,00,00,02,02,
4362251833,00000368,false,Rx,1,8,03,49,29,11,00,0C,40,FF,
4362301839,0000042C,false,Rx,1,8,42,60,00,00,64,00,00,00,
4362322636,00000207,false,Rx,1,8,00,00,04,00,F0,00,04,00,
4362322867,00000227,false,Rx,1,8,BF,32,1F,7F,00,00,1F,C5,
4362323115,00000237,false,Rx,1,8,39,41,00,00,00,00,00,00,
4362323349,00000247,false,Rx,1,8,44,7D,08,3A,05,00,20,00,
4362323581,00000217,false,Rx,1,8,21,60,81,FD,9C,37,00,03,
4362323813,00000717,false,Rx,1,8,0E,10,20,37,8B,9A,01,00,
4362351844,0000045C,false,Rx,1,8,13,8C,15,0E,00,00,18,8C,
4362422622,00000207,false,Rx,1,8,00,00,C4,FF,F0,00,04,00,
4362422853,00000227,false,Rx,1,8,AC,32,1F,7F,02,00,1F,C5,
4362423102,00000237,false,Rx,1,8,39,41,00,00,00,00,00,00,
4362423335,00000247,false,Rx,1,8,44,7D,08,3A,05,00,20,00,
4362423568,00000217,false,Rx,1,8,21,60,81,FD,9C,37,00,03,
4362423807,00000717,false,Rx,1,8,0F,00,EB,01,40,11,00,00,
4362430672,00000368,false,Rx,1,8,03,49,29,11,00,0C,40,FF,
4362451708,0000042C,false,Rx,1,8,42,60,00,00,64,00,00,00,
4362501810,0000045C,false,Rx,1,8,14,8C,15,0E,00,00,21,8C,
4362522492,00000367,false,Rx,1,8,00,00,00,00,00,00,40,00,
4362522738,00000207,false,Rx,1,8,00,00,C4,FF,F0,00,04,00,
4362522972,00000227,false,Rx,1,8,91,32,13,7F,02,00,1F,C5,
4362523213,00000237,false,Rx,1,8,39,41,00,00,00,00,00,00,
4362523446,00000217,false,Rx,1,8,21,60,81,FD,9C,37,00,03,
4362523686,00000247,false,Rx,1,8,44,7D,08,3A,05,00,20,00,
4362523919,00000717,false,Rx,1,8,10,0A,40,FF,03,80,FF,00,
4362532487,00000377,false,Rx,1,8,00,00,00,00,00,00,00,00,
4362542491,00000347,false,Rx,1,8,00,00,00,00,00,00,00,00,
4362551838,00000368,false,Rx,1,8,03,49,29,11,00,0C,40,FF,
4362552490,00000357,false,Rx,1,8,00,00,00,00,00,00,02,00,
4362562491,00000327,false,Rx,1,8,00,00,00,00,00,00,00,00,
4362572480,00000337,false,Rx,1,8,00,00,00,00,00,00,00,00,
4362601868,0000042C,false,Rx,1,8,42,60,00,00,64,00,00,00,
4362622574,00000207,false,Rx,1,8,00,00,04,00,F0,00,04,00,
4362622805,00000227,false,Rx,1,8,8F,32,11,7F,01,00,1F,C5,
4362623047,00000237,false,Rx,1,8,39,41,00,00,00,00,00,00,
4362623287,00000247,false,Rx,1,8,44,7D,08,3A,05,00,20,00,
4362623520,00000217,false,Rx,1,8,21,60,81,FD,9C,37,00,03,
4362623761,00000537,false,Rx,1,8,10,00,00,0A,00,00,00,00,
4362624002,00000717,false,Rx,1,8,11,00,80,04,2D,00,00,00,
4362684030,0000045C,false,Rx,1,8,15,8C,15,0E,00,00,14,8C,
4362701795,00000368,false,Rx,1,8,03,49,29,11,00,0C,40,FF,
4362722584,00000207,false,Rx,1,8,00,00,04,00,F0,00,04,00,
4362722817,00000227,false,Rx,1,8,78,32,1F,7F,07,00,1F,C5,
4362723065,00000237,false,Rx,1,8,39,41,00,00,00,00,00,00,
4362723298,00000247,false,Rx,1,8,44,7D,08,3A,05,00,20,00,
4362723531,00000217,false,Rx,1,8,21,60,81,FD,9C,37,00,03,
4362723771,00000717,false,Rx,1,8,12,40,29,00,27,00,19,00,
4362751846,0000042C,false,Rx,1,8,42,60,00,00,64,00,00,00,
4362801867,0000045C,false,Rx,1,8,13,8C,15,0E,00,00,11,8C,
4362822521,00000207,false,Rx,1,8,00,00,C4,FF,F0,00,04,00,
4362822753,00000227,false,Rx,1,8,67,32,1B,7F,05,00,1F,C5,
4362822994,00000237,false,Rx,1,8,39,41,00,00,00,00,00,00,
4362823234,00000247,false,Rx,1,8,44,7D,08,3A,05,00,20,00,
4362823468,00000217,false,Rx,1,8,21,60,81,FD,9C,37,00,03,
4362823715,00000717,false,Rx,1,8,13,00,00,00,01,00,00,00,
4362851879,00000368,false,Rx,1,8,03,49,29,11,00,0C,40,FF,
4362922512,00000207,false,Rx,1,8,00,00,C4,FF,F0,00,04,00,
4362922743,00000227,false,Rx,1,8,54,32,24,7F,01,00,1F,C5,
4362922992,00000237,false,Rx,1,8,39,41,00,00,00,00,00,00,
4362923225,00000247,false,Rx,1,8,44,7D,08,3A,05,00,20,00,
4362923458,00000217,false,Rx,1,8,21,60,81,FD,9C,37,00,03,
4362923705,00000717,false,Rx,1,8,14,00,00,01,DD,FF,00,00,
4362948403,0000042C,false,Rx,1,8,42,60,00,00,64,00,00,00,
4362951750,0000045C,false,Rx,1,8,12,8C,15,0E,00,00,06,8C,
4363001882,00000368,false,Rx,1,8,03,49,29,11,00,0C,40,FF,
4363022521,00000207,false,Rx,1,8,00,00,C4,FF,F0,00,04,00,
4363022752,00000227,false,Rx,1,8,46,32,1A,7F,00,00,1F,C5,
4363022995,00000237,false,Rx,1,8,39,41,00,00,00,00,00,00,
4363023235,00000247,false,Rx,1,8,44,7D,08,3A,05,00,20,00,
4363023467,00000217,false,Rx,1,8,21,60,81,FD,9C,37,00,03,
4363051908,0000042C,false,Rx,1,8,42,60,00,00,64,00,00,00,
4363101903,0000045C,false,Rx,1,8,12,8C,15,0E,00,00,16,8C,
4363122466,00000207,false,Rx,1,8,00,00,04,00,F0,00,04,00,
4363122698,00000227,false,Rx,1,8,3A,32,1E,7F,01,00,1F,C5,
4363122947,00000237,false,Rx,1,8,39,41,00,00,00,00,00,00,
4363123180,00000247,false,Rx,1,8,44,7D,08,3A,05,00,20,00,
4363123412,00000217,false,Rx,1,8,21,60,81,FD,9C,37,00,03,
4363123653,00000717,false,Rx,1,8,16,00,00,00,00,00,35,46,
4363210292,00000368,false,Rx,1,8,03,49,29,11,00,0C,40,FF,
4363222458,00000207,false,Rx,1,8,00,00,04,00,F0,00,04,00,
4363222698,00000227,false,Rx,1,8,2C,32,17,7F,07,00,1F,C5,
4363222939,00000237,false,Rx,1,8,39,41,00,00,00,00,00,00,
4363223178,00000247,false,Rx,1,8,44,7D,08,3A,05,00,20,00,
4363223411,00000217,false,Rx,1,8,21,60,81,FD,9C,37,00,03,
4363223659,00000717,false,Rx,1,8,17,00,00,60,04,00,00,00,
4363251891,0000042C,false,Rx,1,8,42,60,00,00,64,00,00,00,
4363301919,0000045C,false,Rx,1,8,14,8C,15,0E,00,00,21,8C,
4363322420,00000207,false,Rx,1,8,00,00,04,00,F0,00,04,00,
4363322653,00000227,false,Rx,1,8,21,32,18,7F,00,00,1F,C5,
4363322900,00000237,false,Rx,1,8,39,41,00,00,00,00,00,00,
4363323133,00000247,false,Rx,1,8,44,7D,08,3A,05,00,20,00,
4363323367,00000217,false,Rx,1,8,21,60,81,FD,9C,37,00,03,
4363323614,00000717,false,Rx,1,8,18,00,00,00,00,00,00,00,
4363351945,00000368,false,Rx,1,8,03,49,29,11,00,0C,40,FF,
4363422429,00000207,false,Rx,1,8,00,00,04,00,F0,00,04,00,
4363422660,00000227,false,Rx,1,8,12,32,1B,7F,00,00,1F,C5,
4363422907,00000237,false,Rx,1,8,39,41,00,00,00,00,00,00,
4363423142,00000247,false,Rx,1,8,44,7D,08,3A,05,00,20,00,
4363423375,00000217,false,Rx,1,8,21,60,81,FD,9C,37,00,03,
4363423622,00000717,false,Rx,1,8,19,00,00,00,00,00,00,00,
4363465277,0000042C,false,Rx,1,8,42,60,00,00,64,00,00,00,
4363501748,0000045C,false,Rx,1,8,14,8C,15,0E,00,00,08,8C,
4363522293,00000367,false,Rx,1,8,00,00,00,00,00,00,40,00,
4363522539,00000207,false,Rx,1,8,00,00,04,00,F0,00,04,00,
4363522772,00000227,false,Rx,1,8,F6,31,16,7F,00,00,1F,C5,
4363523022,00000237,false,Rx,1,8,39,41,00,00,00,00,00,00,
4363523254,00000217,false,Rx,1,8,21,60,81,FD,9C,37,00,03,
4363523486,00000247,false,Rx,1,8,44,7D,08,3A,05,00,20,00,
4363523735,00000537,false,Rx,1,8,11,00,00,00,00,00,00,00,
4363523983,00000717,false,Rx,1,8,01,00,00,00,00,00,00,00,
4363532290,00000377,false,Rx,1,8,00,00,00,00,00,00,00,00,
4363542288,00000347,false,Rx,1,8,00,00,00,00,00,00,00,00,
4363552285,00000357,false,Rx,1,8,00,00,00,00,00,00,02,00,
4363553551,00000368,false,Rx,1,8,03,49,29,11,00,0C,40,FF,
4363562280,00000327,false,Rx,1,8,00,00,00,00,00,00,00,00,
4363572276,00000337,false,Rx,1,8,00,00,00,00,00,00,00,00,
4363601911,0000042C,false,Rx,1,8,42,60,00,00,64,00,00,00,
4363622376,00000207,false,Rx,1,8,00,00,04,00,F0,00,04,00,
4363622607,00000227,false,Rx,1,8,E3,31,19,7F,04,00,1F,C5,
4363622856,00000237,false,Rx,1,8,39,41,00,00,00,00,00,00,
4363623089,00000247,false,Rx,1,8,44,7D,08,3A,05,00,20,00,
4363623322,00000217,false,Rx,1,8,21,60,81,FD,9C,37,00,03,
4363623570,00000717,false,Rx,1,8,02,00,00,00,00,00,00,00,
4363651873,0000045C,false,Rx,1,8,10,8C,15,0E,00,00,FC,8B,
4363722363,00000207,false,Rx,1,8,00,00,C4,FF,F0,00,04,00,
4363722594,00000227,false,Rx,1,8,DB,31,12,7F,01,00,1F,C5,
4363722835,00000237,false,Rx,1,8,39,41,00,00,00,00,00,00,
4363723077,00000247,false,Rx,1,8,44,7D,08,3A,05,00,20,00,
4363723310,00000217,false,Rx,1,8,21,60,81,FD,9C,37,00,03,
4363728862,00000368,false,Rx,1,8,03,49,29,11,00,0C,40,FF,
4363751772,0000042C,false,Rx,1,8,42,60,00,00,64,00,00,00,
4363801894,0000045C,false,Rx,1,8,10,8C,15,0E,00,00,FF,8B,
4363822328,00000207,false,Rx,1,8,00,00,04,00,F0,00,04,00,
4363822552,00000227,false,Rx,1,8,CC,31,18,7F,02,00,1F,C5,
4363822800,00000237,false,Rx,1,8,39,41,00,00,00,00,00,00,
4363823034,00000247,false,Rx,1,8,44,7D,08,3A,05,00,20,00,
4363823267,00000217,false,Rx,1,8,21,60,81,FD,9C,37,00,03,
4363823514,00000717,false,Rx,1,8,04,00,00,00,00,00,00,00,
4363851917,00000368,false,Rx,1,8,03,49,29,11,00,0C,40,FF,
4363901945,0000042C,false,Rx,1,8,42,60,00,00,64,00,00,00,
4363922302,00000207,false,Rx,1,8,00,00,04,00,F0,00,04,00,
4363922535,00000227,false,Rx,1,8,BA,31,21,7F,01,00,1F,C5,
4363922782,00000237,false,Rx,1,8,39,41,00,00,00,00,00,00,
4363923016,00000247,false,Rx,1,8,44,7D,08,3A,05,00,20,00,
4363923249,00000217,false,Rx,1,8,21,60,81,FD,9C,37,00,03,
4363923497,00000717,false,Rx,1,8,05,00,00,00,00,00,00,00,
4364002293,0000045C,false,Rx,1,8,1A,8C,15,0E,00,00,23,8C,
4364022295,00000207,false,Rx,1,8,00,00,04,00,F0,00,04,00,
4364022526,00000227,false,Rx,1,8,AB,31,1B,7F,01,00,1F,C5,
4364022773,00000237,false,Rx,1,8,39,41,00,00,00,00,00,00,
4364023008,00000247,false,Rx,1,8,44,7D,08,3A,05,00,20,00,
4364023240,00000217,false,Rx,1,8,21,60,81,FD,9C,37,00,03,
4364023473,00000717,false,Rx,1,8,06,00,34,46,66,06,0B,2A,
4364050748,00000368,false,Rx,1,8,03,49,29,11,00,0C,40,FF,
4364100965,0000042C,false,Rx,1,8,42,60,00,00,64,00,00,00,
4364122247,00000207,false,Rx,1,8,00,00,C4,FF,F0,00,04,00,
4364122479,00000227,false,Rx,1,8,9B,31,1A,7F,00,00,1F,C5,
4364122726,00000237,false,Rx,1,8,39,41,00,00,00,00,00,00,
4364122961,00000247,false,Rx,1,8,44,7D,08,3A,05,00,20,00,
4364123193,00000217,false,Rx,1,8,21,60,81,FD,9C,37,00,03,
4364123433,00000717,false,Rx,1,8,07,00,00,00,01,0A,00,00,
4364150980,0000045C,false,Rx,1,8,15,8C,15,0E,00,00,14,8C,
4364222257,00000207,false,Rx,1,8,00,00,C4,FF,F0,00,04,00,
4364222488,00000227,false,Rx,1,8,90,31,20,7F,00,00,1F,C5,
4364222737,00000237,false,Rx,1,8,39,41,00,00,00,00,00,00,
4364222970,00000247,false,Rx,1,8,44,7D,08,3A,05,00,20,00,
4364223202,00000217,false,Rx,1,8,21,60,81,FD,9C,37,00,03,
4364223443,00000717,false,Rx,1,8,08,00,00,00,46,46,00,00,
4364244045,00000368,false,Rx,1,8,03,49,29,11,00,0C,40,FF,
4364250800,0000042C,false,Rx,1,8,42,60,00,00,64,00,00,00,
4364300958,0000045C,false,Rx,1,8,13,8C,15,0E,00,00,06,8C,
4364322236,00000207,false,Rx,1,8,00,00,04,00,F0,00,04,00,
4364322469,00000227,false,Rx,1,8,7B,31,18,7F,03,00,1F,C5,
4364322709,00000237,false,Rx,1,8,39,41,00,00,00,00,00,00,
4364322950,00000247,false,Rx,1,8,44,7D,08,3A,05,00,20,00,
4364323182,00000217,false,Rx,1,8,21,60,81,FD,9C,37,00,03,
4364323423,00000717,false,Rx,1,8,09,00,31,46,00,00,00,00,
4364350922,00000368,false,Rx,1,8,03,49,29,11,00,0C,40,FF,
4364400988,0000042C,false,Rx,1,8,42,60,00,00,64,00,00,00,
4364422191,00000207,false,Rx,1,8,00,00,04,00,F0,00,04,00,
4364422431,00000227,false,Rx,1,8,6A,31,19,7F,02,00,1F,C5,
4364422671,00000237,false,Rx,1,8,39,41,00,00,00,00,00,00,
4364422911,00000247,false,Rx,1,8,44,7D,08,3A,05,00,20,00,
4364423145,00000217,false,Rx,1,8,21,60,81,FD,9C,37,00,03,
4364423378,00000537,false,Rx,1,8,12,03,E9,DA,DC,E1,B0,3F,
4364423610,00000717,false,Rx,1,8,0A,00,E1,8B,7F,8D,00,00,
4364500927,0000045C,false,Rx,1,8,18,8C,15,0E,00,00,1F,8C,
4364502329,00000368,false,Rx,1,8,03,49,29,11,00,0C,40,FF,
4364522083,00000367,false,Rx,1,8,00,00,00,00,00,00,40,00,
4364522337,00000207,false,Rx,1,8,00,00,04,00,F0,00,04,00,
4364522570,00000227,false,Rx,1,8,56,31,1B,7F,01,00,1F,C5,
4364522817,00000237,false,Rx,1,8,39,41,00,00,00,00,00,00,
4364523044,00000217,false,Rx,1,8,21,60,81,FD,9C,37,00,03,
4364523284,00000247,false,Rx,1,8,44,7D,08,3A,05,00,20,00,
4364523531,00000717,false,Rx,1,8,0B,00,00,00,00,00,00,00,
4364532081,00000377,false,Rx,1,8,00,00,00,00,00,00,00,00,
4364542085,00000347,false,Rx,1,8,00,00,00,00,00,00,00,00,
4364550941,0000042C,false,Rx,1,8,42,60,00,00,64,00,00,00,
4364552080,00000357,false,Rx,1,8,00,00,00,00,00,00,02,00,
4364562077,00000327,false,Rx,1,8,00,00,00,00,00,00,00,00,
4364572075,00000337,false,Rx,1,8,00,00,00,00,00,00,00,00,
4364600934,0000045C,false,Rx,1,8,16,8C,15,0E,00,00,14,8C,
4364622162,00000207,false,Rx,1,8,00,00,04,00,F0,00,04,00,
4364622393,00000227,false,Rx,1,8,4B,31,18,7F,01,00,1F,C5,
4364622633,00000237,false,Rx,1,8,39,41,00,00,00,00,00,00,
4364622874,00000247,false,Rx,1,8,44,7D,08,3A,05,00,20,00,
4364623108,00000217,false,Rx,1,8,21,60,81,FD,9C,37,00,03,
4364623347,00000717,false,Rx,1,8,0C,01,00,03,00,00,02,02,
4364651030,00000368,false,Rx,1,8,03,49,29,11,00,0C,40,FF,
4364722149,00000207,false,Rx,1,8,00,00,C4,FF,F0,00,04,00,
4364722380,00000227,false,Rx,1,8,45,31,1E,7F,00,00,1F,C5,
4364722621,00000237,false,Rx,1,8,39,41,00,00,00,00,00,00,
4364722861,00000247,false,Rx,1,8,44,7D,08,3A,05,00,20,00,
4364723094,00000217,false,Rx,1,8,21,60,81,FD,9C,37,00,03,
4364723327,00000717,false,Rx,1,8,0E,10,20,37,EB,A3,01,00,
4364762131,0000042C,false,Rx,1,8,42,60,00,00,64,00,00,00,
4364800822,0000045C,false,Rx,1,8,14,8C,15,0E,00,00,21,8C,
4364822123,00000207,false,Rx,1,8,00,00,C4,FF,F0,00,04,00,
4364822362,00000227,false,Rx,1,8,2C,31,20,7F,02,00,1F,C5,
4364822603,00000237,false,Rx,1,8,39,41,00,00,00,00,00,00,
4364822843,00000247,false,Rx,1,8,44,7D,08,3A,05,00,20,00,
4364823077,00000217,false,Rx,1,8,21,60,81,FD,9C,37,00,03,
4364823318,00000717,false,Rx,1,8,0F,00,EB,01,FA,10,00,00,
4364851014,00000368,false,Rx,1,8,03,49,29,11,00,0C,40,FF,
4364900980,0000042C,false,Rx,1,8,42,60,00,00,64,00,00,00,
4364922106,00000207,false,Rx,1,8,00,00,04,00,F0,00,04,00,
4364922339,00000227,false,Rx,1,8,22,31,14,7F,00,00,1F,C5,
4364922578,00000237,false,Rx,1,8,39,41,00,00,00,00,00,00,
4364922818,00000247,false,Rx,1,8,44,7D,08,3A,05,00,20,00,
4364923053,00000217,false,Rx,1,8,21,60,81,FD,9C,37,00,03,
4364923293,00000717,false,Rx,1,8,10,09,40,FF,03,80,FF,00,
4364950938,0000045C,false,Rx,1,8,18,8C,15,0E,00,00,08,8C,
4365022109,00000207,false,Rx,1,8,00,00,04,00,F0,00,04,00,
4365022340,00000227,false,Rx,1,8,0D,31,12,7F,00,00,1F,C5,
4365022587,00000237,false,Rx,1,8,39,41,00,00,00,00,00,00,
4365022820,00000247,false,Rx,1,8,44,7D,08,3A,05,00,20,00,
4365023055,00000217,false,Rx,1,8,21,60,81,FD,9C,37,00,03,
4365023294,00000717,false,Rx,1,8,11,00,82,04,2D,00,00,00,
4365036983,00000368,false,Rx,1,8,03,49,29,11,00,0C,40,FF,
4365050879,0000042C,false,Rx,1,8,42,60,00,00,64,00,00,00,
4365101021,0000045C,false,Rx,1,8,14,8C,15,0E,00,00,21,8C,
4365122044,00000207,false,Rx,1,8,00,00,C4,FF,F0,00,04,00,
4365122283,00000227,false,Rx,1,8,03,31,13,7F,01,00,1F,C5,
4365122523,00000237,false,Rx,1,8,39,41,00,00,00,00,00,00,
4365122764,00000247,false,Rx,1,8,44,7D,08,3A,05,00,20,00,
4365122997,00000217,false,Rx,1,8,21,60,81,FD,9C,37,00,03,
4365123230,00000717,false,Rx,1,8,12,40,29,00,27,00,1A,00,
4365151336,00000368,false,Rx,1,8,03,49,29,11,00,0C,40,FF,
4365201030,0000042C,false,Rx,1,8,42,60,00,00,64,00,00,00,
4365222046,00000207,false,Rx,1,8,00,00,04,00,F0,00,04,00,
4365222277,00000227,false,Rx,1,8,EF,30,14,7F,00,00,1F,C5,
4365222524,00000237,false,Rx,1,8,39,41,00,00,00,00,00,00,
4365222758,00000247,false,Rx,1,8,44,7D,08,3A,05,00,20,00,
4365222991,00000217,false,Rx,1,8,21,60,81,FD,9C,37,00,03,
4365223239,00000717,false,Rx,1,8,13,00,00,00,01,00,00,00,
4365281639,0000045C,false,Rx,1,8,19,8C,15,0E,00,00,1F,8C,
4365300848,00000368,false,Rx,1,8,03,49,29,11,00,0C,40,FF,
4365322038,00000207,false,Rx,1,8,00,00,C4,FF,F0,00,04,00,
4365322277,00000227,false,Rx,1,8,E5,30,1A,7F,00,00,1F,C5,
4365322525,00000237,false,Rx,1,8,39,41,00,00,00,00,00,00,
4365322758,00000247,false,Rx,1,8,44,7D,08,3A,05,00,20,00,
4365322991,00000217,false,Rx,1,8,21,60,81,FD,9C,37,00,03,
4365323240,00000537,false,Rx,1,8,13,01,FE,00,00,FC,00,00,
4365323480,00000717,false,Rx,1,8,14,00,00,01,EB,FF,00,00,
4365351008,0000042C,false,Rx,1,8,42,60,00,00,64,00,00,00,
4365401056,0000045C,false,Rx,1,8,13,8C,15,0E,00,00,1F,8C,
4365422011,00000207,false,Rx,1,8,00,00,04,00,F0,00,04,00,
4365422243,00000227,false,Rx,1,8,D5,30,0F,7F,00,00,1F,C5,
4365422483,00000237,false,Rx,1,8,39,41,00,00,00,00,00,00,
4365422723,00000247,false,Rx,1,8,44,7D,08,3A,05,00,20,00,
4365422957,00000217,false,Rx,1,8,21,60,81,FD,9C,37,00,03,
4365451013,00000368,false,Rx,1,8,03,49,29,11,00,0C,40,FF,
4365521879,00000367,false,Rx,1,8,00,00,00,00,00,00,40,00,
4365522120,00000207,false,Rx,1,8,00,00,C4,FF,F0,00,04,00,
4365522359,00000227,false,Rx,1,8,C5,30,18,7F,02,00,1F,C5,
4365522599,00000237,false,Rx,1,8,39,41,00,00,00,00,00,00,
4365522833,00000217,false,Rx,1,8,21,60,81,FD,9C,37,00,03,
4365523074,00000247,false,Rx,1,8,44,7D,08,3A,05,00,20,00,
4365523314,00000717,false,Rx,1,8,16,00,00,00,00,00,D8,45,
4365531874,00000377,false,Rx,1,8,00,00,00,00,00,00,00,00,
4365541856,0000042C,false,Rx,1,8,42,60,00,00,64,00,00,00,
4365542104,00000347,false,Rx,1,8,00,00,00,00,00,00,00,00,
4365550884,0000045C,false,Rx,1,8,13,8C,15,0E,00,00,13,8C,
4365551866,00000357,false,Rx,1,8,00,00,00,00,00,00,02,00,
4365561868,00000327,false,Rx,1,8,00,00,00,00,00,00,00,00,
4365571858,00000337,false,Rx,1,8,00,00,00,00,00,00,00,00,
4365601013,00000368,false,Rx,1,8,03,49,29,11,00,0C,40,FF,
4365621968,00000207,false,Rx,1,8,00,00,C4,FF,F0,00,04,00,
4365622207,00000227,false,Rx,1,8,B2,30,14,7F,02,00,1F,C5,
4365622447,00000237,false,Rx,1,8,39,41,00,00,00,00,00,00,
4365622688,00000247,false,Rx,1,8,44,7D,08,3A,05,00,20,00,
4365622920,00000217,false,Rx,1,8,21,60,81,FD,9C,37,00,03,
4365623169,00000717,false,Rx,1,8,17,00,00,60,04,00,00,00,
4365651373,0000042C,false,Rx,1,8,42,60,00,00,64,00,00,00,
4365701052,0000045C,false,Rx,1,8,17,8C,15,0E,00,00,21,8C,
4365721933,00000207,false,Rx,1,8,00,00,C4,FF,F0,00,04,00,
4365722172,00000227,false,Rx,1,8,AE,30,11,7F,05,00,1F,C5,
4365722411,00000237,false,Rx,1,8,39,41,00,00,00,00,00,00,
4365722653,00000247,false,Rx,1,8,44,7D,08,3A,05,00,20,00,
4365722885,00000217,false,Rx,1,8,21,60,81,FD,9C,37,00,03,
4365723133,00000717,false,Rx,1,8,18,00,00,00,00,00,00,00,
4365805000,00000368,false,Rx,1,8,03,49,29,11,00,0C,40,FF,
4365821927,00000207,false,Rx,1,8,00,00,C4,FF,F0,00,04,00,
4365822159,00000227,false,Rx,1,8,99,30,14,7F,02,00,1F,C5,
4365822407,00000237,false,Rx,1,8,39,41,00,00,00,00,00,00,
4365822640,00000247,false,Rx,1,8,44,7D,08,3A,05,00,20,00,
4365822872,00000217,false,Rx,1,8,21,60,81,FD,9C,37,00,03,
4365823122,00000717,false,Rx,1,8,19,00,00,00,00,00,00,00,
4365850864,0000042C,false,Rx,1,8,42,60,00,00,64,00,00,00,
4365901055,0000045C,false,Rx,1,8,18,8C,15,0E,00,00,1F,8C,
4365921902,00000207,false,Rx,1,8,00,00,04,00,F0,00,04,00,
4365922134,00000227,false,Rx,1,8,8B,30,17,7F,0B,00,1F,C5,
4365922375,00000237,false,Rx,1,8,39,41,00,00,00,00,00,00,
4365922615,00000247,false,Rx,1,8,44,7D,08,3A,05,00,20,00,
4365922847,00000217,false,Rx,1,8,21,60,81,FD,9C,37,00,03,
4365923097,00000717,false,Rx,1,8,01,00,00,00,00,00,00,00,
4365951023,00000368,false,Rx,1,8,03,49,29,11,00,0C,40,FF,
4366021881,00000207,false,Rx,1,8,00,00,04,00,F0,00,04,00,
4366022122,00000227,false,Rx,1,8,75,30,10,7F,01,00,1F,C5,
4366022362,00000237,false,Rx,1,8,39,41,00,00,00,00,00,00,
4366022601,00000247,false,Rx,1,8,44,7D,08,3A,05,00,20,00,
4366022835,00000217,false,Rx,1,8,21,60,81,FD,9C,37,00,03,
4366023077,00000717,false,Rx,1,8,02,00,00,00,00,00,00,00,
4366061611,0000042C,false,Rx,1,8,42,60,00,00,64,00,00,00,
4366102366,0000045C,false,Rx,1,8,16,8C,15,0E,00,00,08,8C,
4366121867,00000207,false,Rx,1,8,00,00,04,00,F0,00,04,00,
4366122102,00000227,false,Rx,1,8,64,30,16,7F,01,00,1F,C5,
4366122349,00000237,false,Rx,1,8,39,41,00,00,00,00,00,00,
4366122581,00000247,false,Rx,1,8,44,7D,08,3A,05,00,20,00,
4366122815,00000217,false,Rx,1,8,21,60,81,FD,9C,37,00,03,
4366151084,00000368,false,Rx,1,8,03,49,29,11,00,0C,40,FF,
4366201087,0000042C,false,Rx,1,8,42,60,00,00,64,00,00,00,
4366221837,00000207,false,Rx,1,8,00,00,C4,FF,F0,00,04,00,
4366222077,00000227,false,Rx,1,8,53,30,0B,7F,00,00,1F,C5,
4366222316,00000237,false,Rx,1,8,39,41,00,00,00,00,00,00,
4366222550,00000247,false,Rx,1,8,44,7D,08,3A,05,00,20,00,
4366222790,00000217,false,Rx,1,8,21,60,81,FD,9C,37,00,03,
4366223031,00000537,false,Rx,1,8,14,05,00,00,00,00,00,00,
4366223279,00000717,false,Rx,1,8,04,00,00,00,00,00,00,00,
4366251019,0000045C,false,Rx,1,8,19,8C,15,0E,00,00,21,8C,
4366321833,00000207,false,Rx,1,8,00,00,04,00,F0,00,04,00,
4366322066,00000227,false,Rx,1,8,4D,30,13,7F,00,00,1F,C5,
4366322313,00000237,false,Rx,1,8,39,41,00,00,00,00,00,00,
4366322547,00000247,false,Rx,1,8,44,7D,08,3A,05,00,20,00,
4366322787,00000217,false,Rx,1,8,21,60,81,FD,9C,37,00,03,
4366323028,00000717,false,Rx,1,8,05,00,00,00,00,00,00,00,
4366328070,00000368,false,Rx,1,8,03,49,29,11,00,0C,40,FF,
4366350989,0000042C,false,Rx,1,8,42,60,00,00,64,00,00,00,
4366401098,0000045C,false,Rx,1,8,16,8C,15,0E,00,00,14,8C,
4366421796,00000207,false,Rx,1,8,00,00,04,00,F0,00,04,00,
4366422028,00000227,false,Rx,1,8,37,30,17,7F,09,00,1F,C5,
4366422277,00000237,false,Rx,1,8,39,41,00,00,00,00,00,00,
4366422509,00000247,false,Rx,1,8,44,7D,08,3A,05,00,20,00,
4366422741,00000217,false,Rx,1,8,21,60,81,FD,9C,37,00,03,
4366422976,00000717,false,Rx,1,8,06,00,48,46,66,06,4F,2B,
4366451066,00000368,false,Rx,1,8,03,49,29,11,00,0C,40,FF,
4366501167,0000042C,false,Rx,1,8,42,60,00,00,64,00,00,00,
4366521689,00000367,false,Rx,1,8,00,00,00,00,00,00,40,00,
4366521937,00000207,false,Rx,1,8,00,00,C4,FF,F0,00,04,00,
4366522170,00000227,false,Rx,1,8,2D,30,14,7F,00,00,1F,C5,
4366522417,00000237,false,Rx,1,8,39,41,00,00,00,00,00,00,
4366522650,00000217,false,Rx,1,8,21,60,81,FD,9C,37,00,03,
4366522891,00000247,false,Rx,1,8,44,7D,08,3A,05,00,20,00,
4366523132,00000717,false,Rx,1,8,07,00,00,00,01,0A,00,00,
4366531692,00000377,false,Rx,1,8,00,00,00,00,00,00,00,00,
4366541680,00000347,false,Rx,1,8,00,00,00,00,00,00,00,00,
4366551669,00000357,false,Rx,1,8,00,00,00,00,00,00,02,00,
4366561665,00000327,false,Rx,1,8,00,00,00,00,00,00,00,00,
4366571662,00000337,false,Rx,1,8,00,00,00,00,00,00,00,00,
4366596615,0000045C,false,Rx,1,8,16,8C,15,0E,00,00,08,8C,
4366600929,00000368,false,Rx,1,8,03,49,29,11,00,0C,40,FF,
4366621762,00000207,false,Rx,1,8,00,00,04,00,F0,00,04,00,
4366622003,00000227,false,Rx,1,8,21,30,15,7F,03,00,1F,C5,
4366622243,00000237,false,Rx,1,8,39,41,00,00,00,00,00,00,
4366622483,00000247,false,Rx,1,8,44,7D,08,3A,05,00,20,00,
4366622717,00000217,false,Rx,1,8,21,60,81,FD,9C,37,00,03,
4366622958,00000717,false,Rx,1,8,08,00,00,00,56,46,00,00,
4366650947,0000042C,false,Rx,1,8,42,60,00,00,64,00,00,00,
4366701089,0000045C,false,Rx,1,8,17,8C,15,0E,00,00,08,8C,
4366721711,00000207,false,Rx,1,8,00,00,C4,FF,F0,00,04,00,
4366721951,00000227,false,Rx,1,8,12,30,10,7F,02,00,1F,C5,
4366722198,00000237,false,Rx,1,8,39,41,00,00,00,00,00,00,
4366722431,00000247,false,Rx,1,8,44,7D,08,3A,05,00,20,00,
4366722672,00000217,false,Rx,1,8,21,60,81,FD,9C,37,00,03,
4366722911,00000717,false,Rx,1,8,09,00,2D,46,00,00,00,00,
4366751072,00000368,false,Rx,1,8,03,49,29,11,00,0C,40,FF,
4366821715,00000207,false,Rx,1,8,00,00,04,00,F0,00,04,00,
4366821955,00000227,false,Rx,1,8,01,30,11,7F,00,00,1F,C5,
4366822195,00000237,false,Rx,1,8,39,41,00,00,00,00,00,00,
4366822436,00000247,false,Rx,1,8,44,7D,08,3A,05,00,20,00,
4366822668,00000217,false,Rx,1,8,21,60,81,FD,9C,37,00,03,
4366822901,00000717,false,Rx,1,8,0A,00,E1,8B,7F,8D,00,00,
4366841921,0000042C,false,Rx,1,8,42,60,00,00,64,00,00,00,
4366850945,0000045C,false,Rx,1,8,16,8C,15,0E,00,00,08,8C,
4366901121,00000368,false,Rx,1,8,03,49,29,11,00,0C,40,FF,
4366921682,00000207,false,Rx,1,8,00,00,04,00,F0,00,04,00,
4366921921,00000227,false,Rx,1,8,E8,2F,0C,7F,00,00,1F,C5,
4366922163,00000237,false,Rx,1,8,39,41,00,00,00,00,00,00,
4366922403,00000247,false,Rx,1,8,44,7D,08,3A,05,00,20,00,
4366922635,00000217,false,Rx,1,8,21,60,81,FD,9C,37,00,03,
4366922883,00000717,false,Rx,1,8,0B,00,00,00,00,00,00,00,
4366951108,0000042C,false,Rx,1,8,42,60,00,00,64,00,00,00,
4367001141,0000045C,false,Rx,1,8,19,8C,15,0E,00,00,16,8C,
4367021672,00000207,false,Rx,1,8,00,00,C4,FF,F0,00,04,00,
4367021903,00000227,false,Rx,1,8,DC,2F,0F,7F,01,00,1F,C5,
4367022153,00000237,false,Rx,1,8,39,41,00,00,00,00,00,00,
4367022385,00000247,false,Rx,1,8,44,7D,08,3A,05,00,20,00,
4367022618,00000217,false,Rx,1,8,21,60,81,FD,9C,37,00,03,
4367022859,00000717,false,Rx,1,8,0C,01,00,03,00,00,02,02,
4367099713,00000368,false,Rx,1,8,03,49,29,11,00,0C,40,FF,
4367101911,0000042C,false,Rx,1,8,42,60,00,00,64,00,00,00,
4367121657,00000207,false,Rx,1,8,00,00,04,00,F0,00,04,00,
4367121889,00000227,false,Rx,1,8,CF,2F,0B,7F,00,00,1F,C5,
4367122138,00000237,false,Rx,1,8,39,41,00,00,00,00,00,00,
4367122370,00000247,false,Rx,1,8,44,7D,08,3A,05,00,20,00,
4367122603,00000217,false,Rx,1,8,21,60,81,FD,9C,37,00,03,
4367122836,00000717,false,Rx,1,8,0E,10,20,37,4B,AD,01,00,
4367151157,0000045C,false,Rx,1,8,14,8C,15,0E,00,00,14,8C,
4367201115,00000368,false,Rx,1,8,03,49,29,11,00,0C,40,FF,
4367221614,00000207,false,Rx,1,8,00,00,04,00,F0,00,04,00,
4367221847,00000227,false,Rx,1,8,BB,2F,10,7F,00,00,1F,C5,
4367222095,00000237,false,Rx,1,8,39,41,00,00,00,00,00,00,
4367222328,00000247,false,Rx,1,8,44,7D,08,3A,05,00,20,00,
4367222561,00000217,false,Rx,1,8,21,60,81,FD,9C,37,00,03,
4367222801,00000717,false,Rx,1,8,0F,00,EB,01,6B,0E,00,00,
4367251084,0000042C,false,Rx,1,8,42,60,00,00,64,00,00,00,
4367321627,00000207,false,Rx,1,8,00,00,C4,FF,F0,00,04,00,
4367321859,00000227,false,Rx,1,8,A8,2F,14,7F,02,00,1F,C5,
4367322107,00000237,false,Rx,1,8,39,41,00,00,00,00,00,00,
4367322341,00000247,false,Rx,1,8,44,7D,08,3A,05,00,20,00,
4367322573,00000217,false,Rx,1,8,21,60,81,FD,9C,37,00,03,
4367322820,00000717,false,Rx,1,8,10,09,40,FF,03,80,FF,00,
4367364076,0000045C,false,Rx,1,8,19,8C,15,0E,00,00,08,8C,
4367400983,00000368,false,Rx,1,8,03,49,29,11,00,0C,40,FF,
4367421582,00000207,false,Rx,1,8,00,00,04,00,F0,00,04,00,
4367421814,00000227,false,Rx,1,8,A3,2F,10,7F,05,00,1F,C5,
4367422054,00000237,false,Rx,1,8,39,41,00,00,00,00,00,00,
4367422296,00000247,false,Rx,1,8,44,7D,08,3A,05,00,20,00,
4367422528,00000217,false,Rx,1,8,21,60,81,FD,9C,37,00,03,
4367422768,00000717,false,Rx,1,8,11,00,84,04,2D,00,00,00,
4367451078,0000042C,false,Rx,1,8,42,60,00,00,64,00,00,00,
4367501271,0000045C,false,Rx,1,8,18,8C,15,0E,00,00,21,8C,
4367521461,00000367,false,Rx,1,8,00,00,00,00,00,00,40,00,
4367521715,00000207,false,Rx,1,8,00,00,04,00,F0,00,04,00,
4367521942,00000227,false,Rx,1,8,93,2F,0F,7F,03,00,1F,C5,
4367522189,00000237,false,Rx,1,8,39,41,00,00,00,00,00,00,
4367522421,00000217,false,Rx,1,8,21,60,81,FD,9C,37,00,03,
4367522661,00000247,false,Rx,1,8,44,7D,08,3A,05,00,20,00,
4367522895,00000717,false,Rx,1,8,12,40,29,00,27,00,1A,00,
4367531471,00000377,false,Rx,1,8,00,00,00,00,00,00,00,00,
4367541483,00000347,false,Rx,1,8,00,00,00,00,00,00,00,00,
4367551479,00000357,false,Rx,1,8,00,00,00,00,00,00,02,00,
4367561462,00000327,false,Rx,1,8,00,00,00,00,00,00,00,00,
4367571459,00000337,false,Rx,1,8,00,00,00,00,00,00,00,00,
4367621325,00000368,false,Rx,1,8,03,49,29,11,00,0C,40,FF,
4367621578,00000207,false,Rx,1,8,00,00,04,00,F0,00,04,00,
4367621805,00000227,false,Rx,1,8,86,2F,0C,7F,05,00,1F,C5,
4367622053,00000237,false,Rx,1,8,39,41,00,00,00,00,00,00,
4367622286,00000247,false,Rx,1,8,44,7D,08,3A,05,00,20,00,
4367622518,00000217,false,Rx,1,8,21,60,81,FD,9C,37,00,03,
4367622766,00000717,false,Rx,1,8,13,00,00,00,01,00,00,00,
4367650966,0000042C,false,Rx,1,8,42,60,00,00,64,00,00,00,
4367701186,0000045C,false,Rx,1,8,17,8C,15,0E,00,00,14,8C,
4367721529,00000207,false,Rx,1,8,00,00,C4,FF,F0,00,04,00,
4367721761,00000227,false,Rx,1,8,6F,2F,13,7F,00,00,1F,C5,
4367722002,00000237,false,Rx,1,8,39,41,00,00,00,00,00,00,
4367722242,00000247,false,Rx,1,8,44,7D,08,3A,05,00,20,00,
4367722476,00000217,false,Rx,1,8,21,60,81,FD,9C,37,00,03,
4367722723,00000717,false,Rx,1,8,14,00,00,01,DB,FF,00,00,
4367751117,00000368,false,Rx,1,8,03,49,29,11,00,0C,40,FF,
4367801171,0000042C,false,Rx,1,8,42,60,00,00,64,00,00,00,
4367821506,00000207,false,Rx,1,8,00,00,C4,FF,F0,00,04,00,
4367821745,00000227,false,Rx,1,8,65,2F,0B,7F,03,00,1F,C5,
4367821987,00000237,false,Rx,1,8,39,41,00,00,00,00,00,00,
4367822220,00000247,false,Rx,1,8,44,7D,08,3A,05,00,20,00,
4367822453,00000217,false,Rx,1,8,21,60,81,FD,9C,37,00,03,
4367880435,0000045C,false,Rx,1,8,19,8C,15,0E,00,00,23,8C,
4367901011,00000368,false,Rx,1,8,03,49,29,11,00,0C,40,FF,
4367921484,00000207,false,Rx,1,8,00,00,C4,FF,F0,00,04,00,
4367921716,00000227,false,Rx,1,8,56,2F,0C,7F,00,00,1F,C5,
4367921957,00000237,false,Rx,1,8,39,41,00,00,00,00,00,00,
4367922198,00000247,false,Rx,1,8,44,7D,08,3A,05,00,20,00,
4367922431,00000217,false,Rx,1,8,21,60,81,FD,9C,37,00,03,
4367922671,00000717,false,Rx,1,8,16,00,00,00,00,00,2C,46,
4367951126,0000042C,false,Rx,1,8,42,60,00,00,64,00,00,00,
4368001152,0000045C,false,Rx,1,8,18,8C,15,0E,00,00,2D,8C,
4368021456,00000207,false,Rx,1,8,00,00,C4,FF,F0,00,04,00,
4368021688,00000227,false,Rx,1,8,43,2F,16,7F,00,00,1F,C5,
4368021939,00000237,false,Rx,1,8,39,41,00,00,00,00,00,00,
4368022171,00000247,false,Rx,1,8,44,7D,08,3A,05,00,20,00,
4368022404,00000217,false,Rx,1,8,21,60,81,FD,9C,37,00,03,
4368022643,00000537,false,Rx,1,8,0A,01,0E,00,FC,00,3F,00,
4368022892,00000717,false,Rx,1,8,17,00,00,60,04,00,00,00,
4368051336,00000368,false,Rx,1,8,03,49,29,11,00,0C,40,FF,
4368121471,00000207,false,Rx,1,8,00,00,04,00,F0,00,04,00,
4368121710,00000227,false,Rx,1,8,3A,2F,16,7F,01,00,1F,C5,
4368121952,00000237,false,Rx,1,8,39,41,00,00,00,00,00,00,
4368122184,00000247,false,Rx,1,8,44,7D,08,3A,05,00,20,00,
4368122424,00000217,false,Rx,1,8,21,60,81,FD,9C,37,00,03,
4368122673,00000717,false,Rx,1,8,18,00,00,00,00,00,00,00,
4368145075,0000042C,false,Rx,1,8,42,60,00,00,64,00,00,00,
4368151069,0000045C,false,Rx,1,8,14,8C,15,0E,00,00,1F,8C,
4368201164,00000368,false,Rx,1,8,03,49,29,11,00,0C,40,FF,
4368221430,00000207,false,Rx,1,8,00,00,04,00,F0,00,04,00,
4368221663,00000227,false,Rx,1,8,31,2F,0F,7F,01,00,1F,C5,
4368221910,00000237,false,Rx,1,8,39,41,00,00,00,00,00,00,
4368222144,00000247,false,Rx,1,8,44,7D,08,3A,05,00,20,00,
4368222378,00000217,false,Rx,1,8,21,60,81,FD,9C,37,00,03,
4368222625,00000717,false,Rx,1,8,19,00,00,00,00,00,00,00,
4368251154,0000042C,false,Rx,1,8,42,60,00,00,64,00,00,00,
4368301196,0000045C,false,Rx,1,8,17,8C,15,0E,00,00,14,8C,
4368321402,00000207,false,Rx,1,8,00,00,C4,FF,F0,00,04,00,
4368321635,00000227,false,Rx,1,8,1B,2F,0D,7F,02,00,1F,C5,
4368321882,00000237,false,Rx,1,8,39,41,00,00,00,00,00,00,
4368322116,00000247,false,Rx,1,8,44,7D,08,3A,05,00,20,00,
4368322349,00000217,false,Rx,1,8,21,60,81,FD,9C,37,00,03,
4368322597,00000717,false,Rx,1,8,01,00,00,00,00,00,00,00,
4368401259,00000368,false,Rx,1,8,03,49,29,11,00,0C,40,FF,
4368421401,00000207,false,Rx,1,8,00,00,04,00,F0,00,04,00,
4368421632,00000227,false,Rx,1,8,0D,2F,08,7F,00,00,1F,C5,
4368421879,00000237,false,Rx,1,8,39,41,00,00,00,00,00,00,
4368422114,00000247,false,Rx,1,8,44,7D,08,3A,05,00,20,00,
4368422347,00000217,false,Rx,1,8,21,60,81,FD,9C,37,00,03,
4368422594,00000717,false,Rx,1,8,02,00,00,00,00,00,00,00,
4368451193,0000042C,false,Rx,1,8,42,60,00,00,64,00,00,00,
4368501203,0000045C,false,Rx,1,8,15,8C,15,0E,00,00,18,8C,
4368521258,00000367,false,Rx,1,8,00,00,00,00,00,00,40,00,
4368521511,00000207,false,Rx,1,8,00,00,04,00,F0,00,04,00,
4368521751,00000227,false,Rx,1,8,00,2F,06,7F,02,00,1F,C5,
4368521993,00000237,false,Rx,1,8,39,41,00,00,00,00,00,00,
4368522233,00000217,false,Rx,1,8,21,60,81,FD,9C,37,00,03,
4368522466,00000247,false,Rx,1,8,44,7D,08,3A,05,00,20,00,
4368531258,00000377,false,Rx,1,8,00,00,00,00,00,00,00,00,
4368541255,00000347,false,Rx,1,8,00,00,00,00,00,00,00,00,
4368551192,00000368,false,Rx,1,8,03,49,29,11,00,0C,40,FF,
4368551438,00000357,false,Rx,1,8,00,00,00,00,00,00,02,00,
4368561263,00000327,false,Rx,1,8,00,00,00,00,00,00,00,00,
4368571261,00000337,false,Rx,1,8,00,00,00,00,00,00,00,00,
4368621345,00000207,false,Rx,1,8,00,00,C4,FF,F0,00,04,00,
4368621577,00000227,false,Rx,1,8,EE,2E,09,7F,0A,00,1F,C5,
4368621818,00000237,false,Rx,1,8,39,41,00,00,00,00,00,00,
4368622051,00000247,false,Rx,1,8,44,7D,08,3A,05,00,20,00,
4368622291,00000217,false,Rx,1,8,21,60,81,FD,9C,37,00,03,
4368622539,00000717,false,Rx,1,8,04,00,00,00,00,00,00,00,
4368676104,0000042C,false,Rx,1,8,42,60,00,00,64,00,00,00,
4368701064,0000045C,false,Rx,1,8,14,8C,15,0E,00,00,16,8C,
4368721307,00000207,false,Rx,1,8,00,00,04,00,F0,00,04,00,
4368721546,00000227,false,Rx,1,8,DE,2E,0F,7F,01,00,1F,C5,
4368721787,00000237,false,Rx,1,8,39,41,00,00,00,00,00,00,
4368722020,00000247,false,Rx,1,8,44,7D,08,3A,05,00,20,00,
4368722253,00000217,false,Rx,1,8,21,60,81,FD,9C,37,00,03,
4368722501,00000717,false,Rx,1,8,05,00,00,00,00,00,00,00,
4368751189,00000368,false,Rx,1,8,03,49,29,11,00,0C,40,FF,
4368801234,0000042C,false,Rx,1,8,42,60,00,00,64,00,00,00,
4368821312,00000207,false,Rx,1,8,00,00,04,00,F0,00,04,00,
4368821552,00000227,false,Rx,1,8,DC,2E,0D,7F,06,00,1F,C5,
4368821792,00000237,false,Rx,1,8,39,41,00,00,00,00,00,00,
4368822025,00000247,false,Rx,1,8,44,7D,08,3A,05,00,20,00,
4368822266,00000217,false,Rx,1,8,21,60,81,FD,9C,37,00,03,
4368822491,00000717,false,Rx,1,8,06,00,2E,46,66,06,90,2C,
4368851194,0000045C,false,Rx,1,8,15,8C,15,0E,00,00,0A,8C,
4368921301,00000207,false,Rx,1,8,00,00,C4,FF,F0,00,04,00,
4368921532,00000227,false,Rx,1,8,C7,2E,0E,7F,00,00,1F,C5,
4368921772,00000237,false,Rx,1,8,39,41,00,00,00,00,00,00,
4368922014,00000247,false,Rx,1,8,44,7D,08,3A,05,00,20,00,
4368922246,00000217,false,Rx,1,8,21,60,81,FD,9C,37,00,03,
4368922486,00000537,false,Rx,1,8,0B,00,05,06,00,00,00,00,
4368922733,00000717,false,Rx,1,8,07,00,00,00,01,0A,00,00,
4368927705,00000368,false,Rx,1,8,03,49,29,11,00,0C,40,FF,
4368951146,0000042C,false,Rx,1,8,42,60,00,00,64,00,00,00,
4369001263,0000045C,false,Rx,1,8,15,8C,15,0E,00,00,21,8C,
4369021257,00000207,false,Rx,1,8,00,00,C4,FF,F0,00,04,00,
4369021488,00000227,false,Rx,1,8,BC,2E,0F,7F,00,00,1F,C5,
4369021736,00000237,false,Rx,1,8,39,41,00,00,00,00,00,00,
4369021970,00000247,false,Rx,1,8,44,7D,08,3A,05,00,20,00,
4369022202,00000217,false,Rx,1,8,21,60,81,FD,9C,37,00,03,
4369022442,00000717,false,Rx,1,8,08,00,00,00,EB,45,00,00,
4369051208,00000368,false,Rx,1,8,03,49,29,11,00,0C,40,FF,
4369101247,0000042C,false,Rx,1,8,42,60,00,00,64,00,00,00,
4369121243,00000207,false,Rx,1,8,00,00,04,00,F0,00,04,00,
4369121474,00000227,false,Rx,1,8,AB,2E,0E,7F,01,00,1F,C5,
4369121715,00000237,false,Rx,1,8,39,41,00,00,00,00,00,00,
4369121956,00000247,false,Rx,1,8,44,7D,08,3A,05,00,20,00,
4369122188,00000217,false,Rx,1,8,21,60,81,FD,9C,37,00,03,
4369122436,00000717,false,Rx,1,8,09,00,01,46,00,00,00,00,
4369184796,0000045C,false,Rx,1,8,13,8C,15,0E,00,00,14,8C,
4369201104,00000368,false,Rx,1,8,03,49,29,11,00,0C,40,FF,
4369221237,00000207,false,Rx,1,8,00,00,C4,FF,F0,00,04,00,
4369221468,00000227,false,Rx,1,8,99,2E,11,7F,02,00,1F,C5,
4369221717,00000237,false,Rx,1,8,39,41,00,00,00,00,00,00,
4369221950,00000247,false,Rx,1,8,44,7D,08,3A,05,00,20,00,
4369222183,00000217,false,Rx,1,8,21,60,81,FD,9C,37,00,03,
4369222416,00000717,false,Rx,1,8,0A,00,E1,8B,7F,8D,00,00,
4369251224,0000042C,false,Rx,1,8,42,60,00,00,64,00,00,00,
4369301274,0000045C,false,Rx,1,8,14,8C,15,0E,00,00,08,8C,
4369321187,00000207,false,Rx,1,8,00,00,04,00,F0,00,04,00,
4369321419,00000227,false,Rx,1,8,94,2E,0D,7F,02,00,1F,C5,
